! Network Analyzer HP8722ES.07.74: Oct 30, 2002 Serial No. US39175660
! Hewlett-Packard
! 30 May 2012  16:59:59
! Frequency       S11                S21                S12                S22
# HZ  S  DB R  50 
50000000  -49.866   -113.44   -5.8683   -4.0718   -5.9363   -2.8194   -39.44   -66.522   
72250000  -29.054   -54.062   -5.7803    5.4712   -5.9869    3.8905   -33.28   -81.277   
94500000  -33.661   -81.957   -5.9455   -4.4316   -6.0087   -5.121   -35.914   -96.31   
116750000  -40.829    174.53   -5.4174   -2.8908   -5.665   -3.9633   -38.845    126.69   
139000000  -38.268   -116.65   -5.7684   -6.5396   -5.8998   -7.8223   -49.193   -158.75   
161250000  -28.54   -90.202   -5.6171   -9.2299   -5.7594   -10.357   -29.668   -87.453   
183500000  -27.749   -90.218   -5.7571   -10.646   -5.8327   -12.073   -28.588   -96.645   
205750000  -33.913   -116.07   -5.7778   -15.046   -5.8336   -15.614   -32.634   -111.88   
228000000  -33.717   -150.41   -5.7107   -14.826   -5.8346   -16.061   -33.025   -107.76   
250250000  -29.401   -118.59   -5.9935   -19.981   -6.0428   -20.164   -30.332   -112.47   
272500000  -27.401   -110.48   -5.7711   -19.477   -5.8838   -19.812   -27.259   -108.77   
294750000  -27.422   -121.43   -6.0341   -23.184   -6.0713   -23.564   -28.629   -119.85   
317000000  -27.936   -142.87   -5.8347   -23.434   -5.9561   -23.768   -29.421   -126.05   
339250000  -27.159   -135.4   -5.9291   -25.969   -6.0605   -26.238   -28.9   -123.31   
361500000  -26.107   -124.93   -5.9215   -27.933   -6.0001   -28.622   -27.417   -123.65   
383750000  -25.597   -128.48   -5.9852   -29.393   -6.0737   -30.347   -26.935   -128.02   
406000000  -25.785   -138.28   -6.1368   -32.261   -6.2302   -32.857   -27.38   -132.79   
428250000  -25.828   -142.59   -6.139   -32.94   -6.2797   -34.055   -27.272   -134.65   
450500000  -25.609   -143.86   -6.1649   -36.281   -6.2119   -36.571   -26.636   -137.65   
472750000  -24.831   -151.12   -6.0246   -38.194   -6.0835   -38.053   -26.181   -140.85   
495000000  -24.331   -143.71   -6.325   -39.699   -6.2701   -39.613   -26.296   -141.87   
517250000  -23.095   -163.06   -6.3358   -41.673   -6.1657   -41.678   -26.95   -174.87   
539500000  -24.235   -159.12   -6.3324   -43.112   -6.2183   -43.201   -26.69   -162.21   
561750000  -25.228   -140.14   -6.3029   -44.809   -6.3776   -43.797   -25.745   -147.97   
584000000  -24.37   -147.96   -6.4199   -46.879   -6.3824   -45.993   -25.465   -151.62   
606250000  -23.976   -165.66   -6.2486   -47.867   -6.2029   -47.964   -25.38   -157.28   
628500000  -23.098   -167.74   -6.4056   -49.87   -6.305   -50.195   -25.753   -161.5   
650750000  -23.88   -159.78   -6.4345   -51.463   -6.4202   -51.604   -25.457   -158.53   
673000000  -24.879   -160.14   -6.4026   -52.943   -6.5872   -53.977   -25.37   -158.8   
695250000  -23.742   -162.94   -6.4702   -54.712   -6.49   -54.895   -25.341   -162.6   
717500000  -23.51   -169.44   -6.5805   -56.369   -6.5608   -56.759   -25.358   -165.19   
739750000  -23.696   -171.28   -6.6696   -57.886   -6.652   -58.083   -25.502   -167.16   
762000000  -23.791   -173.16   -6.614   -59.718   -6.6372   -59.76   -26.567   -145.72   
784250000  -23.932   -172.89   -6.5142   -61.479   -6.6018   -61.996   -26.231   -151.49   
806500000  -23.181   -170.68   -6.491   -63.652   -6.545   -64.083   -24.334   -179.31   
828750000  -22.656   -174.61   -6.6074   -65.47   -6.598   -65.759   -24.491    172.64   
851000000  -24.141   -177.58   -6.5775   -66.212   -6.6471   -66.487   -26.262   -174.82   
873250000  -24.98   -178.3   -6.5104   -67.705   -6.6675   -67.971   -26.524   -169.2   
895500000  -24.244   -178.72   -6.5764   -69.472   -6.6489   -69.732   -26.121   -179.68   
917750000  -23.725   -178.56   -6.6345   -70.906   -6.7   -71.323   -26.366    177.18   
940000000  -24.625    178.54   -6.6495   -72.57   -6.6864   -72.616   -26.613    176.75   
962250000  -25.459    175.46   -6.6737   -74.281   -6.6391   -74.6   -26.796    175.46   
984500000  -25.18    178.51   -6.7094   -76.168   -6.706   -76.443   -27.109    174.25   
1006750000  -24.64    176.24   -6.6566   -77.831   -6.7052   -77.599   -26.617    166.4   
1029000000  -24.66    176.89   -6.6958   -79.249   -6.7246   -78.992   -27.152    161.77   
1051250000  -24.773    176.13   -6.6242   -79.86   -6.6624   -80.388   -28.19    171.19   
1073500000  -25.37   -179.49   -6.7574   -81.367   -6.7158   -82.065   -28.419    172.89   
1095750000  -25.163    179.59   -6.683   -83.621   -6.7036   -83.855   -28.53    167.06   
1118000000  -24.752    177.27   -6.6495   -85.66   -6.7419   -85.552   -28.163    160.35   
1140250000  -25.519    174.88   -6.667   -87.373   -6.7048   -86.911   -29.368    164.01   
1162500000  -25.732    169.86   -6.7173   -88.245   -6.7243   -88.68   -30.679    172.91   
1184750000  -25.487    174.86   -6.6994   -89.941   -6.6968   -90.446   -30.55    172.11   
1207000000  -25.255    176.64   -6.7194   -91.605   -6.7474   -92.027   -30.386    165.07   
1229250000  -25.224    177.6   -6.6549   -93.093   -6.7095   -93.143   -31.256    161.44   
1251500000  -25.904    173.63   -6.6715   -94.607   -6.7047   -94.522   -33.205    171.77   
1273750000  -26.958    175.77   -6.6567   -96.163   -6.6549   -96.306   -33.4   -173.99   
1296000000  -25.126   -176.61   -6.6275   -97.854   -6.6458   -98.05   -33.141    173.01   
1318250000  -24.184   -173.32   -6.6765   -99.543   -6.6768   -99.892   -32.785    169.03   
1340500000  -25.044   -178.71   -6.6515   -101.22   -6.704   -101.38   -34.538    178.97   
1362750000  -25.497    175.53   -6.627   -102.88   -6.6307   -102.94   -35.977   -167.01   
1385000000  -25.12    177.64   -6.6286   -104.62   -6.5851   -104.74   -35.281   -163.82   
1407250000  -24.154   -177.31   -6.6228   -106.27   -6.6097   -106.46   -36.242   -157.32   
1429500000  -23.647   -176.87   -6.5797   -108.08   -6.6307   -108.21   -35.607   -149.01   
1451750000  -23.672   -179.98   -6.6068   -109.59   -6.6657   -109.44   -37.862   -107.19   
1474000000  -23.829   -179.39   -6.5711   -111.41   -6.6218   -110.59   -33.704   -83.669   
1496250000  -23.93   -176.52   -6.603   -112.88   -6.6044   -112.81   -33.389   -141.09   
1518500000  -24.1   -178.12   -6.6291   -114.28   -6.6224   -115.09   -31.906   -152.26   
1540750000  -23.99   -178.96   -6.5631   -116.25   -6.6103   -116.77   -33.134   -131.41   
1563000000  -22.506    160.55   -6.6129   -118.46   -6.5815   -118.75   -32.329   -95.026   
1585250000  -23.075    168.14   -6.6008   -119.97   -6.559   -120.03   -31.032   -111.68   
1607500000  -23.306   -175.39   -6.5921   -121.76   -6.5374   -122.13   -31.087   -123.26   
1629750000  -21.726    179.6   -6.3872   -122.72   -6.345   -123.57   -30.499   -121.25   
1652000000  -22.3    172   -6.5681   -124.81   -6.6503   -124.59   -30.095   -101.95   
1674250000  -22.474    169.52   -6.5719   -126.72   -6.6571   -125.5   -28.346   -98.267   
1696500000  -22.323    175.84   -6.5516   -128.37   -6.5602   -128.18   -28.681   -122.78   
1718750000  -22.142    177.52   -6.5591   -129.97   -6.5431   -129.97   -28.523   -128.16   
1741000000  -22.276    172.64   -6.5129   -131.86   -6.5169   -132.27   -28.054   -120.37   
1763250000  -22.741    163.9   -6.4853   -134.35   -6.5075   -134.34   -27.318   -110.72   
1785500000  -22.223    164.86   -6.511   -135.68   -6.4942   -135.52   -27.023   -118.36   
1807750000  -22.002    174.91   -6.6322   -136.84   -6.7429   -138.08   -27.228   -126.36   
1830000000  -21.516    168.28   -6.6108   -138.5   -6.5255   -139.32   -27.076   -124.85   
1852250000  -21.411    164.5   -6.5227   -140.43   -6.562   -140.56   -26.036   -121.68   
1874500000  -21.67    163.5   -6.5024   -142   -6.516   -141.82   -25.382   -122.18   
1896750000  -21.762    164.57   -6.5454   -143.98   -6.5071   -143.91   -25.501   -125.76   
1919000000  -21.815    163.24   -6.6412   -145.64   -6.5087   -145.75   -25.448   -127.6   
1941250000  -21.766    160.37   -6.4997   -147.35   -6.5413   -148.35   -24.965   -127.08   
1963500000  -21.838    156.91   -6.4514   -150.27   -6.5805   -150.35   -24.97   -126.02   
1985750000  -21.548    154.86   -6.4961   -151.73   -6.5658   -151.25   -24.473   -128.85   
2008000000  -21.356    153.28   -6.6063   -153.53   -6.5704   -153.81   -24.145   -147.15   
2030250000  -21.23    152.48   -6.5622   -154.97   -6.5404   -155.69   -24.124   -142.22   
2052500000  -20.989    152.07   -6.5169   -156.4   -6.5388   -156.9   -23.85   -122.28   
2074750000  -21.256    150.76   -6.4771   -158.38   -6.599   -158.26   -23.235   -122.39   
2097000000  -21.595    152.05   -6.5708   -160.35   -6.5613   -159.85   -23.256   -136.16   
2119250000  -21.884    151.75   -6.6309   -161.82   -6.5303   -162.08   -23.449   -140.65   
2141500000  -21.648    147.46   -6.5872   -163.75   -6.5814   -164.47   -23.274   -136.07   
2163750000  -21.585    144.49   -6.4831   -166.34   -6.6227   -166.33   -23.115   -133.72   
2186000000  -21.453    142.55   -6.5115   -167.76   -6.6563   -167.42   -22.769   -138.29   
2208250000  -23.028    147.83   -6.6496   -169.05   -6.5719   -169.38   -22.585   -141.31   
2230500000  -22.161    144.9   -6.6869   -170.97   -6.523   -171.51   -22.566   -141.38   
2252750000  -20.403    140.5   -6.6046   -172.66   -6.6426   -173.51   -22.321   -140.54   
2275000000  -20.598    138.45   -6.6022   -174.49   -6.7798   -174.93   -22.284   -141.35   
2297250000  -22.292    138.82   -6.6281   -176.25   -6.7009   -176.52   -21.598   -148.01   
2319500000  -22.811    138.51   -6.6457   -178.48   -6.6326   -178.27   -21.314   -153.37   
2341750000  -22.006    136.31   -6.6523    179.68   -6.6009    179.74   -22.079   -145.26   
2364000000  -21.368    134.29   -6.6503    177.2   -6.7232    176.89   -22.122   -146.26   
2386250000  -21.899    131.41   -6.6272    176.72   -6.7548    175.98   -21.741   -147.33   
2408500000  -21.753    133.18   -6.701    174.96   -6.6958    175   -21.127   -152.17   
2430750000  -21.675    132.53   -6.72    172.81   -6.6869    172.95   -21.537   -151.21   
2453000000  -19.991    131.99   -6.5204    171.91   -6.5691    171.2   -21.563   -146.01   
2475250000  -20.934    131.11   -6.7255    170.04   -6.8633    169.04   -21.407   -147.11   
2497500000  -22.55    129.81   -6.8148    168.02   -6.9062    167.88   -21.343   -151.75   
2519750000  -22.832    129.18   -6.8795    166.05   -6.8379    166.41   -21.334   -153.7   
2542000000  -22.382    128.68   -6.8123    163.52   -6.7684    163.83   -21.582   -150.82   
2564250000  -22.023    125.75   -6.7434    161.45   -6.8594    161.46   -21.821   -144.28   
2586500000  -22.505    123.04   -6.8101    161.11   -6.9359    160.08   -21.061   -154.42   
2608750000  -21.866    124.73   -6.7944    159.52   -6.9322    159.5   -20.36   -158.96   
2631000000  -21.989    124.79   -6.8197    157.08   -6.8892    157.5   -20.822   -157.98   
2653250000  -21.297    126.11   -6.8671    155.55   -6.851    154.94   -21.069   -154.71   
2675500000  -21.637    125.49   -6.9134    153.97   -6.9486    152.88   -20.819   -155.91   
2697750000  -23.344    117.55   -7.0098    151.97   -7.0045    151.64   -20.628   -159.57   
2720000000  -23.664    115.31   -6.9782    150.18   -6.9706    150.12   -20.536   -161.35   
2742250000  -23.321    117.85   -6.9464    148.44   -6.9649    148.34   -20.927   -159.38   
2764500000  -22.875    115.36   -6.9548    146.62   -6.9801    146.37   -21.219   -156.42   
2786750000  -23.092    112.52   -6.9681    145.4   -7.0425    144.68   -20.465   -162.75   
2809000000  -22.404    114.83   -6.9807    143.96   -7.1745    144.13   -20.605   -162.43   
2831250000  -22.891    114.27   -6.9481    141.7   -7.0697    141.92   -20.476   -164.16   
2853500000  -21.631    121.2   -6.9753    140.57   -7.0253    139.93   -20.723   -164.32   
2875750000  -22.607    118.88   -7.0879    138.46   -7.0689    137.89   -20.424   -165.41   
2898000000  -23.61    107.59   -7.0945    136.35   -7.1177    135.93   -19.66   -172   
2920250000  -24.387    105.42   -7.0309    134.49   -7.1241    134.54   -19.574   -174.29   
2942500000  -24.629    103.86   -7.018    133.14   -7.0167    133   -20.387   -169.65   
2964750000  -24.47    101.31   -7.0474    131.36   -6.9634    130.74   -20.451   -168.99   
2987000000  -24.56    96.503   -7.096    129.67   -7.1447    129.47   -20.127   -172.59   
3009250000  -24.152    95.361   -7.0246    128.38   -7.1511    128.89   -19.748   -176.06   
3031500000  -24.864    96.248   -7.0343    126.17   -7.1228    126.54   -20.086   -175.51   
3053750000  -25.11    102.41   -7.0567    124.91   -7.0423    125.13   -20.344   -174.08   
3076000000  -26.289    98.324   -7.1356    122.94   -7.0831    123   -20.047   -175.61   
3098250000  -25.908    85.005   -7.137    120.77   -7.1813    120.91   -20.013   -179.24   
3120500000  -27.127    79.762   -7.0942    119.39   -7.1595    119.46   -20.134    179.23   
3142750000  -28.167    82.658   -7.0145    117.48   -7.0341    117.3   -20.357    178.95   
3165000000  -28.468    77.82   -7.0395    115.19   -7.0592    115.12   -20.478    177.22   
3187250000  -27.935    69.55   -7.0822    113.77   -7.071    113.57   -20.291    175.5   
3209500000  -27.59    69.259   -7.1218    112.18   -7.1357    112.2   -19.388    170.02   
3231750000  -29.479    68.818   -7.0462    110.24   -7.0929    110.4   -20.55    173.49   
3254000000  -31.884    77.592   -7.0415    107.47   -7.0309    108.27   -22.013    172.01   
3276250000  -32.805    60.867   -7.0864    105.71   -7.0444    105.99   -21.463    173.05   
3298500000  -33.517    52.122   -7.2002    103.96   -7.1241    104.05   -20.952    170.54   
3320750000  -34.911    35.365   -7.1536    102.9   -7.096    102.44   -21.148    169.2   
3343000000  -37.489   -4.1322   -7.044    101.19   -7.0422    100.81   -22.483    168.83   
3365250000  -37.368   -37.41   -7.02    99.077   -7.0652    99.104   -23.372    168.41   
3387500000  -33.1   -1.111   -7.0382    96.906   -7.1096    96.806   -21.648    165.64   
3409750000  -33.353   -7.3952   -7.1067    95.511   -7.1408    95.592   -21.373    166.03   
3432000000  -34.756   -20.472   -7.0855    93.367   -7.0825    93.018   -22.039    165.44   
3454250000  -34.832   -80.28   -7.0874    91.041   -7.1038    90.975   -23.48    160.54   
3476500000  -32.324   -70.963   -7.0762    88.811   -7.1301    88.776   -23.004    163.3   
3498750000  -32.114   -76.429   -7.1528    86.256   -7.1342    86.269   -22.619    161.76   
3521000000  -29.718   -77.524   -7.1865    84.602   -7.1152    84.371   -22.928    160.37   
3543250000  -28.255   -85.275   -7.1196    83.142   -7.113    82.525   -24.642    157.37   
3565500000  -27.306   -87.961   -7.0958    80.793   -7.17    80.395   -25.304    156.72   
3587750000  -27.164   -85.112   -7.0901    79.004   -7.2248    78.941   -24.036    157.47   
3610000000  -26.131   -90.088   -7.1621    77.375   -7.2278    77.368   -24.14    154.84   
3632250000  -25.737   -98.874   -7.2171    74.614   -7.2053    74.784   -24.686    156.61   
3654500000  -24.515   -107.66   -7.1937    72.909   -7.1954    72.687   -25.563    155.83   
3676750000  -23.688   -110.18   -7.2546    70.513   -7.294    70.352   -26.023    155.38   
3699000000  -22.397   -109.91   -7.3319    68.446   -7.3403    67.979   -25.885    151.84   
3721250000  -21.853   -110.13   -7.3399    66.298   -7.3508    65.84   -27.004    148.56   
3743500000  -21.242   -116.25   -7.4061    63.697   -7.446    62.938   -29.512    146.01   
3765750000  -20.853   -117.2   -7.4753    61.205   -7.5908    60.734   -31.181    143.92   
3788000000  -20.867   -117.25   -7.5877    59.29   -7.7353    59.376   -29.429    147.77   
3810250000  -20.441   -119.28   -7.7242    57.214   -7.758    57.207   -28.013    151.47   
3832500000  -19.967   -124.56   -7.7511    55.01   -7.6889    55.606   -36.686    179.96   
3854750000  -18.563   -128.78   -7.8525    52.291   -7.8023    52.928   -38.352   -138.96   
3877000000  -18.56   -130.49   -7.9617    51.169   -8.0116    51.207   -35.852   -127.16   
3899250000  -18.023   -131.29   -8.0689    49.52   -8.1602    49.912   -33.95   -141.45   
3921500000  -17.532   -131.86   -8.154    47.925   -8.1941    48.207   -33.862   -110.77   
3943750000  -17.061   -132.46   -8.3213    46.038   -8.2929    45.851   -30.412   -86.129   
3966000000  -16.742   -136.4   -8.4491    44.352   -8.5408    44.091   -28.099   -88.785   
3988250000  -16.451   -139.57   -8.5339    43.068   -8.6926    43.164   -26.821   -100.51   
4010500000  -16.276   -141.89   -8.5681    41.575   -8.6397    42.702   -25.431   -106.78   
4032750000  -15.702   -147.35   -8.6514    39.288   -8.4879    40.651   -24.842   -107.67   
4055000000  -15.36   -150.54   -8.8174    36.893   -8.6453    37.673   -24.586   -96.405   
4077250000  -14.897   -154.48   -8.8787    35.813   -8.859    34.964   -24.607   -109.37   
4099500000  -14.746   -161.15   -8.9214    33.242   -8.9021    33.43   -24.457   -118.32   
4121750000  -14.355   -160.4   -8.9512    32.359   -8.9264    33.191   -25.445   -110.13   
4144000000  -13.867   -158.57   -8.9651    30.296   -8.9443    31.262   -25.79   -87.395   
4166250000  -13.753   -161.44   -9.0914    27.966   -9.0147    28.196   -24.593   -82.914   
4188500000  -13.666   -165.57   -9.4248    26.218   -9.4339    26.19   -23.101   -75.042   
4210750000  -13.544   -169.51   -9.6655    24.663   -9.6564    25.041   -21.381   -71.261   
4233000000  -13.107   -171.09   -9.9056    22.939   -9.8064    23.578   -18.597   -67.463   
4255250000  -12.911   -173.6   -10.125    21.219   -10.091    21.573   -16.396   -68.696   
4277500000  -12.371   -177.23   -10.527    20.495   -10.522    20.213   -14.604   -74.244   
4299750000  -11.929    179.8   -10.928    21.454   -10.881    21.909   -13.112   -80.811   
4322000000  -11.675    177.11   -11.204    23.671   -10.993    24.015   -11.805   -88.298   
4344250000  -11.701    174.16   -11.13    26.437   -10.931    24.949   -10.988   -95.584   
4366500000  -11.59    170.58   -10.659    26.764   -10.768    25.186   -10.325   -104.55   
4388750000  -11.622    165.73   -10.37    25.105   -10.61    24.932   -9.6713   -113.68   
4411000000  -11.59    161.47   -10.261    24.211   -10.295    25.453   -9.2594   -120.98   
4433250000  -11.557    158.44   -10.135    23.588   -9.8591    24.114   -9.0558   -127.15   
4455500000  -11.526    155.55   -9.9466    23.009   -9.7098    21.276   -8.9693   -133.14   
4477750000  -11.532    152.86   -9.7391    21.993   -9.643    19.318   -8.9247   -138.32   
4500000000  -11.426    150.46   -9.5456    20.859   -9.4658    19.167   -8.8824   -142.89   

