! Network Analyzer HP8722ES.07.74: Oct 30, 2002 Serial No. US39175660
! Hewlett-Packard
! 30 May 2012  16:58:23
! Frequency       S11                S21                S12                S22
# HZ  S  DB R  50 
50000000  -43.62   -99.61   -5.9234   -4.2998   -5.877   -3.7312   -37.302   -81.83   
72250000  -28.822   -58.586   -5.7795    4.6445   -6.0078    2.6999   -33.644   -81.238   
94500000  -33.442   -84.061   -5.9467   -5.7829   -5.9914   -6.644   -34.98   -91.371   
116750000  -40.364    172.91   -5.3963   -4.8518   -5.6745   -5.8296   -44.432    145.75   
139000000  -37.585   -119.26   -5.7437   -8.8385   -5.8796   -10.003   -42.04   -115.76   
161250000  -27.966   -93.293   -5.596   -11.74   -5.7426   -13.035   -27.942   -92.042   
183500000  -27.079   -94.952   -5.7449   -13.575   -5.8224   -15.112   -26.891   -100.34   
205750000  -32.883   -114.99   -5.7563   -18.244   -5.8062   -18.967   -29.974   -110.21   
228000000  -33.386   -144.92   -5.68   -18.539   -5.7937   -19.72   -30.112   -106.53   
250250000  -28.462   -117.39   -5.9623   -24.041   -6.0217   -24.278   -27.71   -112.54   
272500000  -26.333   -111.11   -5.7268   -23.912   -5.8361   -24.233   -25.231   -111.32   
294750000  -26.74   -120.41   -5.9916   -28.021   -6.0327   -28.452   -26.282   -119.5   
317000000  -27.792   -138.18   -5.7482   -28.694   -5.9251   -28.994   -26.794   -122.4   
339250000  -26.812   -132.99   -5.8968   -31.542   -6.0155   -31.989   -26.262   -121.64   
361500000  -25.393   -123.94   -5.8562   -33.819   -5.9575   -34.59   -24.998   -123   
383750000  -24.903   -127.99   -5.9197   -35.703   -6.0374   -36.508   -24.502   -126.56   
406000000  -25.187   -136.08   -6.0661   -38.867   -6.185   -39.644   -24.881   -130.59   
428250000  -25.377   -139.02   -6.0485   -40.192   -6.1934   -41.277   -24.723   -131.36   
450500000  -24.841   -141.47   -6.0731   -43.635   -6.1536   -44.021   -24.137   -134.74   
472750000  -24.141   -147.29   -5.9117   -46.079   -6.0075   -46.169   -23.736   -137.57   
495000000  -23.625   -141.73   -6.2111   -47.917   -6.1788   -47.855   -23.818   -138.62   
517250000  -23.347   -162.69   -6.2224   -50.181   -6.0714   -50.229   -25.798   -160.36   
539500000  -24.139   -156   -6.2488   -52.203   -6.1192   -52.337   -24.624   -151.82   
561750000  -23.836   -139.17   -6.1974   -54.25   -6.2877   -53.274   -23.062   -143.58   
584000000  -23.091   -146.45   -6.2995   -56.964   -6.2236   -55.826   -22.917   -146.93   
606250000  -23.422   -163.59   -6.1307   -57.99   -6.0916   -58.236   -22.892   -150.59   
628500000  -22.629   -166.12   -6.2866   -60.493   -6.1972   -60.859   -23.219   -152.74   
650750000  -22.842   -156.94   -6.3037   -62.714   -6.2753   -62.849   -22.731   -152.12   
673000000  -23.567   -155.26   -6.2552   -64.586   -6.4587   -65.536   -22.474   -152.46   
695250000  -22.697   -159.18   -6.3049   -66.713   -6.3467   -66.923   -22.553   -155.48   
717500000  -22.666   -165.89   -6.4383   -68.825   -6.4123   -69.321   -22.537   -157.6   
739750000  -22.85   -167.32   -6.5097   -70.542   -6.4888   -71.016   -22.655   -158.71   
762000000  -22.92   -169.14   -6.4403   -72.925   -6.4595   -73.069   -21.973   -144.38   
784250000  -22.968   -168.95   -6.3593   -75.034   -6.4217   -75.48   -21.847   -148.79   
806500000  -22.115   -171.4   -6.3601   -77.921   -6.3686   -78.212   -22.16   -170.61   
828750000  -21.62   -176.83   -6.477   -80.158   -6.4197   -80.52   -22.701   -176.03   
851000000  -23.251   -173.53   -6.3993   -81.237   -6.489   -81.293   -22.765   -162.8   
873250000  -23.82   -171.82   -6.3366   -82.859   -6.5114   -83.079   -22.375   -159.64   
895500000  -23.169   -174.63   -6.3899   -85.222   -6.4525   -85.491   -22.744   -166.91   
917750000  -22.9   -177.97   -6.4734   -87.104   -6.5306   -87.501   -23.026   -168.34   
940000000  -23.783   -177.28   -6.4612   -89.172   -6.5197   -89.293   -23.005   -168.37   
962250000  -24.442   -177.35   -6.4871   -91.505   -6.4683   -91.715   -23.037   -169.37   
984500000  -24.134   -176.8   -6.5464   -93.76   -6.545   -93.87   -23.169   -169.64   
1006750000  -24.007    178.16   -6.478   -95.838   -6.5043   -95.392   -23.503   -175.17   
1029000000  -24.213    178.45   -6.5294   -97.575   -6.5814   -97.395   -24.059   -175.78   
1051250000  -24.042    179.73   -6.4514   -98.77   -6.5021   -99.25   -23.43   -168.72   
1073500000  -24.455   -176.49   -6.5791   -100.67   -6.5436   -101.5   -23.235   -168.86   
1095750000  -24.668   -179.12   -6.5175   -103.19   -6.5579   -103.4   -23.639   -171   
1118000000  -24.567    177.25   -6.4989   -105.71   -6.5994   -105.29   -23.976   -174.05   
1140250000  -25.36    177.69   -6.534   -107.76   -6.5621   -107.42   -23.905   -170.2   
1162500000  -25.759    175.22   -6.5855   -109.14   -6.5815   -109.46   -23.627   -165.3   
1184750000  -25.443    179.1   -6.5848   -110.95   -6.5796   -111.57   -23.59   -166.55   
1207000000  -25.698   -179.29   -6.5571   -113.22   -6.6285   -113.54   -23.995   -169.73   
1229250000  -25.464   -177.08   -6.4994   -115.4   -6.607   -115.17   -24.276   -168.54   
1251500000  -26.585   -175.99   -6.5505   -117.12   -6.5837   -117   -23.769   -163.03   
1273750000  -27.457   -165.6   -6.556   -118.69   -6.5547   -119.36   -23.124   -161.54   
1296000000  -25.611   -173.43   -6.5552   -121.02   -6.5254   -121.33   -23.661   -164.52   
1318250000  -24.555   -175.08   -6.5565   -122.97   -6.5555   -123.41   -23.78   -165.6   
1340500000  -25.954   -173.6   -6.5446   -125.23   -6.5848   -125.25   -23.505   -162.21   
1362750000  -26.969   -172.07   -6.5272   -127.15   -6.5317   -127.19   -23.228   -158.89   
1385000000  -26.202   -170.05   -6.5756   -129.12   -6.5003   -129.21   -22.974   -160.29   
1407250000  -24.705   -168.69   -6.5055   -131.19   -6.5329   -131.3   -22.984   -158.78   
1429500000  -24.684   -169.63   -6.481   -133.43   -6.5476   -133.4   -22.586   -158.84   
1451750000  -25.052   -168.37   -6.5006   -135.55   -6.5705   -135.26   -22.349   -150.83   
1474000000  -25.221   -163.8   -6.5577   -137.76   -6.5481   -136.76   -21.48   -146.38   
1496250000  -24.848   -162.42   -6.5922   -139.19   -6.5372   -139.24   -21.808   -160.91   
1518500000  -24.853   -160.02   -6.5493   -140.47   -6.5565   -141.64   -21.795   -165.53   
1540750000  -24.548   -161.58   -6.4357   -143.1   -6.521   -143.78   -21.532   -160.11   
1563000000  -27.445    178.56   -6.5641   -145.96   -6.4228   -146.57   -21.074   -152.19   
1585250000  -25.285   -168.77   -6.5735   -147.86   -6.4888   -148   -20.643   -157.82   
1607500000  -22.363   -160.51   -6.5592   -149.68   -6.4962   -150.01   -20.766   -161.78   
1629750000  -21.55   -167.4   -6.3026   -150.91   -6.2545   -151.8   -20.354   -161.64   
1652000000  -23.422   -165.73   -6.5074   -153.31   -6.5526   -153.11   -20.14   -155.85   
1674250000  -23.707   -165.04   -6.5274   -155.49   -6.5308   -154.28   -19.435   -154.99   
1696500000  -22.126   -164.39   -6.4701   -157.33   -6.5057   -157.47   -19.82   -165.09   
1718750000  -21.816   -164.65   -6.4653   -159.31   -6.4707   -159.11   -19.849   -167.2   
1741000000  -21.862   -166.87   -6.4088   -161.78   -6.445   -162.12   -19.473   -166.26   
1763250000  -22.993   -165.07   -6.4146   -164.43   -6.4367   -164.4   -19.134   -164.41   
1785500000  -22.024   -170.25   -6.4256   -166.14   -6.4235   -165.9   -18.987   -168.01   
1807750000  -20.755   -167.12   -6.5476   -167.62   -6.6699   -169.41   -19.159   -172.62   
1830000000  -20.587   -173.08   -6.464   -169.22   -6.4723   -170.83   -19.038   -172.71   
1852250000  -20.945   -174.18   -6.3937   -171.65   -6.4281   -171.97   -18.473   -171.81   
1874500000  -21.01   -172.6   -6.3697   -173.55   -6.39   -173.53   -18.221   -173.05   
1896750000  -20.501   -175.81   -6.4138   -175.96   -6.3742   -176.04   -18.321   -176.12   
1919000000  -20.495   -177.78   -6.4714   -177.8   -6.3372   -178.23   -18.352   -178.06   
1941250000  -20.396   -179.21   -6.306    179.97   -6.36    179.14   -18.057   -179   
1963500000  -20.686    179.22   -6.24    176.67   -6.4386    177.24   -18.028    179.94   
1985750000  -20.247    175.74   -6.3577    174.8   -6.383    175.61   -17.816    177.76   
2008000000  -20.058    173.96   -6.4303    173.13   -6.3855    172.62   -18.073    167.45   
2030250000  -19.765    172.33   -6.3349    171.51   -6.277    170.56   -17.931    169.1   
2052500000  -19.751    170.69   -6.2196    169.56   -6.3351    169.07   -17.497    178.46   
2074750000  -19.804    170.66   -6.2045    166.95   -6.4252    167.67   -17.266    177.22   
2097000000  -19.6    168.7   -6.3492    164.54   -6.3028    165.23   -17.432    167.71   
2119250000  -19.576    167.02   -6.387    163.21   -6.253    162.69   -17.674    164.17   
2141500000  -19.844    163.5   -6.1891    161.13   -6.2435    160.08   -17.439    165.8   
2163750000  -19.81    159.7   -6.072    157.81   -6.2869    157.96   -17.278    165.54   
2186000000  -19.736    157.17   -6.142    155.66   -6.3304    156.43   -17.309    162.28   
2208250000  -19.07    163.91   -6.2945    154.11   -6.1929    154.17   -17.296    159.28   
2230500000  -19.298    158.88   -6.3458    152.6   -6.1204    151.61   -17.434    158.14   
2252750000  -19.425    146.37   -6.1613    150.29   -6.2596    149.7   -17.493    158.31   
2275000000  -19.734    144.75   -6.0934    147.82   -6.3401    148.13   -17.55    156.41   
2297250000  -20.148    151.68   -6.1533    145.57   -6.303    145.57   -17.288    149.39   
2319500000  -20.117    151.62   -6.2079    143.21   -6.184    143.69   -17.312    144.48   
2341750000  -20.282    142.37   -6.1731    141.08   -6.1115    141.14   -17.686    149.83   
2364000000  -20.161    136.34   -6.063    138.21   -6.2573    137.68   -17.819    147.93   
2386250000  -20.486    136.54   -6.0413    136.6   -6.2216    136.66   -17.782    146.63   
2408500000  -20.38    135.92   -6.2203    134.34   -6.0969    134.47   -17.592    141.42   
2430750000  -20.452    133.46   -6.2597    132.72   -6.0862    132.46   -18.046    141.58   
2453000000  -19.29    124.81   -5.9415    131.32   -5.9662    130.37   -18.1    145.02   
2475250000  -20.71    123.33   -6.0488    128.63   -6.2189    127.76   -18.216    142.55   
2497500000  -21.544    128.67   -6.1268    125.85   -6.2383    126.47   -18.348    138.2   
2519750000  -21.739    126.66   -6.2794    123.77   -6.1338    124.38   -18.514    135.89   
2542000000  -21.992    121.15   -6.1772    121.11   -6.0979    121.39   -18.961    137.92   
2564250000  -22.132    113.74   -6.0405    118.46   -6.2133    118.82   -19.145    143.82   
2586500000  -22.487    114.29   -6.0683    117.23   -6.251    116.99   -19.125    133.59   
2608750000  -22.214    115.77   -6.1426    114.92   -6.2161    115.56   -19.03    127.03   
2631000000  -22.865    113.73   -6.2178    112.56   -6.1333    113.13   -19.64    128.24   
2653250000  -21.82    106.88   -6.1508    111.14   -6.1661    110.27   -20.127    131.27   
2675500000  -23.129    104.97   -6.1211    108.89   -6.2272    108.1   -20.108    129.88   
2697750000  -25.986    108.4   -6.1976    106.43   -6.1836    106.05   -20.077    126.27   
2720000000  -27.21    107.54   -6.1992    103.96   -6.1638    103.76   -20.386    124.93   
2742250000  -26.284    95.379   -6.1659    101.82   -6.1497    101.8   -21.068    128.59   
2764500000  -26.157    86.819   -6.1425    99.505   -6.1457    99.178   -21.414    133.96   
2786750000  -27.195    89.158   -6.1438    97.692   -6.2362    97.434   -21.364    124.24   
2809000000  -27.28    98.737   -6.1986    95.777   -6.2994    96.579   -22.096    123.99   
2831250000  -28.785    92.753   -6.215    93.231   -6.2072    93.577   -22.107    124.01   
2853500000  -25.882    84.88   -6.2051    91.463   -6.2139    91.182   -22.545    126.51   
2875750000  -28.883    83.758   -6.2168    89.508   -6.2453    88.781   -22.444    126.28   
2898000000  -35.806    78.17   -6.2501    86.803   -6.268    86.425   -22.213    116.26   
2920250000  -40.643    77.379   -6.2155    84.33   -6.2674    84.253   -22.614    115.41   
2942500000  -37.599    44.158   -6.201    82.257   -6.1842    82.082   -23.542    127.64   
2964750000  -36.193    28.5   -6.204    79.796   -6.1849    79.503   -23.568    132.07   
2987000000  -39.675    16.073   -6.2545    78.206   -6.2878    78.168   -23.863    125.6   
3009250000  -45.91    23.865   -6.2539    76.514   -6.2713    77.033   -23.901    117.09   
3031500000  -43.698   -52.384   -6.29    73.814   -6.2832    73.97   -24.328    127.04   
3053750000  -38.795   -116.59   -6.3011    72.403   -6.2445    72.322   -23.795    137.55   
3076000000  -34.914   -99.385   -6.3469    70.22   -6.2776    69.833   -23.841    135.95   
3098250000  -30.375   -106.33   -6.3434    67.467   -6.3231    67.239   -24.275    132.8   
3120500000  -28.79   -106.3   -6.315    65.154   -6.3482    64.784   -24.608    134.53   
3142750000  -30.391   -97.285   -6.3216    63.001   -6.3704    62.754   -24.667    137.25   
3165000000  -29.121   -95.198   -6.348    60.623   -6.3753    60.609   -24.634    138.43   
3187250000  -29.064   -97.31   -6.3979    59.115   -6.3831    59.058   -24.759    134.05   
3209500000  -28.039   -110.43   -6.442    57.11   -6.4469    56.935   -24.696    112.07   
3231750000  -27.808   -111.72   -6.3741    54.705   -6.4291    54.451   -24.523    137.33   
3254000000  -26.596   -121.68   -6.4419    51.623   -6.3804    52.221   -23.822    153.31   
3276250000  -25.839   -115.61   -6.4741    50.004   -6.435    50.319   -23.67    148.3   
3298500000  -25.341   -119.28   -6.5093    48.285   -6.4583    48.181   -23.935    140.87   
3320750000  -24.521   -118.65   -6.4736    46.818   -6.4368    46.02   -24.112    141.87   
3343000000  -24.397   -125.66   -6.3891    44.776   -6.4493    44.121   -23.966    152.8   
3365250000  -24.442   -129.22   -6.4199    42.255   -6.4776    42.623   -23.512    157.15   
3387500000  -23.816   -120.51   -6.4758    40.378   -6.5479    40.715   -23.477    141.73   
3409750000  -23.464   -122.92   -6.5095    39.245   -6.5272    38.996   -22.921    144.67   
3432000000  -23.389   -126.96   -6.4825    36.6   -6.4873    36.015   -23.471    142.65   
3454250000  -22.234   -135.55   -6.49    34.33   -6.5088    34.056   -23.183    151.21   
3476500000  -22.161   -130.58   -6.5156    32.116   -6.5885    32.12   -23.158    145.55   
3498750000  -21.702   -130.02   -6.5802    29.6   -6.5535    29.855   -23.246    138.25   
3521000000  -21.201   -130.84   -6.5492    28.128   -6.4827    27.602   -23.504    137.94   
3543250000  -21.038   -132.39   -6.4651    26.402   -6.4816    25.692   -23.683    146.22   
3565500000  -20.916   -132.36   -6.4094    24.11   -6.549    23.809   -23.461    147.35   
3587750000  -21.091   -131.91   -6.434    22.608   -6.5943    22.746   -23.307    135.76   
3610000000  -20.644   -133.36   -6.474    20.676   -6.5387    21.32   -23.412    132.42   
3632250000  -20.583   -136.21   -6.4943    18.251   -6.5021    18.342   -23.367    137.19   
3654500000  -19.953   -140.53   -6.4198    16.651   -6.4596    16.554   -22.957    140.89   
3676750000  -19.849   -138.95   -6.4295    14.395   -6.482    14.523   -23.318    137.31   
3699000000  -19.067   -136.24   -6.4623    12.475   -6.4995    12.111   -23.832    130.63   
3721250000  -18.993   -136.8   -6.3845    10.495   -6.4622    9.9207   -24.244    132.01   
3743500000  -18.911   -140.07   -6.3746    8.0695   -6.4764    7.4542   -24.19    133.72   
3765750000  -18.972   -139.01   -6.3977    5.7541   -6.5478    5.6978   -23.893    132.18   
3788000000  -18.98   -140.02   -6.42    3.9249   -6.5934    4.7351   -23.874    121.21   
3810250000  -18.925   -139.93   -6.451    2.1959   -6.4791    2.3099   -23.912    111.53   
3832500000  -18.862   -144.3   -6.418    .3460   -6.2707    .4422   -24.65    131.37   
3854750000  -18.867   -151.77   -6.379   -2.395   -6.2926   -2.1327   -24.557    140.94   
3877000000  -18.245   -145.66   -6.2906   -3.6488   -6.3933   -3.7724   -25.189    131.89   
3899250000  -17.43   -140.53   -6.2428   -5.3572   -6.3907   -5.0386   -25.502    117.16   
3921500000  -17.23   -141   -6.2443   -7.332   -6.2527   -6.7484   -26.449    121.87   
3943750000  -17.3   -142.37   -6.2417   -9.0926   -6.2414   -9.1255   -27.103    136.07   
3966000000  -17.355   -143.15   -6.1689   -10.837   -6.3177   -11.35   -26.818    137   
3988250000  -16.631   -140.52   -6.1062   -13.079   -6.2724   -12.545   -27.22    133.01   
4010500000  -16.159   -139.43   -6.0336   -14.886   -6.0802   -13.587   -27.898    136.72   
4032750000  -15.725   -144.92   -6.0152   -17.428   -5.7993   -16.059   -29.083    156.4   
4055000000  -15.22   -146.97   -6.0163   -19.918   -5.8354   -19.624   -25.247   -167.69   
4077250000  -14.66   -149.47   -5.8364   -21.725   -5.8824   -22.733   -28.521    171.39   
4099500000  -14.886   -145.14   -5.7524   -24.637   -5.7125   -24.677   -27.872    137.92   
4121750000  -14.184   -149.62   -5.6637   -26.4   -5.6987   -25.193   -28.475    159.14   
4144000000  -12.923   -155.62   -5.4242   -28.654   -5.441   -27.113   -26.658   -176.64   
4166250000  -12.865   -158.44   -5.3998   -30.929   -5.3379   -30.689   -24.866   -178.39   
4188500000  -13.444   -158.87   -5.4454   -32.91   -5.3993   -33.216   -23.98    177.69   
4210750000  -13.211   -161.34   -5.336   -35.181   -5.3493   -34.971   -23.294    176.64   
4233000000  -12.482   -165.85   -5.1703   -39.159   -5.113   -37.809   -22.013   -178.15   
4255250000  -12.262   -169.41   -5.1785   -42.562   -5.0535   -41.568   -20.538   -175.8   
4277500000  -12.071   -173.04   -5.2408   -44.843   -5.1012   -45.629   -21.061    171.09   
4299750000  -11.845   -175.69   -5.1585   -46.596   -5.1879   -47.715   -21.079    161.05   
4322000000  -11.835   -177.79   -5.1115   -49.823   -5.1834   -49.73   -20.87    158.81   
4344250000  -12.102    179.09   -5.2494   -53.174   -5.1752   -52.664   -20.37    160.28   
4366500000  -12.203    177.59   -5.3122   -56.011   -5.231   -55.908   -20.23    155.21   
4388750000  -12.361    174.49   -5.3798   -58.572   -5.3216   -58.733   -20.566    146.63   
4411000000  -12.405    172.05   -5.4248   -60.79   -5.3366   -60.748   -21.09    144.95   
4433250000  -12.305    170.38   -5.4701   -62.683   -5.2625   -62.876   -21.098    145.56   
4455500000  -12.283    168.61   -5.4991   -64.943   -5.3316   -66.488   -21.565    144.67   
4477750000  -12.247    167.3   -5.5122   -67.015   -5.5001   -69.228   -21.879    142.57   
4500000000  -12.174    165.81   -5.5801   -69.108   -5.5052   -69.637   -22.616    136.25   

