! Network Analyzer HP8722ES.07.74: Oct 30, 2002 Serial No. US39175660
! Hewlett-Packard
! 30 May 2012  17:00:43
! Frequency       S11                S21                S12                S22
# HZ  S  DB R  50 
50000000  -44.894   -115.45   -5.8734   -3.9839   -5.8525   -3.679   -39.335   -90.694   
72250000  -29.28   -59.871   -5.7797    5.6168   -6.0069    3.7944   -34.362   -86.869   
94500000  -33.422   -80.211   -5.9416   -4.5346   -5.9896   -5.0935   -35.994   -97.733   
116750000  -39.124    175.89   -5.4004   -2.9182   -5.6828   -3.9249   -38.331    127.14   
139000000  -36.514   -120.67   -5.7595   -6.4531   -5.8687   -7.825   -46.583   -149.54   
161250000  -27.934   -90.21   -5.5948   -9.1818   -5.7532   -10.375   -29.479   -87.836   
183500000  -27.131   -93.049   -5.7468   -10.64   -5.8246   -12.143   -28.406   -97.688   
205750000  -32.385   -115.38   -5.7618   -14.994   -5.8315   -15.65   -32.505   -112.56   
228000000  -32.598   -144.6   -5.695   -14.819   -5.8227   -15.985   -32.82   -109.85   
250250000  -28.247   -116.87   -5.9717   -20.029   -6.0154   -20.185   -30.005   -113.22   
272500000  -26.44   -109.23   -5.7398   -19.462   -5.8633   -19.892   -27.142   -110.48   
294750000  -26.541   -119.33   -6.016   -23.279   -6.0531   -23.61   -28.472   -120.34   
317000000  -27.333   -137.67   -5.7888   -23.247   -5.9502   -23.865   -29.136   -126.8   
339250000  -26.478   -131.36   -5.9222   -25.712   -6.0084   -26.428   -28.65   -124.69   
361500000  -25.362   -122.11   -5.8954   -28.113   -5.9669   -28.825   -27.311   -124.39   
383750000  -24.831   -125.38   -5.9564   -29.449   -6.077   -30.269   -26.771   -128.88   
406000000  -25.06   -134.31   -6.1118   -32.407   -6.2027   -33.066   -27.208   -133.01   
428250000  -25.151   -138.11   -6.1239   -33.083   -6.2618   -34.073   -27.122   -135.07   
450500000  -24.882   -138.7   -6.1497   -36.24   -6.2064   -36.646   -26.509   -138.52   
472750000  -24.207   -146.06   -5.9874   -38.264   -6.0755   -38.239   -26.027   -141.42   
495000000  -23.604   -139.08   -6.2802   -39.727   -6.2836   -39.674   -26.189   -142.57   
517250000  -22.631   -158.13   -6.265   -41.872   -6.1249   -41.6   -26.869   -174.89   
539500000  -23.842   -153.96   -6.2952   -43.34   -6.1912   -43.271   -26.601   -162.42   
561750000  -24.449   -135.23   -6.2809   -44.901   -6.3554   -43.923   -25.604   -147.83   
584000000  -23.634   -142.62   -6.3702   -47.163   -6.3762   -46.099   -25.379   -151.54   
606250000  -23.456   -159.06   -6.2264   -47.942   -6.1833   -48.016   -25.275   -157.14   
628500000  -22.576   -161.65   -6.3605   -50.017   -6.2827   -50.148   -25.663   -161.03   
650750000  -23.099   -153.22   -6.4152   -51.726   -6.3773   -51.663   -25.396   -158.39   
673000000  -23.872   -152.16   -6.3838   -53.207   -6.5806   -54.147   -25.296   -158.61   
695250000  -22.9   -154.76   -6.4203   -54.803   -6.4572   -55.074   -25.252   -163.06   
717500000  -22.869   -160.92   -6.5277   -56.591   -6.5137   -57.171   -25.254   -164.98   
739750000  -23.009   -162.1   -6.5914   -58.155   -6.6098   -58.285   -25.457   -167.05   
762000000  -23.132   -163.54   -6.5407   -59.978   -6.5722   -59.988   -26.549   -145.43   
784250000  -23.186   -162.86   -6.4778   -61.595   -6.5206   -62.17   -26.131   -151.41   
806500000  -22.42   -161.66   -6.4615   -64.021   -6.503   -64.384   -24.317   -179.01   
828750000  -21.819   -165.59   -6.5627   -65.941   -6.5507   -65.965   -24.443    172.88   
851000000  -23.268   -167.19   -6.4938   -66.432   -6.5924   -66.672   -26.22   -174.54   
873250000  -23.881   -165.53   -6.4403   -67.776   -6.608   -68.276   -26.433   -168.75   
895500000  -23.291   -166.16   -6.5076   -69.578   -6.5789   -70.006   -26.073   -179.8   
917750000  -22.62   -167.31   -6.5678   -71.072   -6.6472   -71.43   -26.343    177.03   
940000000  -23.419   -167.14   -6.559   -72.819   -6.6249   -72.999   -26.576    176.55   
962250000  -24.3   -168.16   -6.611   -74.589   -6.5882   -74.92   -26.812    175.66   
984500000  -23.888   -166.35   -6.6343   -76.429   -6.6222   -76.642   -27.191    174.39   
1006750000  -23.43   -169.35   -6.6034   -77.992   -6.6225   -77.926   -26.748    166.5   
1029000000  -23.388   -167.76   -6.6324   -79.564   -6.6888   -79.472   -27.293    161.57   
1051250000  -23.382   -168.27   -6.5611   -80.357   -6.5956   -80.935   -28.355    171.84   
1073500000  -23.643   -163.83   -6.6614   -81.994   -6.6362   -82.576   -28.595    173.95   
1095750000  -23.431   -164.02   -6.6038   -84.084   -6.6541   -84.363   -28.647    167.71   
1118000000  -23.081   -166.4   -6.556   -86.152   -6.6862   -85.898   -28.353    161.1   
1140250000  -23.561   -166.77   -6.6127   -87.896   -6.6285   -87.409   -29.594    165.21   
1162500000  -23.954   -170.39   -6.6515   -88.807   -6.6339   -89.172   -30.96    175.21   
1184750000  -23.534   -167.15   -6.632   -90.391   -6.6007   -90.921   -30.927    174.25   
1207000000  -23.325   -165.93   -6.6561   -92.243   -6.6662   -92.55   -30.892    166.91   
1229250000  -23.086   -164.48   -6.5871   -93.711   -6.6483   -93.9   -31.873    162.71   
1251500000  -23.565   -166.32   -6.6022   -95.107   -6.6297   -95.267   -33.822    176.01   
1273750000  -24.237   -164.01   -6.5962   -96.722   -6.5747   -96.875   -33.762   -169.44   
1296000000  -22.588   -161.45   -6.5799   -98.587   -6.5569   -98.746   -33.722    177.18   
1318250000  -21.582   -160.78   -6.5989   -100.12   -6.5907   -100.63   -33.387    173.08   
1340500000  -22.476   -163.06   -6.5701   -101.95   -6.6439   -102.06   -34.981   -174.27   
1362750000  -22.957   -166.7   -6.5386   -103.64   -6.5801   -103.57   -36.062   -156.8   
1385000000  -22.506   -165.33   -6.5524   -105.34   -6.5094   -105.12   -35.448   -153.49   
1407250000  -21.552   -163.65   -6.5331   -106.86   -6.4868   -107.05   -36.265   -145.84   
1429500000  -21.128   -163.62   -6.5033   -108.7   -6.5191   -109.08   -35.243   -138.06   
1451750000  -21.233   -165.7   -6.5074   -110.38   -6.5975   -110.24   -36.155   -97.142   
1474000000  -21.271   -165.83   -6.5006   -112.12   -6.5522   -111.2   -32.333   -81.155   
1496250000  -21.275   -164.08   -6.5319   -113.66   -6.5264   -113.53   -32.969   -133.84   
1518500000  -21.289   -164.52   -6.5329   -115.03   -6.5344   -115.87   -31.626   -145.76   
1540750000  -21.155   -165.8   -6.4982   -116.94   -6.5238   -117.6   -32.255   -124.4   
1563000000  -20.684    176.49   -6.5446   -119.33   -6.4933   -119.53   -30.862   -93.171   
1585250000  -20.799   -176.79   -6.4958   -120.75   -6.4804   -120.73   -29.875   -108.28   
1607500000  -20.429   -164.74   -6.4956   -122.65   -6.4665   -122.9   -30.053   -118.62   
1629750000  -19.333   -169.66   -6.2943   -123.54   -6.2397   -124.4   -29.477   -117.17   
1652000000  -19.995   -174.6   -6.496   -125.73   -6.579   -125.5   -28.98   -100.07   
1674250000  -20.147   -176.84   -6.5026   -127.6   -6.5973   -126.24   -27.372   -97.505   
1696500000  -19.797   -172.51   -6.4705   -129.16   -6.4858   -128.98   -27.837   -120.19   
1718750000  -19.618   -171.81   -6.4611   -130.78   -6.4452   -130.84   -27.728   -125.59   
1741000000  -19.689   -175.45   -6.4466   -132.85   -6.4594   -133.1   -27.124   -118.47   
1763250000  -20.187    178.64   -6.393   -135.24   -6.4042   -135.34   -26.324   -110.12   
1785500000  -19.735    178.72   -6.3997   -136.62   -6.4411   -136.49   -26.046   -116.81   
1807750000  -19.344   -174.21   -6.5614   -137.8   -6.6373   -139.15   -26.276   -124.71   
1830000000  -18.987   -179.63   -6.4984   -139.21   -6.4314   -140.51   -26.118   -123.52   
1852250000  -19.087    176.63   -6.4419   -141.56   -6.4669   -141.51   -25.15   -121.08   
1874500000  -19.149    176.96   -6.3909   -142.97   -6.4395   -142.84   -24.596   -122.02   
1896750000  -19.18    176.79   -6.4667   -145.2   -6.4039   -144.93   -24.709   -125.57   
1919000000  -19.208    175.81   -6.5731   -146.67   -6.4071   -146.94   -24.704   -127.82   
1941250000  -19.118    173.63   -6.3968   -148.66   -6.4438   -149.47   -24.225   -127.61   
1963500000  -19.23    171.11   -6.3476   -151.5   -6.4927   -151.49   -24.178   -126.56   
1985750000  -19.037    169.06   -6.4227   -153.07   -6.477   -152.23   -23.729   -129.18   
2008000000  -18.882    167.76   -6.4935   -154.78   -6.4548   -154.91   -23.51   -146.7   
2030250000  -18.733    167.04   -6.4944   -156.12   -6.4086   -156.87   -23.453   -141.97   
2052500000  -18.534    166.19   -6.3998   -157.47   -6.4281   -158.12   -23.154   -123.46   
2074750000  -18.67    165.22   -6.3674   -159.51   -6.5253   -159.46   -22.649   -124.17   
2097000000  -18.988    166.35   -6.4829   -161.75   -6.4661   -160.98   -22.71   -137.78   
2119250000  -19.006    165.84   -6.5521   -163.23   -6.4048   -163.19   -22.911   -142.26   
2141500000  -18.945    162.77   -6.4839   -165.12   -6.4188   -165.69   -22.719   -137.74   
2163750000  -18.892    160.19   -6.3706   -167.65   -6.5141   -167.76   -22.592   -135.48   
2186000000  -18.877    158.64   -6.3869   -169.06   -6.583   -168.75   -22.302   -139.71   
2208250000  -19.821    164.76   -6.5538   -170.65   -6.4775   -170.47   -22.136   -142.61   
2230500000  -19.252    161.09   -6.5744   -172.46   -6.3992   -172.78   -22.222   -142.82   
2252750000  -17.998    155.08   -6.4678   -174.16   -6.508   -175.12   -21.973   -142.35   
2275000000  -18.292    153.51   -6.4643   -175.99   -6.6821   -176.55   -21.991   -143.23   
2297250000  -19.441    156.6   -6.5231   -177.73   -6.6285   -178.02   -21.374   -150.27   
2319500000  -19.748    157.28   -6.5346   -179.77   -6.5269   -179.6   -21.11   -155.59   
2341750000  -19.101    153.06   -6.5571    178.12   -6.4963    178.41   -21.888   -147.52   
2364000000  -18.621    150.9   -6.5164    175.83   -6.5942    175.28   -21.939   -148.36   
2386250000  -19.143    149.91   -6.5399    175.04   -6.6352    174.22   -21.651   -149.16   
2408500000  -18.993    150.6   -6.6345    173.2   -6.593    173.4   -21.077   -153.87   
2430750000  -18.808    149.19   -6.642    171.17   -6.5583    171.43   -21.548   -152.99   
2453000000  -17.451    147.4   -6.4112    170.26   -6.4306    169.39   -21.603   -147.8   
2475250000  -18.283    147.55   -6.6318    168.4   -6.7553    167.1   -21.517   -149.12   
2497500000  -19.38    147.97   -6.7294    166.08   -6.8338    166.06   -21.523   -153.71   
2519750000  -19.547    148.1   -6.8109    164.01   -6.7551    164.93   -21.529   -155.55   
2542000000  -19.241    147.62   -6.6998    161.82   -6.6421    162.21   -21.767   -152.22   
2564250000  -18.895    144.3   -6.6252    159.77   -6.7646    159.45   -21.986   -144.68   
2586500000  -19.267    143.42   -6.7373    159.08   -6.8595    158.06   -21.349   -154.93   
2608750000  -18.65    143.58   -6.7299    157.65   -6.8914    157.61   -20.689   -159.63   
2631000000  -18.851    143.31   -6.768    155.14   -6.8233    155.71   -21.216   -158.23   
2653250000  -18.069    143.63   -6.7968    153.82   -6.7626    153.1   -21.509   -154.29   
2675500000  -18.365    143.35   -6.8475    152.09   -6.8529    150.8   -21.243   -155.46   
2697750000  -19.65    139.26   -6.9713    149.81   -6.9518    149.53   -21.047   -159.25   
2720000000  -19.869    139.06   -6.9398    148.26   -6.9288    148.17   -20.975   -160.75   
2742250000  -19.324    139.64   -6.8605    146.58   -6.8806    146.6   -21.339   -157.87   
2764500000  -19.056    136.71   -6.913    144.52   -6.8965    144.15   -21.587   -153.72   
2786750000  -19.265    135.61   -6.9511    143.3   -6.9786    142.38   -20.927   -160.47   
2809000000  -18.703    135.43   -6.8986    141.79   -7.1282    141.89   -21.14   -159.6   
2831250000  -18.871    136.3   -6.9067    139.82   -7.0387    140.06   -20.973   -160.95   
2853500000  -17.797    137.56   -6.9398    138.45   -6.9704    137.89   -21.243   -160.37   
2875750000  -18.366    137.25   -7.0495    136.26   -7.0411    135.6   -20.873   -161.65   
2898000000  -19.308    132.15   -7.0658    134.41   -7.1231    133.72   -20.16   -169.03   
2920250000  -19.652    132.13   -7.0313    132.33   -7.1253    132.47   -20.046   -170.68   
2942500000  -19.689    130.74   -7.0332    131.08   -7.0601    131.06   -20.76   -164.86   
2964750000  -19.54    128.53   -7.0239    129.32   -6.9707    128.73   -20.713   -163.26   
2987000000  -19.692    125.68   -7.0918    127.66   -7.1422    127.32   -20.47   -166.98   
3009250000  -19.439    124.26   -7.0436    126.31   -7.1812    126.81   -20.154   -170.67   
3031500000  -19.65    124.74   -7.0434    124.17   -7.1556    124.5   -20.429   -169.32   
3053750000  -19.244    129.23   -7.025    123.09   -7.0791    123.23   -20.564   -167.41   
3076000000  -19.788    126.07   -7.1695    120.9   -7.1483    120.76   -20.243   -168.76   
3098250000  -20.13    119.51   -7.187    118.88   -7.2893    118.52   -20.195   -172.66   
3120500000  -20.685    118.8   -7.1403    117.33   -7.2802    117.63   -20.233   -173.75   
3142750000  -20.641    120.67   -7.075    115.71   -7.0996    116.11   -20.322   -173.33   
3165000000  -20.856    117.89   -7.0713    113.41   -7.0561    113.4   -20.351   -174.05   
3187250000  -20.804    113.46   -7.1527    112.01   -7.1207    111.62   -20.179   -176.12   
3209500000  -20.649    112.22   -7.1756    110.43   -7.2231    110.5   -19.414    177.57   
3231750000  -20.954    112.99   -7.1069    108.59   -7.2512    108.94   -20.273   -177.88   
3254000000  -21.01    118.51   -7.1077    106.19   -7.1022    106.78   -21.5   -177.18   
3276250000  -21.481    114.29   -7.1304    104.19   -7.0743    104.73   -20.808   -177.81   
3298500000  -21.707    112.13   -7.255    102.51   -7.1792    102.37   -20.303    179.08   
3320750000  -22.342    110.94   -7.2416    101.53   -7.2385    100.92   -20.39    177.82   
3343000000  -23.359    113.6   -7.1283    99.947   -7.1715    99.819   -21.456    178.94   
3365250000  -23.855    115.57   -7.0887    97.976   -7.1222    98.144   -22.022    179.42   
3387500000  -23.257    102.1   -7.0744    95.694   -7.1026    95.9   -20.683    174.05   
3409750000  -23.351    101.48   -7.1375    93.969   -7.2172    94.157   -20.319    173.84   
3432000000  -23.374    101.36   -7.1361    92.109   -7.1884    92.078   -21.011    173.12   
3454250000  -24.064    113.05   -7.1222    89.955   -7.1538    90.249   -22.145    170.08   
3476500000  -24.754    106.87   -7.1305    87.643   -7.1135    88.146   -21.694    171.29   
3498750000  -24.874    104.77   -7.2103    85.331   -7.1404    85.31   -21.184    169.63   
3521000000  -26.261    102.96   -7.2223    83.812   -7.1793    83.547   -21.359    168.2   
3543250000  -27.016    105.07   -7.1533    82.396   -7.1931    81.834   -22.59    167.54   
3565500000  -28.004    103.86   -7.0954    80.277   -7.1593    80.031   -23.141    166.16   
3587750000  -28.085    98.884   -7.1158    78.478   -7.1873    78.761   -21.954    165.52   
3610000000  -29.236    101.56   -7.1853    76.742   -7.2087    76.961   -22.082    162.56   
3632250000  -29.005    106.6   -7.2285    74.195   -7.1895    74.259   -22.301    162.98   
3654500000  -29.295    119.72   -7.2098    72.628   -7.176    72.48   -22.935    161.23   
3676750000  -30.248    123.72   -7.2449    70.334   -7.2344    70.153   -23.119    160.18   
3699000000  -32.25    136.82   -7.2983    67.978   -7.2752    67.721   -22.933    156.69   
3721250000  -33.78    138.97   -7.2864    66.162   -7.3107    65.726   -23.768    154.76   
3743500000  -32.483    150.66   -7.3091    63.866   -7.343    63.528   -25.067    153.14   
3765750000  -32.768    159.83   -7.3409    61.355   -7.3947    61.179   -25.697    153.51   
3788000000  -33.819    157.62   -7.4316    59.16   -7.4712    59.503   -24.433    151.1   
3810250000  -33.643    162   -7.5653    57.139   -7.5291    56.985   -23.552    149.47   
3832500000  -31.656    165.98   -7.5813    55.201   -7.5758    54.929   -28.237    154.02   
3854750000  -28.587   -173.84   -7.6402    52.625   -7.6438    52.892   -31.092    159.57   
3877000000  -28.805   -178.27   -7.7296    51.227   -7.7811    51.281   -31.174    164.87   
3899250000  -28.155   -170.83   -7.7814    49.715   -7.8599    50.151   -28.998    168.1   
3921500000  -27.503   -164.54   -7.8532    47.789   -7.8729    47.953   -31.524    167.85   
3943750000  -26.548   -156.95   -8.0062    45.747   -7.9886    45.84   -36.675   -158.24   
3966000000  -26.15   -162.49   -8.1248    44.263   -8.1833    43.857   -33.572   -129.47   
3988250000  -25.145   -165.01   -8.1617    42.708   -8.2196    42.639   -30.447   -140.1   
4010500000  -25.033   -165.84   -8.1933    41.005   -8.2046    41.302   -28.65   -140.51   
4032750000  -23.346   -171.78   -8.2668    38.764   -8.1858    39.017   -28.698   -130.09   
4055000000  -22.689   -173.59   -8.3861    36.48   -8.3004    36.63   -28.602   -110.79   
4077250000  -21.515   -178.32   -8.3798    35.594   -8.4078    35.127   -27.41   -138.07   
4099500000  -20.918    169.75   -8.3712    33.209   -8.336    33.363   -25.577   -150.2   
4121750000  -20.618    175.24   -8.3573    31.793   -8.3441    32.149   -26.973   -155.33   
4144000000  -20.591   -178.28   -8.2996    29.391   -8.3288    29.972   -31.111   -154.82   
4166250000  -20.467    179.09   -8.4062    26.83   -8.3605    27.118   -33.59   -160.54   
4188500000  -20.262    172.29   -8.5409    25.019   -8.539    24.785   -38.502   -154.26   
4210750000  -20.028    166.46   -8.6905    22.676   -8.6778    22.692   -45.043   -54.608   
4233000000  -19.913    168.78   -8.8172    19.141   -8.7446    19.282   -29.556   -20.045   
4255250000  -19.877    168.12   -8.9906    16.618   -8.9856    16.506   -23.91   -23.254   
4277500000  -18.914    166.43   -9.3282    14.227   -9.3786    13.559   -20.729   -29.825   
4299750000  -18.423    166.13   -9.7908    11.6   -9.8242    12.421   -17.936   -37.881   
4322000000  -17.801    166.29   -10.438    10.695   -10.217    11.411   -15.569   -47.074   
4344250000  -17.561    165.32   -10.94    12.459   -10.699    10.73   -13.547   -55.868   
4366500000  -17.145    161.42   -11.086    13.898   -11.177    11.383   -12.044   -67.343   
4388750000  -16.971    155.7   -11.162    14.431   -11.433    13.248   -10.93   -79.428   
4411000000  -16.692    148.94   -11.234    15.716   -11.42    15.75   -10.131   -90.18   
4433250000  -16.437    145.37   -11.193    16.735   -11.164    17.419   -9.5456   -98.737   
4455500000  -16.253    141.24   -11.08    17.965   -10.951    17.433   -9.1717   -107.29   
4477750000  -16.184    137.85   -10.847    18.548   -10.754    17.356   -8.9812   -114.48   
4500000000  -15.998    134.13   -10.505    19.915   -10.43    18.122   -8.6929   -120.89   

