! Network Analyzer HP8722ES.07.74: Oct 30, 2002 Serial No. US39175660
! Hewlett-Packard
! 30 May 2012  18:15:59
! Frequency       S11                S21                S12                S22
# HZ  S  DB R  50 
50000000  -43.855    164.91   -3.1046   -6.3652   -3.1928   -6.8871   -33.186    174.87   
72250000  -28.664   -66.89   -2.9776    .9310   -3.1787   -.6578   -29.693   -149.99   
94500000  -43.971   -99.415   -3.1739   -10.603   -3.1774   -11.357   -30.773    174.3   
116750000  -26.843    99.505   -2.6362   -10.464   -2.9132   -11.162   -24.285    114.31   
139000000  -30.799    93.796   -2.9846   -15.64   -3.108   -16.778   -27.192    115.41   
161250000  -36.141   -93.425   -2.849   -19.289   -2.9855   -20.553   -31.381   -151.49   
183500000  -35.618   -96.507   -2.9679   -22.169   -3.0585   -23.681   -29.317   -161.65   
205750000  -30.349    76.851   -3.0186   -28.286   -3.0569   -28.788   -30.332    129.21   
228000000  -25.744    83.184   -2.9423   -29.555   -3.0658   -30.185   -30.668    109.8   
250250000  -36.105    71.794   -3.1649   -36.326   -3.2619   -36.225   -32.909    126.03   
272500000  -48.851   -12.042   -2.9981   -37.163   -3.0884   -37.663   -32.427    167.86   
294750000  -37.063    58.318   -3.2407   -42.111   -3.3007   -42.645   -32.423    123.48   
317000000  -27.205    68.247   -3.0192   -44.282   -3.1634   -44.843   -30.599    91.755   
339250000  -29.126    54.472   -3.1804   -48.242   -3.2821   -48.654   -32.608    79.912   
361500000  -33.798    23.136   -3.1198   -51.741   -3.1977   -52.182   -34.86    89.724   
383750000  -33.693    27.996   -3.2051   -54.871   -3.2665   -55.589   -33.848    88.327   
406000000  -29.138    34.166   -3.313   -59.111   -3.4001   -59.464   -32.785    66.054   
428250000  -27.204    26.837   -3.3016   -61.808   -3.374   -62.28   -32.301    57.176   
450500000  -28.526    16.18   -3.3825   -66.588   -3.4589   -66.901   -32.889    50.486   
472750000  -29.299    11.151   -3.2649   -69.733   -3.3439   -69.868   -32.293    42.746   
495000000  -27.999   -3.3824   -3.5215   -73.139   -3.4671   -73.253   -32.065    33.374   
517250000  -23.331    28.185   -3.5667   -77.588   -3.4802   -77.695   -22.858    25.468   
539500000  -23.692    4.9274   -3.5458   -80.885   -3.5285   -80.818   -25.772    20.417   
561750000  -26.219   -37.709   -3.5423   -83.985   -3.6001   -83.087   -32.032    15.702   
584000000  -26.747   -40.563   -3.6133   -88.049   -3.5903   -87.203   -31.107    13.752   
606250000  -24.848   -11.253   -3.4787   -91.221   -3.4435   -91.112   -28.803    8.8728   
628500000  -24.985   -20.462   -3.646   -95.337   -3.5799   -95.765   -27.969   -.0027   
650750000  -24.203   -50.081   -3.6782   -99.077   -3.6896   -98.946   -29.539   -3.3742   
673000000  -23.802   -60.294   -3.7007   -103.01   -3.8363   -103.28   -30.059   -7.7371   
695250000  -23.268   -65.944   -3.7233   -106.57   -3.7219   -106.6   -28.663   -6.2526   
717500000  -23.833   -71.444   -3.7785   -110.45   -3.8379   -109.82   -28.369   -7.9308   
739750000  -23.256   -82.385   -3.9151   -114.84   -3.9367   -114.6   -27.896   -9.3988   
762000000  -22.649   -91.491   -3.9537   -118.82   -3.9428   -118.72   -36.245   -76.035   
784250000  -22.09   -102.05   -3.8907   -122.98   -3.9066   -123.03   -36.559   -33.008   
806500000  -24.043   -117.42   -3.863   -127.83   -3.9655   -127.97   -23.847   -2.8592   
828750000  -24.67   -129.57   -3.8996   -132.54   -4.0182   -132.15   -22.332   -10.263   
851000000  -20.351   -133.53   -3.9946   -136.11   -4.1383   -136.47   -25.626   -10.99   
873250000  -18.831   -146.45   -4.0305   -140.13   -4.1763   -141.42   -26.106   -1.8265   
895500000  -19.226   -158.67   -4.1659   -145.47   -4.176   -145.79   -23.06   -6.7484   
917750000  -19.3   -170.05   -4.2376   -150.02   -4.3085   -150.61   -21.926   -8.4828   
940000000  -17.972    178.83   -4.3007   -155.37   -4.4031   -155.39   -21.091   -8.167   
962250000  -16.37    166.18   -4.5249   -160.42   -4.4061   -160.75   -19.995   -9.234   
984500000  -15.484    154.07   -4.6249   -165.8   -4.5792   -166.64   -18.914   -11.106   
1006750000  -14.778    142.18   -4.6964   -171.88   -4.7832   -171.42   -17.478   -16.632   
1029000000  -13.842    132.37   -4.8569   -177.49   -4.9089   -176.68   -16.648   -20.153   
1051250000  -12.61    122.84   -5.0084    177.59   -4.9834    177.68   -15.7   -17.088   
1073500000  -11.692    113.8   -5.377    172.93   -5.1966    171.74   -14.584   -19.552   
1095750000  -10.914    100.83   -5.5115    164.78   -5.598    164.3   -13.741   -26.525   
1118000000  -10.269    89.394   -5.8839    156.22   -6.0575    157.95   -13.054   -32.625   
1140250000  -9.2326    80.763   -6.1479    150.42   -6.1447    151.78   -12.009   -35.484   
1162500000  -8.0059    72.081   -6.344    144.45   -6.5092    143.82   -11.078   -39.972   
1184750000  -7.4015    62.08   -7.021    137.75   -7.1417    137.37   -10.346   -45.483   
1207000000  -6.8476    52.351   -7.5845    131.75   -7.6329    131.98   -9.759   -51.424   
1229250000  -6.2578    43.029   -7.8928    125.08   -7.8802    125.36   -9.2304   -56.889   
1251500000  -5.6316    35.846   -8.3594    117.42   -8.3375    117.01   -8.5347   -61.541   
1273750000  -5.0196    26.364   -9.1694    108.91   -9.2568    108.58   -7.8927   -67.9   
1296000000  -4.8026    17.46   -10.104    103.37   -10.275    104.5   -7.7356   -72.8   
1318250000  -4.2311    9.7778   -10.456    98.124   -10.466    100.29   -7.2951   -77.506   
1340500000  -4.011    1.6974   -11.282    90.029   -10.931    90.247   -7.0226   -83.78   
1362750000  -3.8315   -3.1764   -12.373    84.33   -12.22    81.168   -6.8064   -88.021   
1385000000  -3.4576   -11.817   -13.261    77.094   -13.526    75.696   -6.4868   -93.667   
1407250000  -3.618   -20.419   -14.415    71.706   -14.702    72.927   -6.6009   -99.588   
1429500000  -3.3385   -25.873   -14.895    66.831   -14.781    68.408   -6.4054   -103.51   
1451750000  -3.0294   -33.172   -15.543    56.894   -15.452    57.236   -5.9875   -108.33   
1474000000  -2.8673   -39.069   -16.83    48.711   -17.191    49.241   -5.8336   -113   
1496250000  -2.8636   -45.246   -18.245    42.979   -18.098    43.61   -5.7784   -117.39   
1518500000  -3.2512   -50.422   -19.7    40.774   -18.808    39.632   -5.8999   -122.39   
1540750000  -2.6724   -55.555   -19.49    36.391   -19.141    32.809   -5.598   -125.27   
1563000000  -1.9395   -63.206   -19.847    21.747   -19.733    21.774   -4.7268   -130.52   
1585250000  -2.3411   -67.78   -21.354    13.852   -21.494    16.701   -5.133   -134.04   
1607500000  -2.5069   -71.572   -22.409    11.652   -22.342    14.315   -5.3756   -136.43   
1629750000  -2.32   -76.288   -22.878    7.0985   -22.155    6.8665   -5.0675   -139.91   
1652000000  -2.1836   -80.063   -23.632   -.1002   -23.398   -1.8718   -5.2468   -141.92   
1674250000  -1.9727   -85.636   -24.179   -9.5828   -24.57   -8.3057   -4.9987   -144.49   
1696500000  -2.3094   -89.297   -25.089   -16.017   -25.366   -17.415   -5.2279   -150.91   
1718750000  -2.192   -92.068   -25.391   -20.786   -25.527   -22.066   -5.2446   -153.31   
1741000000  -2.1656   -97.961   -25.687   -29.371   -25.655   -30.766   -5.1213   -157.44   
1763250000  -2.14   -101.38   -26.25   -37.091   -26.399   -37.498   -5.2154   -160.48   
1785500000  -2.0809   -105.97   -26.486   -44.125   -26.658   -42.771   -5.0825   -163.54   
1807750000  -2.8386   -112.72   -27.294   -50.88   -26.833   -53.365   -5.0728   -170.59   
1830000000  -2.5743   -114.1   -27.262   -53.122   -26.803   -58.292   -5.1909   -172.59   
1852250000  -2.0189   -118.69   -26.738   -59.286   -26.96   -61.53   -4.8975   -172.96   
1874500000  -2.1804   -122.06   -27.025   -64.307   -27.312   -64.775   -4.9015   -176.48   
1896750000  -2.1575   -126.32   -27.05   -68.941   -27.104   -66.021   -4.9187   -179.65   
1919000000  -2.4747   -132.44   -27.278   -73.954   -26.505   -71.803   -4.8252    175.97   
1941250000  -2.0512   -132.32   -26.586   -74.442   -26.637   -77.064   -4.9705    174.39   
1963500000  -1.6712   -134.93   -26.204   -79.238   -27.166   -79.128   -5.0345    173.18   
1985750000  -2.0039   -140.27   -26.791   -82.908   -27.323   -80.49   -4.9123    168.78   
2008000000  -2.1959   -143.24   -27.035   -82.557   -26.715   -83.248   -5.0537    164.85   
2030250000  -2.0969   -146.82   -26.508   -82.785   -25.999   -85.071   -4.9823    162.58   
2052500000  -1.9769   -148.36   -26.028   -84.459   -26.529   -87.492   -5.1656    160.25   
2074750000  -1.7367   -152.07   -25.67   -88.112   -26.972   -87.646   -5.2216    158.2   
2097000000  -2.3567   -158.73   -26.349   -92.528   -26.339   -88.965   -4.8958    153.06   
2119250000  -2.7821   -161   -26.462   -90.685   -25.645   -90.886   -5.0372    148.89   
2141500000  -2.092   -163.91   -25.279   -91.546   -25.195   -92.926   -5.0282    147.75   
2163750000  -1.6753   -168.03   -24.381   -96.154   -25.476   -95.724   -4.9793    144.74   
2186000000  -2.1762   -170.97   -24.829   -98.275   -25.712   -94.666   -5.0756    141.78   
2208250000  -2.6552   -175.29   -25.201   -97.78   -24.814   -93.253   -4.9615    138.28   
2230500000  -2.6013   -177.62   -25.038   -95.372   -23.931   -96.325   -5.0872    135.23   
2252750000  -1.778    178.74   -23.771   -97.068   -23.939   -98.733   -5.3438    135.98   
2275000000  -1.976    173.41   -23.351   -101.95   -24.253   -100.75   -5.1877    132.87   
2297250000  -2.5466    172.92   -23.554   -101.53   -24.152   -100.66   -5.3722    126.74   
2319500000  -2.4733    169.43   -23.347   -101.51   -23.146   -98.502   -5.4568    124.47   
2341750000  -2.5348    165.34   -22.943   -101.95   -22.409   -100.84   -5.4341    120.83   
2364000000  -2.208    162.82   -21.837   -102.84   -22.541   -105.87   -5.7671    117.37   
2386250000  -2.6858    157.87   -21.841   -107.66   -22.422   -107.23   -5.5296    115.14   
2408500000  -3.2878    154.37   -22.477   -110.9   -21.554   -108.96   -5.3839    109.78   
2430750000  -3.1068    151.4   -22.079   -108.72   -20.921   -109.4   -5.6021    108.32   
2453000000  -2.7431    147.6   -20.872   -109.33   -20.623   -112.94   -5.4987    107.24   
2475250000  -3.1356    143.96   -20.388   -112.83   -21.125   -115.43   -5.8096    103.37   
2497500000  -3.5101    138.09   -20.432   -117.89   -20.819   -112.77   -5.8199    100.73   
2519750000  -3.9957    133.98   -20.716   -119.09   -19.638   -113.74   -5.8414    96.86   
2542000000  -3.5677    131.79   -19.669   -118.79   -19.154   -118.99   -6.1797    93.786   
2564250000  -3.3357    126.03   -18.532   -123.57   -19.537   -122.28   -6.2394    91.872   
2586500000  -4.1383    123.5   -18.773   -125.41   -19.49   -125.95   -6.3205    87.771   
2608750000  -4.3077    120.81   -18.801   -128.09   -18.849   -125.19   -6.4716    85.048   
2631000000  -4.6549    116.13   -18.762   -129.3   -18.038   -127.6   -6.5142    81.942   
2653250000  -4.8085    113   -18.088   -129.63   -18.058   -132.77   -6.9153    78.942   
2675500000  -5.1993    107.72   -17.446   -133.52   -18.115   -135.54   -6.9396    76.551   
2697750000  -6.0957    103.15   -17.569   -136.32   -17.678   -137.69   -6.7939    71.734   
2720000000  -6.554    99.686   -17.439   -139.05   -17.131   -139.84   -7.0903    68.386   
2742250000  -6.8435    93.616   -16.974   -143.61   -16.615   -143.29   -7.1444    66.206   
2764500000  -7.391    89.227   -16.621   -146.69   -16.616   -148.79   -7.1675    62.06   
2786750000  -8.0177    85.093   -16.269   -150.75   -16.674   -151.26   -7.4473    59.919   
2809000000  -8.9177    81.67   -16.509   -155.38   -16.363   -150.79   -7.5467    58.208   
2831250000  -9.7187    78.106   -16.429   -156.44   -15.956   -155.51   -7.6946    53.66   
2853500000  -10.504    74.48   -15.884   -158.46   -15.919   -159.82   -7.9513    50.842   
2875750000  -11.926    69.995   -15.45   -161.55   -15.835   -163.19   -8.0516    47.716   
2898000000  -13.448    66.036   -15.323   -166.67   -15.681   -166.39   -8.2808    44.179   
2920250000  -15.203    62.769   -15.382   -171.51   -15.363   -169.45   -8.4413    41.033   
2942500000  -17.107    58.508   -15.338   -174.26   -15.237   -174.41   -8.5253    36.719   
2964750000  -19.676    57.45   -15.18   -177.67   -15.344   -178.66   -8.7951    33.227   
2987000000  -23.021    65.404   -15.218    179.09   -15.21    179.2   -8.8128    31.174   
3009250000  -26.29    92.528   -15.297    176.1   -14.982    176.62   -8.7741    28.437   
3031500000  -27.274    140.3   -15.402    173.36   -15.159    172.69   -9.1435    25.06   
3053750000  -22.386    167.67   -15.182    172.2   -15.116    169.97   -9.2767    23.156   
3076000000  -19.751    175.86   -14.965    168.02   -15.156    165.82   -9.4783    18.987   
3098250000  -17.287    173.76   -15.015    162.76   -15.163    161.52   -9.5356    15.296   
3120500000  -15.546    173.33   -15.299    158.33   -15.351    158.6   -9.6795    11.375   
3142750000  -14.371    172.48   -15.479    155.83   -15.547    157.33   -9.9176    8.2411   
3165000000  -13.126    168.95   -15.501    153.85   -15.32    154.76   -10.013    4.9754   
3187250000  -12.149    163.95   -15.506    151.37   -15.333    150.32   -10.138    1.4777   
3209500000  -11.068    159.67   -15.674    148.39   -15.78    148.39   -10.316   -1.6452   
3231750000  -10.341    156.45   -15.826    145.35   -16.115    145.23   -10.441   -4.9425   
3254000000  -9.7596    154.14   -16.033    143.86   -16.046    142.89   -10.602   -8.7547   
3276250000  -9.1853    150.33   -15.822    141.83   -15.805    141.02   -10.683   -12.276   
3298500000  -8.655    145.19   -15.715    137.24   -15.884    136.53   -10.785   -16.283   
3320750000  -8.2622    141.89   -15.948    133.42   -16.345    133.81   -10.873   -19.593   
3343000000  -7.9463    138.01   -16.287    131.22   -16.537    132.64   -10.874   -23.189   
3365250000  -7.721    134.3   -16.59    130.79   -16.338    130.51   -10.992   -27.254   
3387500000  -7.1251    129.76   -16.426    129.7   -16.138    129.43   -11.126   -29.222   
3409750000  -6.7056    125.09   -16.312    126.37   -16.476    125.47   -11.287   -32.919   
3432000000  -6.5259    121.77   -16.623    123.84   -17.049    123.83   -11.204   -37.297   
3454250000  -6.1086    119.25   -16.725    122.26   -16.999    123.33   -11.401   -40.791   
3476500000  -6.07    114.65   -16.836    120.11   -16.679    121.77   -11.326   -44.912   
3498750000  -5.8492    111.28   -16.789    117.43   -16.787    117.09   -11.399   -49.307   
3521000000  -5.6747    107.02   -16.949    114.17   -17.27    114.66   -11.355   -53.004   
3543250000  -5.6374    102.88   -17.457    112.52   -17.487    113.78   -11.335   -56.224   
3565500000  -5.5045    98.98   -17.642    112.56   -17.256    113.48   -11.429   -59.514   
3587750000  -5.3612    95.008   -17.589    112.26   -17.067    112.42   -11.398   -62.97   
3610000000  -5.2901    91.884   -17.514    110.68   -17.313    108.55   -11.463   -66.271   
3632250000  -5.035    87.402   -17.478    106.58   -17.679    106.27   -11.421   -71.496   
3654500000  -5.0012    83.812   -17.775    104.01   -17.665    105.1   -11.451   -75.428   
3676750000  -4.8744    80.3   -17.979    102.75   -17.671    103.17   -11.381   -79.055   
3699000000  -4.8392    75.438   -18.161    100.43   -17.958    101.16   -11.395   -82.745   
3721250000  -4.8255    71.355   -18.372    99.711   -18.26    100.8   -11.382   -86.575   
3743500000  -4.7365    68.03   -18.411    99.623   -18.196    101.27   -11.439   -89.697   
3765750000  -4.6427    63.472   -18.344    98.497   -17.694    98.565   -11.46   -93.554   
3788000000  -4.5319    59.227   -18.177    96.128   -17.542    93.873   -11.385   -97.96   
3810250000  -4.4712    53.954   -18.282    91.401   -18.206    91.241   -11.219   -102.65   
3832500000  -4.4024    52.092   -18.583    90.486   -19.137    89.525   -11.352   -105.2   
3854750000  -4.2656    48.36   -18.696    90.271   -19.05    90.486   -11.454   -109.72   
3877000000  -4.3045    43.64   -18.932    89.787   -18.542    89.89   -11.318   -112.28   
3899250000  -4.5312    39.365   -19.045    89.013   -18.686    87.01   -11.254   -115.73   
3921500000  -4.3986    34.747   -19.023    86.443   -19.25    84.543   -11.345   -118.73   
3943750000  -4.3619    29.754   -19.322    83.861   -19.385    84.073   -11.447   -122.01   
3966000000  -4.38    25.252   -19.586    83.734   -19.159    82.272   -11.48   -125.85   
3988250000  -4.3312    19.293   -19.574    82.33   -19.224    77.246   -11.411   -129.71   
4010500000  -4.4447    14.366   -19.745    80.004   -20.284    74.126   -11.376   -133.19   
4032750000  -4.5751    9.5595   -20.079    77.514   -21.1    76.658   -11.473   -136.61   
4055000000  -4.7815    2.2343   -20.73    75.81   -20.937    76.68   -11.487   -141.08   
4077250000  -5.0508   -2.1959   -21.171    78.766   -20.552    79.669   -11.606   -142.96   
4099500000  -5.2078   -8.3867   -21.035    78.452   -20.992    79.709   -11.683   -145.24   
4121750000  -5.8885   -15.94   -21.36    79.794   -21.907    78.526   -11.808   -148.45   
4144000000  -6.6815   -20.499   -21.701    84.24   -22.378    82.4   -11.975   -152.32   
4166250000  -7.4871   -26.829   -21.99    87.702   -22.186    88.757   -12.111   -155.1   
4188500000  -9.0591   -29.467   -21.689    93.016   -21.54    93.551   -12.111   -157.08   
4210750000  -11.074   -29.816   -20.901    97.699   -21.057    96.788   -12.182   -159.06   
4233000000  -12.747   -22.598   -19.798    97.667   -20.193    96.88   -12.275   -162.33   
4255250000  -13.468   -7.5092   -18.971    95.679   -19.201    96.027   -12.396   -164.74   
4277500000  -12.652    6.1427   -18.405    92.847   -18.396    94.455   -12.593   -166.41   
4299750000  -11.268    11.305   -17.925    90.954   -17.696    91.11   -12.776   -168.42   
4322000000  -9.7981    10.9   -17.256    87.826   -17.288    85.761   -12.979   -171.2   
4344250000  -8.443    7.6273   -16.532    82.697   -17.045    81.668   -13.277   -173.71   
4366500000  -7.558    3.6131   -16.386    77.392   -16.801    79.04   -13.352   -176.16   
4388750000  -6.8856   -.1702   -16.467    73.893   -16.612    75.774   -13.417   -178.03   
4411000000  -6.263   -4.1638   -16.437    70.729   -16.501    71.136   -13.544   -179.41   
4433250000  -5.8772   -8.73   -16.323    68.001   -16.662    67.625   -13.784    179.29   
4455500000  -5.5344   -13.663   -16.227    64.615   -16.7    66.809   -14.037    178.36   
4477750000  -5.3262   -17.683   -16.203    62.15   -16.254    65.197   -14.34    177.38   
4500000000  -4.9232   -19.77   -15.93    61.052   -15.933    61.999   -14.639    177.83   

