! Network Analyzer HP8722ES.07.74: Oct 30, 2002 Serial No. US39175660
! Hewlett-Packard
! 30 May 2012  18:14:19
! Frequency       S11                S21                S12                S22
# HZ  S  DB R  50 
50000000  -40.952    142.51   -3.1374   -6.8308   -3.1109   -6.3721   -31.668   -178.39   
72250000  -28.959   -67.298   -2.9772    .9558   -3.1739   -.5918   -28.887   -142.79   
94500000  -46.415   -119.26   -3.1499   -10.462   -3.1781   -11.076   -30.14   -174.55   
116750000  -26.904    100.81   -2.6365   -10.228   -2.9108   -11.143   -24.88    119.06   
139000000  -30.958    93.928   -2.9823   -15.445   -3.1003   -16.539   -28.175    122.72   
161250000  -36.444   -95.078   -2.8285   -19.109   -2.9691   -20.411   -29.433   -141.76   
183500000  -35.691   -95.147   -2.9775   -21.953   -3.0419   -23.453   -27.84   -150.15   
205750000  -30.241    76.608   -2.9859   -27.635   -3.0549   -28.58   -31.452    150.74   
228000000  -25.767    83.158   -2.887   -28.941   -3.0278   -30.226   -33.26    132.84   
250250000  -36.591    71.526   -3.206   -35.8   -3.2045   -35.762   -33.88    162.73   
272500000  -48.326   -23.103   -3.0042   -36.49   -3.031   -36.925   -30.113   -163.64   
294750000  -37.56    56.298   -3.189   -41.839   -3.2573   -42.225   -33.426    164.57   
317000000  -27.214    68.161   -2.9495   -43.638   -3.091   -43.993   -35.151    124.47   
339250000  -29.166    55.87   -3.1248   -47.626   -3.2114   -47.975   -40.776    130.7   
361500000  -33.956    21.187   -3.0396   -51.115   -3.1266   -51.604   -38.77    173.96   
383750000  -33.993    26.971   -3.138   -54.152   -3.1858   -54.787   -37.992    171.39   
406000000  -29.293    33.956   -3.23   -58.337   -3.2868   -58.892   -44.932    148.51   
428250000  -27.174    27.058   -3.1929   -60.971   -3.2906   -61.684   -52.381    162.98   
450500000  -28.674    16.275   -3.2599   -65.635   -3.3199   -65.888   -47.622   -146.79   
472750000  -29.447    9.7147   -3.1222   -68.719   -3.182   -69.099   -47.173   -116.91   
495000000  -27.999   -3.6475   -3.3935   -72.107   -3.3091   -72.157   -42.983   -97.874   
517250000  -23.333    29.42   -3.4086   -76.209   -3.3098   -76.384   -27.405    16.966   
539500000  -23.681    5.5742   -3.3776   -79.468   -3.3546   -79.801   -33.212   -6.2773   
561750000  -25.974   -40.472   -3.3524   -82.801   -3.4242   -81.541   -35.605   -106.92   
584000000  -26.669   -42.02   -3.4218   -86.578   -3.3852   -85.758   -35.75   -107.36   
606250000  -24.909   -12.181   -3.2571   -89.707   -3.2162   -89.577   -35.269   -89.096   
628500000  -25.185   -20.69   -3.4285   -93.634   -3.3461   -93.945   -33.279   -84.874   
650750000  -24.187   -50.876   -3.426   -97.214   -3.4254   -97.119   -31.905   -108.67   
673000000  -23.667   -61.51   -3.4176   -101.04   -3.5742   -101.38   -30.503   -117.98   
695250000  -23.292   -67.401   -3.4302   -104.48   -3.4126   -104.37   -31.049   -115.38   
717500000  -23.899   -72.294   -3.477   -108.11   -3.4933   -107.87   -30.479   -119.02   
739750000  -23.251   -83.421   -3.5941   -112.1   -3.5901   -112.13   -30.33   -123.35   
762000000  -22.649   -93.043   -3.5932   -115.84   -3.5729   -115.65   -23.166   -147.97   
784250000  -21.99   -103.55   -3.4845   -119.78   -3.4947   -119.98   -24.074   -154.15   
806500000  -23.886   -121.76   -3.4612   -124.63   -3.5283   -124.84   -36.721   -116.28   
828750000  -24.649   -135.63   -3.5295   -129.04   -3.5585   -128.96   -33.928   -86.473   
851000000  -20.199   -134.44   -3.573   -132.09   -3.6684   -132.33   -29.141   -150.79   
873250000  -18.579   -146.3   -3.5169   -135.85   -3.6575   -136.7   -27.921   -172.52   
895500000  -19.036   -159.35   -3.5948   -140.92   -3.6547   -141.29   -32.208   -166.86   
917750000  -19.211   -172.81   -3.6956   -145.05   -3.775   -145.46   -34.189   -168.65   
940000000  -17.871    177.56   -3.7334   -149.86   -3.8004   -149.89   -35.078    169.68   
962250000  -16.214    166.06   -3.8774   -154.54   -3.7911   -155.04   -36.535    142.67   
984500000  -15.304    153.67   -3.9417   -159.57   -3.9242   -160.43   -37.219    104.57   
1006750000  -14.658    141.31   -3.9798   -165.05   -4.0489   -164.75   -37.076    27.684   
1029000000  -13.774    131.15   -4.1336   -170.04   -4.1425   -169.48   -34.042    11.919   
1051250000  -12.523    122.57   -4.2193   -174.13   -4.2007   -174.68   -29.052    35.498   
1073500000  -11.606    113.49   -4.5219   -178.4   -4.4828    179.69   -26.104    24.8   
1095750000  -10.869    100.14   -4.6134    173.94   -4.7126    173.65   -24.42    8.215   
1118000000  -10.217    88.334   -4.9993    166.46   -4.9725    168.24   -22.964   -6.4888   
1140250000  -9.2149    80.083   -5.1836    161.85   -5.1118    162.61   -21.099   -9.624   
1162500000  -8.002    71.561   -5.2315    156.81   -5.4752    156.02   -19.334   -13.741   
1184750000  -7.4221    61.543   -5.7806    150.74   -5.998    150.42   -17.991   -23.078   
1207000000  -6.8783    51.851   -6.3308    145.2   -6.3996    146.1   -17.002   -32.769   
1229250000  -6.2874    42.862   -6.7221    139.84   -6.5691    140.73   -16.144   -39.588   
1251500000  -5.7004    35.717   -7.0514    134.43   -7.0258    133.79   -15.172   -44.382   
1273750000  -5.0953    26.322   -7.605    127.29   -7.868    127.34   -14.214   -51.342   
1296000000  -4.8155    17.187   -8.4694    123.12   -8.7052    123.88   -13.711   -59.041   
1318250000  -4.2108    9.1983   -8.8451    119.29   -8.8491    121.2   -13.069   -65.636   
1340500000  -4.0484    1.409   -9.6317    113.14   -9.2307    113.37   -12.56   -71.995   
1362750000  -3.9033   -3.4813   -10.465    109.56   -10.33    105.86   -12.136   -77.217   
1385000000  -3.5092   -12.015   -11.202    104.36   -11.564    102.44   -11.695   -83.379   
1407250000  -3.6283   -20.572   -12.232    100.66   -12.481    102.44   -11.536   -89.905   
1429500000  -3.372   -26.082   -12.761    98.2   -12.422    100.15   -11.229   -94.444   
1451750000  -3.0544   -33.291   -13.272    92.162   -13.111    92.162   -10.848   -99.628   
1474000000  -2.9157   -39.136   -14.282    87.74   -14.694    87.321   -10.625   -104.52   
1496250000  -2.8892   -45.339   -15.407    84.644   -15.466    84.894   -10.353   -109.96   
1518500000  -3.2836   -50.463   -16.741    84.42   -15.951    84.537   -10.298   -115.45   
1540750000  -2.6878   -55.548   -16.704    83.5   -16.245    81.512   -9.9877   -118.91   
1563000000  -1.9877   -63.349   -16.899    75.396   -17.098    75.542   -9.3972   -123.49   
1585250000  -2.3762   -67.79   -18.228    72.812   -18.555    74.626   -9.5345   -127.65   
1607500000  -2.5193   -71.565   -19.226    74.015   -19.267    76.551   -9.6045   -131.3   
1629750000  -2.3353   -76.219   -19.782    74.099   -19.106    74.781   -9.2968   -134.83   
1652000000  -2.1944   -80.094   -20.587    72.817   -20.418    70.768   -9.418   -138   
1674250000  -1.9803   -85.747   -21.212    69.447   -21.753    69.645   -9.2105   -141.13   
1696500000  -2.3293   -89.246   -22.281    68.496   -22.563    67.298   -9.2749   -146.98   
1718750000  -2.2071   -91.997   -22.87    68.994   -22.957    68.276   -9.2232   -150.11   
1741000000  -2.1787   -97.979   -23.476    66.433   -23.422    65.491   -9.1222   -154.23   
1763250000  -2.1624   -101.42   -24.358    64.968   -24.441    64.042   -9.1524   -157.52   
1785500000  -2.0862   -105.88   -24.996    63.318   -25.174    63.87   -9.0391   -161   
1807750000  -2.8442   -112.7   -26.295    60.253   -25.849    59.742   -9.0026   -166.82   
1830000000  -2.5748   -114.13   -26.765    62.176   -26.283    58.424   -9.0354   -169.86   
1852250000  -2.0422   -118.78   -26.806    60.473   -27.022    58.491   -8.8315   -170.96   
1874500000  -2.1717   -122.15   -27.68    58.484   -28.013    58.258   -8.8252   -174.79   
1896750000  -2.1548   -126.32   -28.395    56.338   -28.484    59.334   -8.8328   -178.19   
1919000000  -2.4725   -132.42   -29.269    52.892   -28.492    56.225   -8.7936    177.79   
1941250000  -2.0485   -132.28   -29.379    53.562   -29.214    51.941   -8.8696    174.99   
1963500000  -1.668   -134.89   -29.572    50.125   -30.444    49.4   -8.9358    172.64   
1985750000  -2.0001   -140.24   -30.802    46.52   -31.53    48.862   -8.8377    168.6   
2008000000  -2.2082   -143.18   -31.784    45.481   -31.589    44.794   -8.9893    164.73   
2030250000  -2.0858   -146.82   -32.13    42.838   -31.572    41.445   -8.9199    162.01   
2052500000  -1.9705   -148.41   -32.577    39.223   -32.895    36.747   -9.0452    159.53   
2074750000  -1.7384   -151.98   -33.301    32.448   -34.296    31.925   -9.1163    156.72   
2097000000  -2.3727   -158.81   -34.735    22.666   -34.714    25.505   -8.9678    151.95   
2119250000  -2.7882   -160.88   -35.769    17.836   -34.793    18.024   -9.0741    147.64   
2141500000  -2.0783   -163.83   -35.376    9.8438   -35.12    7.8786   -9.1196    145.6   
2163750000  -1.6616   -168.02   -35.368   -3.9647   -36.085   -4.3808   -9.0659    141.71   
2186000000  -2.1631   -170.96   -36.206   -16.845   -37.065   -13.405   -9.2235    138.72   
2208250000  -2.6532   -175.24   -36.687   -27.239   -36.438   -22.886   -9.2249    135.2   
2230500000  -2.5781   -177.63   -36.326   -37.062   -35.332   -37.36   -9.3531    131.82   
2252750000  -1.7788    178.71   -34.92   -47.913   -35.137   -51.059   -9.5857    131.13   
2275000000  -1.9623    173.39   -34.254   -62.533   -34.977   -62.634   -9.5172    127.4   
2297250000  -2.543    172.83   -33.796   -69.766   -34.24   -69.696   -9.7152    121.9   
2319500000  -2.4865    169.5   -32.755   -77.241   -32.598   -74.507   -9.8314    119.02   
2341750000  -2.5216    165.38   -31.713   -84.082   -31.147   -82.864   -9.9207    115.1   
2364000000  -2.1862    162.87   -30.138   -90.338   -30.601   -93.794   -10.2    111.09   
2386250000  -2.663    157.95   -29.571   -98.777   -30.071   -99.446   -10.142    108.51   
2408500000  -3.2827    154.47   -29.624   -105.6   -28.788   -104.16   -10.173    103.69   
2430750000  -3.0918    151.53   -28.506   -107.65   -27.504   -108.33   -10.379    101.18   
2453000000  -2.7577    147.69   -26.987   -112.1   -26.735   -115.57   -10.355    99.165   
2475250000  -3.1256    144.18   -26.199   -118.32   -26.834   -121.3   -10.741    94.712   
2497500000  -3.5149    138.15   -25.874   -125.45   -26.185   -121.41   -10.845    91.27   
2519750000  -3.9962    134.13   -25.666   -129.13   -24.741   -124.65   -10.986    87.264   
2542000000  -3.5518    131.91   -24.227   -131.94   -23.788   -132.14   -11.315    83.806   
2564250000  -3.3103    126.23   -22.939   -138.79   -23.81   -138   -11.404    80.392   
2586500000  -4.1338    123.82   -22.945   -142.04   -23.556   -143.29   -11.672    76.615   
2608750000  -4.289    121.08   -22.551   -145.71   -22.683   -144.35   -11.919    73.044   
2631000000  -4.6567    116.39   -22.146   -149.63   -21.628   -148.66   -12.093    69.597   
2653250000  -4.8265    113.35   -21.332   -152.39   -21.313   -155.36   -12.37    66.087   
2675500000  -5.1706    108.41   -20.625   -158.16   -21.156   -160.19   -12.544    62.478   
2697750000  -6.0967    103.6   -20.557   -162.73   -20.68   -163.5   -12.617    57.748   
2720000000  -6.5185    100.14   -20.148   -166.51   -19.915   -166.82   -12.935    54.128   
2742250000  -6.8147    94.224   -19.5   -172.66   -19.224   -172.7   -13.077    50.677   
2764500000  -7.3486    89.765   -19.087   -177.48   -19.131   -179.61   -13.22    46.298   
2786750000  -7.9822    85.626   -18.665    177.41   -18.989    176.4   -13.518    43.282   
2809000000  -8.8794    82.246   -18.614    171.85   -18.567    174.86   -13.667    39.935   
2831250000  -9.6708    78.773   -18.27    168.86   -18.017    169.01   -13.861    35.745   
2853500000  -10.423    75.634   -17.689    164.5   -17.793    163.44   -14.053    32.513   
2875750000  -11.794    71.526   -17.314    159.27   -17.644    158.46   -14.239    28.628   
2898000000  -13.186    67.14   -17.139    153.01   -17.406    153.62   -14.511    24.975   
2920250000  -15.003    63.699   -17.064    147.42   -17.015    149.07   -14.672    21.101   
2942500000  -16.855    60.136   -16.871    143.44   -16.812    143.39   -14.725    16.368   
2964750000  -19.272    59.403   -16.648    138.4   -16.769    137.86   -14.865    12.302   
2987000000  -22.345    66.912   -16.615    133.55   -16.637    133.65   -14.904    9.3452   
3009250000  -25.506    90.786   -16.578    129.51   -16.437    129.54   -14.813    6.3103   
3031500000  -27.036    131.87   -16.524    124.84   -16.455    124.29   -15.053    2.2673   
3053750000  -22.666    164.38   -16.303    121.33   -16.353    120.13   -15.13   -.2485   
3076000000  -20.074    173.16   -16.199    115.71   -16.364    114.49   -15.2   -4.9562   
3098250000  -17.504    172.51   -16.241    109.56   -16.386    108.59   -15.159   -9.1818   
3120500000  -15.79    172.71   -16.433    104.64   -16.554    104.22   -15.141   -13.549   
3142750000  -14.558    171.25   -16.507    100.56   -16.602    101.72   -15.031   -17   
3165000000  -13.367    168.04   -16.483    96.522   -16.392    97.381   -14.918   -20.693   
3187250000  -12.309    163.61   -16.541    92.325   -16.389    91.623   -14.86   -23.853   
3209500000  -11.201    159.55   -16.699    88.039   -16.813    87.972   -14.741   -25.979   
3231750000  -10.448    156.41   -16.803    83.725   -17.141    83.412   -14.69   -30.965   
3254000000  -9.8136    154.03   -17    80.026   -17.064    79.64   -14.631   -35.502   
3276250000  -9.2782    150.06   -16.86    75.835   -16.862    75.894   -14.464   -39.151   
3298500000  -8.7386    145.21   -16.9    69.932   -16.986    69.785   -14.313   -42.796   
3320750000  -8.371    141.94   -17.217    65.432   -17.482    65.576   -14.096   -46.156   
3343000000  -7.9836    138.2   -17.521    62.099   -17.741    63.063   -13.85   -49.433   
3365250000  -7.7391    134.47   -17.735    59.73   -17.563    59.862   -13.685   -53.341   
3387500000  -7.1898    130.01   -17.567    56.599   -17.373    56.39   -13.571   -55.293   
3409750000  -6.743    125.57   -17.545    51.394   -17.758    50.396   -13.48   -59.811   
3432000000  -6.5736    122.04   -17.952    47.366   -18.402    47.339   -13.099   -62.82   
3454250000  -6.1468    119.73   -18.14    43.849   -18.418    45.272   -12.964   -66.313   
3476500000  -6.0947    114.97   -18.328    40.128   -18.228    42.046   -12.634   -69.789   
3498750000  -5.8583    111.81   -18.422    35.929   -18.387    35.932   -12.483   -73.376   
3521000000  -5.6662    107.48   -18.72    31.281   -18.945    31.863   -12.135   -76.387   
3543250000  -5.6433    103.25   -19.238    28.423   -19.237    29.384   -11.909   -79.346   
3565500000  -5.5101    99.307   -19.443    26.667   -19.144    27.221   -11.733   -82.581   
3587750000  -5.339    95.497   -19.472    24.086   -19.082    24.015   -11.516   -84.915   
3610000000  -5.2497    92.081   -19.589    20.472   -19.491    18.877   -11.385   -87.597   
3632250000  -4.995    87.641   -19.764    14.696   -19.978    14.679   -11.031   -92   
3654500000  -4.9865    83.923   -20.261    10.524   -20.151    11.942   -10.842   -95.681   
3676750000  -4.917    80.564   -20.632    7.7715   -20.332    8.4128   -10.596   -98.296   
3699000000  -4.8449    75.509   -20.947    3.988   -20.741    4.7626   -10.39   -101.35   
3721250000  -4.8081    71.586   -21.368    1.7619   -21.237    2.5859   -10.181   -104.59   
3743500000  -4.7328    68.393   -21.555    .1428   -21.387    1.6205   -10.114   -107.28   
3765750000  -4.6417    63.984   -21.66   -2.5859   -21.062   -2.7205   -9.903   -110.46   
3788000000  -4.5191    59.466   -21.761   -6.9434   -21.17   -8.9223   -9.651   -114.52   
3810250000  -4.4675    54.238   -22.112   -13.269   -22.016   -13.383   -9.299   -118.06   
3832500000  -4.3962    52.285   -22.726   -15.002   -23.204   -15.499   -9.3507   -119.59   
3854750000  -4.2306    48.505   -23.04   -16.334   -23.35   -15.775   -9.2925   -122.99   
3877000000  -4.2799    43.793   -23.487   -17.211   -23.052   -17.739   -9.0302   -125.25   
3899250000  -4.5212    39.548   -23.745   -19.63   -23.412   -22.083   -8.8948   -128.3   
3921500000  -4.3881    34.883   -23.911   -23.88   -24.239   -25.227   -8.8027   -130.57   
3943750000  -4.3599    29.847   -24.589   -27.664   -24.676   -27.033   -8.7274   -133.37   
3966000000  -4.3715    25.182   -25.119   -28.494   -24.681   -29.881   -8.6175   -136.5   
3988250000  -4.3477    19.417   -25.304   -30.447   -24.961   -35.993   -8.4188   -139.59   
4010500000  -4.4784    14.23   -25.595   -33.539   -26.203   -39.169   -8.2521   -142.5   
4032750000  -4.6148    9.7188   -26.242   -37.792   -27.228   -38.017   -8.23   -145.57   
4055000000  -4.8662    1.9556   -27.313   -38.493   -27.264   -37.619   -8.1055   -149.39   
4077250000  -5.1877   -1.9185   -27.886   -35.7   -27.109   -35.398   -8.1057   -150.86   
4099500000  -5.3854   -8.7286   -27.573   -35.397   -27.47   -33.787   -8.0415   -151.85   
4121750000  -6.1037   -14.98   -27.654   -35.031   -28.274   -36.27   -7.9581   -155.06   
4144000000  -6.9328   -19.657   -28.001   -31.463   -28.811   -33.354   -7.9864   -159.16   
4166250000  -7.7127   -25.867   -28.295   -30.167   -28.572   -28.624   -8.016   -161.61   
4188500000  -9.2839   -28.087   -27.876   -29.144   -27.739   -27.889   -7.8396   -163.01   
4210750000  -11.097   -27.341   -27.091   -28.077   -27.131   -29.209   -7.8025   -165.03   
4233000000  -13.036   -19.247   -26.039   -32.458   -26.419   -33.198   -7.7498   -168.49   
4255250000  -13.443   -3.149   -25.687   -38.662   -25.905   -37.948   -7.7652   -171.01   
4277500000  -12.377    8.6366   -25.67   -44.257   -25.56   -42.979   -7.7847   -172.86   
4299750000  -10.798    12.128   -25.604   -48.417   -25.262   -49.227   -7.7444   -175   
4322000000  -9.5431    11.621   -25.251   -52.903   -25.332   -56.18   -7.7927   -177.5   
4344250000  -8.1983    8.1519   -24.775   -61.256   -25.479   -62.794   -7.89   -179.9   
4366500000  -7.305    3.8562   -25.082   -69.384   -25.631   -67.03   -7.8173    177.67   
4388750000  -6.6499    .0164   -25.745   -74.855   -25.884   -72.236   -7.7956    175.57   
4411000000  -6.1093   -4.389   -26.116   -79.251   -26.132   -78.648   -7.7579    173.4   
4433250000  -5.7676   -8.73   -26.35   -83.231   -26.647   -84.316   -7.7742    171.36   
4455500000  -5.4554   -13.618   -26.552   -88.072   -27.026   -87.12   -7.8423    169.83   
4477750000  -5.2331   -17.729   -26.812   -92.557   -26.837   -90.485   -7.9024    167.63   
4500000000  -4.8264   -19.652   -26.765   -96.233   -26.867   -95.683   -7.9829    166.54   

