CITIFILE A.01.00
#NA VERSION HP8722ES.07.74: Oct 30, 2002
NAME FORMATTED
VAR FREQ MAG 201
DATA S[1,1] RI
DATA S[2,1] RI
DATA S[1,2] RI
DATA S[2,2] RI
SEG_LIST_BEGIN
SEG 50000000 4500000000 201
SEG_LIST_END
BEGIN
9.89715E-1,-1.28692E-1
9.77172E-1,-1.53930E-1
9.79644E-1,-1.83898E-1
9.75738E-1,-2.27874E-1
9.63867E-1,-2.76001E-1
9.67926E-1,-3.46038E-1
9.487E-1,-4.02893E-1
9.26361E-1,-4.32891E-1
9.07745E-1,-4.80590E-1
8.63983E-1,-5.25726E-1
8.25073E-1,-5.63629E-1
7.86621E-1,-5.98083E-1
7.42828E-1,-6.22100E-1
7.06512E-1,-6.64154E-1
6.54541E-1,-7.16369E-1
6.12335E-1,-7.51831E-1
5.83709E-1,-7.99774E-1
5.39764E-1,-8.33190E-1
4.99450E-1,-8.68652E-1
4.50927E-1,-9.08233E-1
4.07806E-1,-9.21112E-1
3.69720E-1,-9.38140E-1
3.22235E-1,-9.54620E-1
2.65411E-1,-9.57214E-1
2.15637E-1,-9.62768E-1
1.66687E-1,-9.52301E-1
1.19384E-1,-9.53857E-1
0.61096E-1,-9.61456E-1
0.08026E-1,-9.58770E-1
-3.96118E-2,-9.55383E-1
-8.99047E-2,-9.50225E-1
-1.42700E-1,-9.49737E-1
-2.03613E-1,-9.55810E-1
-2.44232E-1,-9.47143E-1
-2.64434E-1,-9.40338E-1
-3.05267E-1,-9.30603E-1
-3.45184E-1,-9.12689E-1
-3.84460E-1,-8.95477E-1
-4.16687E-1,-8.64013E-1
-4.40429E-1,-8.39325E-1
-4.86022E-1,-8.17718E-1
-5.39886E-1,-7.87078E-1
-5.77453E-1,-7.57965E-1
-6.12762E-1,-7.20764E-1
-6.46911E-1,-6.93237E-1
-6.90033E-1,-6.87439E-1
-7.26562E-1,-6.62811E-1
-7.43347E-1,-6.25274E-1
-7.64373E-1,-5.91033E-1
-7.86010E-1,-5.60485E-1
-8.13507E-1,-5.39398E-1
-8.31878E-1,-4.99511E-1
-8.33587E-1,-4.50500E-1
-8.49517E-1,-4.12719E-1
-8.73260E-1,-3.74450E-1
-8.91357E-1,-3.37524E-1
-9.08477E-1,-2.93975E-1
-9.17205E-1,-2.49542E-1
-9.35485E-1,-2.12860E-1
-9.56085E-1,-1.6745E-1
-9.61822E-1,-1.28265E-1
-9.71191E-1,-9.29870E-2
-9.76104E-1,-5.40466E-2
-9.81475E-1,-2.61840E-2
-9.83367E-1,0.11657E-1
-9.65332E-1,0.55389E-1
-9.52850E-1,0.91827E-1
-9.47204E-1,1.34826E-1
-9.42169E-1,1.76483E-1
-9.32251E-1,2.22991E-1
-9.09179E-1,2.75116E-1
-8.96698E-1,3.13140E-1
-8.95477E-1,3.50860E-1
-8.83239E-1,3.89587E-1
-8.67340E-1,4.28649E-1
-8.42926E-1,4.66827E-1
-8.24371E-1,4.83520E-1
-8.16406E-1,5.08972E-1
-7.89672E-1,5.42511E-1
-7.62756E-1,5.70831E-1
-7.36450E-1,5.99273E-1
-7.07702E-1,6.15295E-1
-6.78649E-1,6.43158E-1
-6.39099E-1,6.89788E-1
-5.95794E-1,7.22015E-1
-5.65033E-1,7.50427E-1
-5.29266E-1,7.79388E-1
-4.94079E-1,8.10424E-1
-4.51477E-1,8.48907E-1
-4.15771E-1,8.63494E-1
-3.92730E-1,8.74145E-1
-3.52996E-1,8.90838E-1
-3.01574E-1,9.04174E-1
-2.58422E-1,9.16534E-1
-2.21679E-1,9.16137E-1
-1.89788E-1,9.17755E-1
-1.33911E-1,9.29657E-1
-7.32421E-2,9.32403E-1
-3.19824E-2,9.36035E-1
0.04852E-1,9.37774E-1
0.50994E-1,9.36462E-1
1.18469E-1,9.42504E-1
1.72668E-1,9.38507E-1
1.95800E-1,9.29962E-1
2.28668E-1,9.27948E-1
2.75482E-1,9.18945E-1
3.19000E-1,9.03900E-1
3.55682E-1,8.82019E-1
3.73474E-1,8.57574E-1
4.17877E-1,8.32855E-1
4.81445E-1,7.96508E-1
5.26733E-1,7.67730E-1
5.64849E-1,7.36022E-1
5.99975E-1,7.04315E-1
6.42974E-1,6.79107E-1
6.88690E-1,6.44836E-1
7.12097E-1,6.15417E-1
7.31842E-1,5.96313E-1
7.59765E-1,5.55206E-1
7.87017E-1,5.14434E-1
8.12744E-1,4.70977E-1
8.20037E-1,4.22729E-1
8.34137E-1,3.80310E-1
8.57910E-1,3.29193E-1
8.72711E-1,2.73742E-1
8.81683E-1,2.23358E-1
8.84643E-1,1.70288E-1
8.96118E-1,1.18866E-1
9.19647E-1,0.58410E-1
9.24438E-1,0.06195E-1
9.19677E-1,-3.51867E-2
9.16381E-1,-8.37097E-2
9.13848E-1,-1.31134E-1
9.10675E-1,-1.80969E-1
8.93035E-1,-2.26837E-1
8.72406E-1,-2.64679E-1
8.53424E-1,-3.14849E-1
8.32611E-1,-3.71093E-1
8.09661E-1,-4.18792E-1
7.81585E-1,-4.63226E-1
7.53082E-1,-5.04333E-1
7.22076E-1,-5.55450E-1
6.85485E-1,-5.99426E-1
6.52526E-1,-6.34796E-1
6.17889E-1,-6.70959E-1
5.82458E-1,-7.07000E-1
5.47302E-1,-7.46276E-1
5.07293E-1,-7.72644E-1
4.71618E-1,-7.82470E-1
4.32678E-1,-8.01879E-1
3.87207E-1,-8.22723E-1
3.43292E-1,-8.40850E-1
2.92755E-1,-8.50036E-1
2.44537E-1,-8.52050E-1
1.96991E-1,-8.67950E-1
1.43981E-1,-8.85498E-1
0.98571E-1,-8.92730E-1
0.56854E-1,-8.99169E-1
0.11535E-1,-9.00909E-1
-3.00293E-2,-9.07104E-1
-7.54394E-2,-9.08905E-1
-1.16149E-1,-9.02526E-1
-1.56097E-1,-8.97460E-1
-2.02850E-1,-8.88122E-1
-2.47314E-1,-8.75427E-1
-2.86682E-1,-8.62487E-1
-3.22296E-1,-8.45428E-1
-3.60992E-1,-8.27026E-1
-4.05120E-1,-8.04321E-1
-4.43878E-1,-7.80487E-1
-4.79980E-1,-7.60314E-1
-5.15197E-1,-7.36877E-1
-5.49163E-1,-7.14904E-1
-5.86273E-1,-6.89147E-1
-6.14227E-1,-6.62841E-1
-6.37054E-1,-6.39343E-1
-6.63299E-1,-6.10717E-1
-6.85546E-1,-5.78216E-1
-7.09075E-1,-5.46752E-1
-7.28912E-1,-5.06897E-1
-7.46704E-1,-4.73541E-1
-7.73895E-1,-4.42443E-1
-7.97454E-1,-4.08233E-1
-8.13110E-1,-3.76647E-1
-8.27911E-1,-3.44757E-1
-8.41796E-1,-3.10791E-1
-8.59008E-1,-2.79937E-1
-8.73504E-1,-2.44110E-1
-8.81713E-1,-2.08862E-1
-8.89099E-1,-1.72882E-1
-8.92059E-1,-1.36535E-1
-8.95996E-1,-1.01013E-1
-8.98590E-1,-6.43615E-2
-8.99261E-1,-2.89001E-2
-8.98834E-1,0.06835E-1
-8.92425E-1,0.4422E-1
-8.87420E-1,0.79895E-1
-8.86077E-1,1.18377E-1
-8.82476E-1,1.52313E-1
-8.76800E-1,1.78558E-1
-8.71795E-1,1.99554E-1
END
BEGIN
-4.95371E1,0E0
-4.98554E1,0E0
-4.99042E1,0E0
-4.96484E1,0E0
-4.95332E1,0E0
-4.84804E1,0E0
-4.73281E1,0E0
-4.67363E1,0E0
-4.58281E1,0E0
-4.52773E1,0E0
-4.49257E1,0E0
-4.42753E1,0E0
-4.37910E1,0E0
-4.32207E1,0E0
-4.27929E1,0E0
-4.23007E1,0E0
-4.14765E1,0E0
-4.08828E1,0E0
-4.05136E1,0E0
-4.01621E1,0E0
-3.97304E1,0E0
-3.92011E1,0E0
-3.89453E1,0E0
-3.89199E1,0E0
-3.87226E1,0E0
-3.84609E1,0E0
-3.81054E1,0E0
-3.78632E1,0E0
-3.77441E1,0E0
-3.75585E1,0E0
-3.73027E1,0E0
-3.69863E1,0E0
-3.67070E1,0E0
-3.65605E1,0E0
-3.64003E1,0E0
-3.61464E1,0E0
-3.59472E1,0E0
-3.57851E1,0E0
-3.57792E1,0E0
-3.56835E1,0E0
-3.54550E1,0E0
-3.53027E1,0E0
-3.51738E1,0E0
-3.50722E1,0E0
-3.48945E1,0E0
-3.45312E1,0E0
-3.43476E1,0E0
-3.43613E1,0E0
-3.42519E1,0E0
-3.40410E1,0E0
-3.37402E1,0E0
-3.36738E1,0E0
-3.37675E1,0E0
-3.36445E1,0E0
-3.34257E1,0E0
-3.32890E1,0E0
-3.32617E1,0E0
-3.32656E1,0E0
-3.29980E1,0E0
-3.26699E1,0E0
-3.25234E1,0E0
-3.24667E1,0E0
-3.24375E1,0E0
-3.21972E1,0E0
-3.18613E1,0E0
-3.19746E1,0E0
-3.21425E1,0E0
-3.20488E1,0E0
-3.17441E1,0E0
-3.14511E1,0E0
-3.14619E1,0E0
-3.14814E1,0E0
-3.11347E1,0E0
-3.07705E1,0E0
-3.05917E1,0E0
-3.05742E1,0E0
-3.05214E1,0E0
-3.02724E1,0E0
-3.01474E1,0E0
-3.00888E1,0E0
-3.00214E1,0E0
-2.99326E1,0E0
-2.96914E1,0E0
-2.95205E1,0E0
-2.95107E1,0E0
-2.93964E1,0E0
-2.91845E1,0E0
-2.89326E1,0E0
-2.87265E1,0E0
-2.87099E1,0E0
-2.85400E1,0E0
-2.82431E1,0E0
-2.80361E1,0E0
-2.80019E1,0E0
-2.80380E1,0E0
-2.79599E1,0E0
-2.77685E1,0E0
-2.77041E1,0E0
-2.76669E1,0E0
-2.76005E1,0E0
-2.74228E1,0E0
-2.71015E1,0E0
-2.69482E1,0E0
-2.69765E1,0E0
-2.69033E1,0E0
-2.67294E1,0E0
-2.65380E1,0E0
-2.65068E1,0E0
-2.66699E1,0E0
-2.65986E1,0E0
-2.63408E1,0E0
-2.61728E1,0E0
-2.62412E1,0E0
-2.63554E1,0E0
-2.62041E1,0E0
-2.59316E1,0E0
-2.58173E1,0E0
-2.57695E1,0E0
-2.57529E1,0E0
-2.56201E1,0E0
-2.54599E1,0E0
-2.56445E1,0E0
-2.58193E1,0E0
-2.58466E1,0E0
-2.57421E1,0E0
-2.56464E1,0E0
-2.56660E1,0E0
-2.56425E1,0E0
-2.53496E1,0E0
-2.52099E1,0E0
-2.52587E1,0E0
-2.54091E1,0E0
-2.53818E1,0E0
-2.51904E1,0E0
-2.51083E1,0E0
-2.51816E1,0E0
-2.51943E1,0E0
-2.51191E1,0E0
-2.49687E1,0E0
-2.50126E1,0E0
-2.51406E1,0E0
-2.50957E1,0E0
-2.49179E1,0E0
-2.47001E1,0E0
-2.46113E1,0E0
-2.46484E1,0E0
-2.45576E1,0E0
-2.45058E1,0E0
-2.45380E1,0E0
-2.46298E1,0E0
-2.47539E1,0E0
-2.47451E1,0E0
-2.46982E1,0E0
-2.47744E1,0E0
-2.48525E1,0E0
-2.49599E1,0E0
-2.49638E1,0E0
-2.48349E1,0E0
-2.47783E1,0E0
-2.47363E1,0E0
-2.47197E1,0E0
-2.47158E1,0E0
-2.47119E1,0E0
-2.48105E1,0E0
-2.49570E1,0E0
-2.49834E1,0E0
-2.50136E1,0E0
-2.50449E1,0E0
-2.50625E1,0E0
-2.50878E1,0E0
-2.50283E1,0E0
-2.50039E1,0E0
-2.51123E1,0E0
-2.51972E1,0E0
-2.51845E1,0E0
-2.50634E1,0E0
-2.49951E1,0E0
-2.51562E1,0E0
-2.53564E1,0E0
-2.55117E1,0E0
-2.54589E1,0E0
-2.53378E1,0E0
-2.54072E1,0E0
-2.55146E1,0E0
-2.54296E1,0E0
-2.52529E1,0E0
-2.51210E1,0E0
-2.53125E1,0E0
-2.55283E1,0E0
-2.55351E1,0E0
-2.53984E1,0E0
-2.53125E1,0E0
-2.53613E1,0E0
-2.54199E1,0E0
-2.53564E1,0E0
-2.53378E1,0E0
-2.53603E1,0E0
-2.54111E1,0E0
-2.54560E1,0E0
-2.54453E1,0E0
-2.53730E1,0E0
END
BEGIN
-5.36367E1,0E0
-5.25820E1,0E0
-5.14003E1,0E0
-5.01953E1,0E0
-4.8875E1,0E0
-4.75742E1,0E0
-4.67148E1,0E0
-4.62089E1,0E0
-4.56660E1,0E0
-4.51718E1,0E0
-4.45996E1,0E0
-4.39921E1,0E0
-4.36132E1,0E0
-4.29902E1,0E0
-4.22949E1,0E0
-4.17734E1,0E0
-4.11640E1,0E0
-4.06523E1,0E0
-4.03906E1,0E0
-4.00371E1,0E0
-3.97675E1,0E0
-3.94863E1,0E0
-3.91464E1,0E0
-3.89863E1,0E0
-3.87714E1,0E0
-3.84101E1,0E0
-3.80800E1,0E0
-3.75898E1,0E0
-3.73671E1,0E0
-3.71152E1,0E0
-3.67480E1,0E0
-3.64648E1,0E0
-3.62070E1,0E0
-3.61210E1,0E0
-3.62421E1,0E0
-3.60117E1,0E0
-3.59023E1,0E0
-3.58730E1,0E0
-3.57402E1,0E0
-3.56074E1,0E0
-3.53535E1,0E0
-3.51582E1,0E0
-3.50195E1,0E0
-3.47558E1,0E0
-3.45625E1,0E0
-3.44824E1,0E0
-3.43710E1,0E0
-3.42558E1,0E0
-3.40390E1,0E0
-3.39277E1,0E0
-3.39355E1,0E0
-3.38574E1,0E0
-3.36816E1,0E0
-3.34707E1,0E0
-3.33183E1,0E0
-3.33105E1,0E0
-3.32070E1,0E0
-3.29394E1,0E0
-3.27128E1,0E0
-3.26074E1,0E0
-3.2625E1,0E0
-3.25E1,0E0
-3.22441E1,0E0
-3.21171E1,0E0
-3.21210E1,0E0
-3.20468E1,0E0
-3.18642E1,0E0
-3.1583E1,0E0
-3.14326E1,0E0
-3.13378E1,0E0
-3.10732E1,0E0
-3.08964E1,0E0
-3.07480E1,0E0
-3.06669E1,0E0
-3.06162E1,0E0
-3.04765E1,0E0
-3.04746E1,0E0
-3.05849E1,0E0
-3.04824E1,0E0
-3.03642E1,0E0
-3.01425E1,0E0
-3.00117E1,0E0
-2.99755E1,0E0
-2.97148E1,0E0
-2.93847E1,0E0
-2.92236E1,0E0
-2.91152E1,0E0
-2.91181E1,0E0
-2.90048E1,0E0
-2.87656E1,0E0
-2.86201E1,0E0
-2.85546E1,0E0
-2.84472E1,0E0
-2.82812E1,0E0
-2.79804E1,0E0
-2.77998E1,0E0
-2.77763E1,0E0
-2.77109E1,0E0
-2.76064E1,0E0
-2.73847E1,0E0
-2.72294E1,0E0
-2.73027E1,0E0
-2.72529E1,0E0
-2.70449E1,0E0
-2.68427E1,0E0
-2.67158E1,0E0
-2.67666E1,0E0
-2.66494E1,0E0
-2.63173E1,0E0
-2.61611E1,0E0
-2.61337E1,0E0
-2.61601E1,0E0
-2.60439E1,0E0
-2.58056E1,0E0
-2.58730E1,0E0
-2.60468E1,0E0
-2.60009E1,0E0
-2.58593E1,0E0
-2.56748E1,0E0
-2.57177E1,0E0
-2.58447E1,0E0
-2.57119E1,0E0
-2.55478E1,0E0
-2.55742E1,0E0
-2.56455E1,0E0
-2.56884E1,0E0
-2.54882E1,0E0
-2.53095E1,0E0
-2.53544E1,0E0
-2.53935E1,0E0
-2.52275E1,0E0
-2.50898E1,0E0
-2.50351E1,0E0
-2.51279E1,0E0
-2.50185E1,0E0
-2.47353E1,0E0
-2.45976E1,0E0
-2.47119E1,0E0
-2.47880E1,0E0
-2.47070E1,0E0
-2.44609E1,0E0
-2.45136E1,0E0
-2.47373E1,0E0
-2.48007E1,0E0
-2.46152E1,0E0
-2.44697E1,0E0
-2.45966E1,0E0
-2.48574E1,0E0
-2.48505E1,0E0
-2.46894E1,0E0
-2.46601E1,0E0
-2.48535E1,0E0
-2.50117E1,0E0
-2.48964E1,0E0
-2.47763E1,0E0
-2.49042E1,0E0
-2.51416E1,0E0
-2.52626E1,0E0
-2.52050E1,0E0
-2.51572E1,0E0
-2.52822E1,0E0
-2.53759E1,0E0
-2.52978E1,0E0
-2.52451E1,0E0
-2.53515E1,0E0
-2.55283E1,0E0
-2.55214E1,0E0
-2.53994E1,0E0
-2.54121E1,0E0
-2.55478E1,0E0
-2.55878E1,0E0
-2.54189E1,0E0
-2.52431E1,0E0
-2.53574E1,0E0
-2.55634E1,0E0
-2.55380E1,0E0
-2.53007E1,0E0
-2.51308E1,0E0
-2.51611E1,0E0
-2.52480E1,0E0
-2.51660E1,0E0
-2.49912E1,0E0
-2.49628E1,0E0
-2.51347E1,0E0
-2.52685E1,0E0
-2.52099E1,0E0
-2.50976E1,0E0
-2.50673E1,0E0
-2.51123E1,0E0
-2.51640E1,0E0
-2.51347E1,0E0
-2.50791E1,0E0
-2.51201E1,0E0
-2.51542E1,0E0
-2.50986E1,0E0
-2.50126E1,0E0
-2.49921E1,0E0
-2.50429E1,0E0
-2.51054E1,0E0
-2.51386E1,0E0
-2.51894E1,0E0
END
BEGIN
9.98748E-1,-1.29364E-1
9.89563E-1,-1.58386E-1
9.92614E-1,-1.87103E-1
9.90387E-1,-2.29980E-1
9.79736E-1,-2.80334E-1
9.86755E-1,-3.53027E-1
9.67224E-1,-4.11224E-1
9.32251E-1,-4.36279E-1
9.10491E-1,-4.81536E-1
8.67431E-1,-5.33508E-1
8.26293E-1,-5.73883E-1
7.86712E-1,-6.18499E-1
7.34619E-1,-6.53808E-1
6.94519E-1,-7.04223E-1
6.35864E-1,-7.75604E-1
5.92254E-1,-8.09936E-1
5.58898E-1,-8.48114E-1
5.13519E-1,-8.80859E-1
4.68505E-1,-9.01336E-1
4.23370E-1,-9.27276E-1
3.79394E-1,-9.31945E-1
3.49273E-1,-9.28192E-1
3.02215E-1,-9.46228E-1
2.48413E-1,-9.52087E-1
1.99646E-1,-9.62524E-1
1.47216E-1,-9.71252E-1
0.98754E-1,-9.75585E-1
0.45043E-1,-1.00848E0
-8.78906E-3,-1.01800E0
-5.43212E-2,-1.01007E0
-1.01623E-1,-1.00610E0
-1.51367E-1,-1.00817E0
-2.06237E-1,-1.01330E0
-2.47345E-1,-9.98718E-1
-2.7005E-1,-9.5047E-1
-3.08685E-1,-9.31427E-1
-3.53241E-1,-9.15771E-1
-3.95019E-1,-8.98071E-1
-4.34936E-1,-8.68530E-1
-4.61425E-1,-8.31878E-1
-5.03509E-1,-8.15033E-1
-5.54779E-1,-7.99469E-1
-5.94818E-1,-7.74993E-1
-6.43615E-1,-7.46063E-1
-6.78039E-1,-7.17285E-1
-6.97235E-1,-6.98577E-1
-7.27356E-1,-6.74743E-1
-7.52655E-1,-6.37023E-1
-7.76519E-1,-6.04034E-1
-7.94860E-1,-5.66772E-1
-8.01788E-1,-5.38635E-1
-8.24005E-1,-5.00518E-1
-8.49273E-1,-4.46167E-1
-8.66912E-1,-4.06890E-1
-8.90075E-1,-3.73840E-1
-9.07714E-1,-3.35754E-1
-9.24957E-1,-3.02124E-1
-9.4104E-1,-2.61840E-1
-9.43908E-1,-2.31536E-1
-9.52331E-1,-2.06390E-1
-9.58190E-1,-1.63665E-1
-9.58618E-1,-1.22772E-1
-9.60723E-1,-8.28552E-2
-9.54620E-1,-4.32128E-2
-9.52514E-1,-3.66210E-3
-9.55841E-1,0.65643E-1
-9.53857E-1,1.21551E-1
-9.51660E-1,1.60186E-1
-9.49951E-1,2.01019E-1
-9.50500E-1,2.39410E-1
-9.59259E-1,2.87078E-1
-9.47326E-1,3.25317E-1
-9.37713E-1,3.37249E-1
-9.24316E-1,3.66210E-1
-9.07897E-1,4.00695E-1
-8.88214E-1,4.35424E-1
-8.47869E-1,4.72442E-1
-8.05084E-1,4.99176E-1
-7.84729E-1,5.36254E-1
-7.57965E-1,5.73516E-1
-7.31384E-1,6.07482E-1
-6.94549E-1,6.44378E-1
-6.64733E-1,6.73919E-1
-6.58935E-1,7.02697E-1
-6.39221E-1,7.36145E-1
-6.03820E-1,7.58667E-1
-5.71868E-1,7.82348E-1
-5.41900E-1,7.98034E-1
-5.21667E-1,8.11187E-1
-4.80835E-1,8.33709E-1
-4.25537E-1,8.49395E-1
-3.85742E-1,8.65264E-1
-3.48510E-1,8.86810E-1
-3.07037E-1,9.01733E-1
-2.58087E-1,9.21630E-1
-2.04956E-1,9.36035E-1
-1.78802E-1,9.44702E-1
-1.51825E-1,9.62127E-1
-1.07910E-1,9.63653E-1
-6.67114E-2,9.61456E-1
-2.34680E-2,9.60632E-1
0.11871E-1,9.52667E-1
0.51849E-1,9.50439E-1
1.19323E-1,9.36737E-1
1.75659E-1,9.17877E-1
2.19696E-1,9.14764E-1
2.65777E-1,9.02832E-1
3.10760E-1,8.91784E-1
3.63464E-1,8.79516E-1
4.04571E-1,8.59710E-1
4.31335E-1,8.49090E-1
4.68200E-1,8.29254E-1
5.07232E-1,7.98309E-1
5.46020E-1,7.71240E-1
5.73028E-1,7.39318E-1
5.95794E-1,7.12005E-1
6.34338E-1,6.76452E-1
6.69036E-1,6.31988E-1
7.00561E-1,5.95245E-1
7.33032E-1,5.54107E-1
7.60070E-1,5.14587E-1
7.97393E-1,4.79003E-1
8.29193E-1,4.32556E-1
8.44940E-1,3.94683E-1
8.65509E-1,3.56811E-1
8.80157E-1,3.12042E-1
8.92791E-1,2.71087E-1
9.0271E-1,2.20031E-1
9.01733E-1,1.64642E-1
9.08050E-1,1.14837E-1
9.21325E-1,0.58685E-1
9.22943E-1,0.05828E-1
9.23461E-1,-4.34265E-2
9.17846E-1,-9.45739E-2
9.16198E-1,-1.45507E-1
9.14093E-1,-2.00195E-1
9.00238E-1,-2.47436E-1
8.80371E-1,-2.90924E-1
8.61785E-1,-3.36822E-1
8.41552E-1,-3.81652E-1
8.19061E-1,-4.27185E-1
7.86621E-1,-4.65637E-1
7.57263E-1,-4.99939E-1
7.26532E-1,-5.42999E-1
6.91375E-1,-5.82061E-1
6.54388E-1,-6.18316E-1
6.10321E-1,-6.53442E-1
5.74981E-1,-6.85699E-1
5.43090E-1,-7.19848E-1
5.0354E-1,-7.49664E-1
4.64202E-1,-7.72094E-1
4.23278E-1,-7.96508E-1
3.83087E-1,-8.17993E-1
3.46679E-1,-8.41186E-1
2.97729E-1,-8.58520E-1
2.48413E-1,-8.68835E-1
2.02819E-1,-8.80737E-1
1.5625E-1,-8.91113E-1
1.09436E-1,-8.97796E-1
0.61035E-1,-9.03411E-1
0.13763E-1,-9.04083E-1
-3.00598E-2,-9.05426E-1
-7.65075E-2,-9.04663E-1
-1.21429E-1,-8.98040E-1
-1.65985E-1,-8.91632E-1
-2.13256E-1,-8.84368E-1
-2.6297E-1,-8.79058E-1
-3.05206E-1,-8.65661E-1
-3.44482E-1,-8.44238E-1
-3.82415E-1,-8.26599E-1
-4.23919E-1,-8.08868E-1
-4.62280E-1,-7.88787E-1
-4.95758E-1,-7.64160E-1
-5.21575E-1,-7.32635E-1
-5.54809E-1,-7.08679E-1
-5.90850E-1,-6.88079E-1
-6.23626E-1,-6.59484E-1
-6.54937E-1,-6.27594E-1
-6.83349E-1,-5.95977E-1
-7.03735E-1,-5.70373E-1
-7.27844E-1,-5.43609E-1
-7.52319E-1,-5.05249E-1
-7.71423E-1,-4.66613E-1
-7.89642E-1,-4.33898E-1
-8.03405E-1,-4.04296E-1
-8.20312E-1,-3.69232E-1
-8.40972E-1,-3.25439E-1
-8.55194E-1,-2.84515E-1
-8.67126E-1,-2.51953E-1
-8.78295E-1,-2.16918E-1
-8.85925E-1,-1.78436E-1
-8.93524E-1,-1.37542E-1
-8.97094E-1,-9.97314E-2
-9.00634E-1,-6.46362E-2
-9.02618E-1,-2.71606E-2
-9.01306E-1,0.09704E-1
-8.99810E-1,0.46417E-1
-8.96911E-1,0.81970E-1
-8.92303E-1,1.11267E-1
-8.88641E-1,1.35070E-1
-8.84277E-1,1.54632E-1
END

