! Network Analyzer HP8722ES.07.74: Oct 30, 2002 Serial No. US39175660
! Hewlett-Packard
! 30 May 2012  16:24:00
! Frequency       S11                S21                S12                S22
# HZ  S  RI R  50 
50000000  1.01049E0 -1.14013E-1  -2.49707E-3 3.22938E-3  1.27875E-3 -1.12068E-3  1.00714E0 -1.10290E-1  
72250000  9.20471E-1 -2.85644E-2  -2.08592E-3 0.84829E-3  -3.50952E-4 2.04384E-3  9.28466E-1 -1.56860E-2  
94500000  9.57397E-1 -1.47705E-1  -4.16398E-4 2.01976E-3  0.79E-3 2.61235E-3  9.61975E-1 -1.47949E-1  
116750000  1.00854E0 -2.68493E-1  1.21808E-3 3.35121E-3  -1.23655E-3 3.34823E-3  1.07305E0 -3.00048E-1  
139000000  9.22699E-1 -2.90588E-1  0.93483E-3 3.01432E-3  -3.57627E-6 3.97920E-3  9.43115E-1 -3.13110E-1  
161250000  1.02795E0 -3.23547E-1  0.95176E-3 3.80611E-3  0.78392E-3 4.33397E-3  1.02862E0 -3.11157E-1  
183500000  9.83276E-1 -4.21752E-1  2.22325E-3 4.50277E-3  1.82628E-3 4.10437E-3  9.91821E-1 -4.09973E-1  
205750000  9.27581E-1 -4.50836E-1  1.78742E-3 4.10270E-3  1.66678E-3 4.63843E-3  9.33075E-1 -4.62432E-1  
228000000  9.49096E-1 -5.18676E-1  1.70564E-3 4.97770E-3  2.01892E-3 5.55801E-3  9.77722E-1 -5.24292E-1  
250250000  8.23181E-1 -5.45501E-1  2.78377E-3 4.41646E-3  1.95097E-3 5.09834E-3  8.2547E-1 -5.55328E-1  
272500000  8.52050E-1 -4.78210E-1  2.43711E-3 5.20324E-3  2.19869E-3 4.89234E-3  8.28491E-1 -4.75189E-1  
294750000  7.92846E-1 -6.24298E-1  3.33929E-3 5.65004E-3  3.44181E-3 5.10740E-3  7.90771E-1 -6.29760E-1  
317000000  7.21771E-1 -6.39251E-1  3.25059E-3 5.18083E-3  3.64399E-3 5.46217E-3  7.27569E-1 -6.74652E-1  
339250000  7.10998E-1 -6.86828E-1  3.69930E-3 5.54657E-3  3.65924E-3 6.11400E-3  7.03979E-1 -6.92443E-1  
361500000  6.58752E-1 -6.91772E-1  4.68349E-3 5.93137E-3  4.88233E-3 6.38628E-3  6.56189E-1 -7.74475E-1  
383750000  6.42669E-1 -6.86401E-1  4.67634E-3 6.20460E-3  5.24234E-3 6.07776E-3  6.13311E-1 -7.71270E-1  
406000000  5.69305E-1 -8.39752E-1  5.85079E-3 5.84840E-3  6.90650E-3 5.79023E-3  5.45135E-1 -9.07928E-1  
428250000  4.88433E-1 -8.43292E-1  6.06679E-3 5.38349E-3  7.60555E-3 5.52702E-3  4.17968E-1 -9.74700E-1  
450500000  4.97375E-1 -8.72497E-1  7.32708E-3 6.43014E-3  6.83736E-3 6.40726E-3  4.85748E-1 -8.69659E-1  
472750000  5.21728E-1 -9.74792E-1  8.94832E-3 7.82203E-3  8.01515E-3 7.12966E-3  4.94354E-1 -9.41864E-1  
495000000  4.03747E-1 -9.20654E-1  8.72039E-3 6.30092E-3  8.62884E-3 6.43634E-3  3.86474E-1 -9.21630E-1  
517250000  3.7677E-1 -9.39758E-1  8.17680E-3 6.07299E-3  7.50351E-3 6.51073E-3  3.41064E-1 -9.17602E-1  
539500000  3.03100E-1 -9.63317E-1  8.59165E-3 5.70869E-3  8.56494E-3 6.35433E-3  2.97607E-1 -9.52697E-1  
561750000  2.67761E-1 -9.29626E-1  9.96351E-3 6.13355E-3  9.41705E-3 6.06012E-3  2.37335E-1 -9.40429E-1  
584000000  2.22045E-1 -9.62371E-1  1.09720E-2 5.83267E-3  1.04684E-2 5.42259E-3  2.07489E-1 -9.48059E-1  
606250000  1.65100E-1 -9.87609E-1  1.08509E-2 5.10788E-3  1.11894E-2 5.17845E-3  1.56372E-1 -9.95849E-1  
628500000  1.24023E-1 -9.92492E-1  1.10445E-2 4.99534E-3  1.10626E-2 5.15556E-3  1.18042E-1 -9.82666E-1  
650750000  0.55542E-1 -9.59350E-1  1.18928E-2 4.18424E-3  1.17921E-2 4.96769E-3  0.44982E-1 -9.94628E-1  
673000000  0.34240E-1 -8.66272E-1  1.18598E-2 4.19902E-3  1.26991E-2 3.92723E-3  -2.57568E-2 -9.78759E-1  
695250000  -2.78320E-2 -9.73938E-1  1.32188E-2 3.75270E-3  1.34735E-2 3.46946E-3  -4.13513E-2 -9.82818E-1  
717500000  -1.40075E-1 -9.82605E-1  1.40290E-2 2.36177E-3  1.63936E-2 0.28038E-2  -1.38244E-1 -1.17047E0  
739750000  -1.49261E-1 -9.43328E-1  1.34635E-2 2.41994E-3  1.38735E-2 2.53534E-3  -1.69006E-1 -1.01464E0  
762000000  -1.68029E-1 -9.63684E-1  1.36609E-2 2.66599E-3  1.48305E-2 2.88963E-3  -1.61926E-1 -9.39697E-1  
784250000  -2.27905E-1 -9.56298E-1  1.47075E-2 2.36511E-3  1.62591E-2 0.21305E-2  -2.12524E-1 -9.54223E-1  
806500000  -3.13781E-1 -9.55810E-1  1.62677E-2 0.04291E-2  1.60493E-2 0.09079E-2  -3.02368E-1 -1.00921E0  
828750000  -3.91784E-1 -9.08508E-1  1.56774E-2 -1.70326E-3  1.63707E-2 -1.45912E-4  -4.09301E-1 -1.01385E0  
851000000  -3.12255E-1 -9.12963E-1  1.54447E-2 0.51498E-3  1.48954E-2 0.51116E-3  -3.28735E-1 -8.80615E-1  
873250000  -2.8125E-1 -9.34631E-1  1.60169E-2 0.23651E-2  1.50451E-2 1.01947E-3  -2.96936E-1 -8.32641E-1  
895500000  -4.34936E-1 -8.74877E-1  1.67684E-2 -1.85012E-4  1.69696E-2 -7.53402E-4  -4.39392E-1 -8.81225E-1  
917750000  -4.47143E-1 -8.37951E-1  1.63221E-2 -1.19876E-3  1.63545E-2 -2.16388E-3  -4.73449E-1 -8.29956E-1  
940000000  -5.02807E-1 -8.35510E-1  1.68151E-2 -2.14195E-3  1.66797E-2 -2.00462E-3  -5.04760E-1 -8.30017E-1  
962250000  -5.39123E-1 -7.35717E-1  1.61037E-2 -2.83241E-3  1.7663E-2 -2.80857E-3  -5.81665E-1 -8.02246E-1  
984500000  -5.57495E-1 -7.35534E-1  1.67999E-2 -2.89630E-3  1.78442E-2 -3.74698E-3  -5.94299E-1 -7.57080E-1  
1006750000  -6.31469E-1 -7.61291E-1  1.80883E-2 -4.19616E-3  1.77860E-2 -4.27436E-3  -6.23107E-1 -7.62390E-1  
1029000000  -6.58081E-1 -7.20214E-1  1.75581E-2 -5.20420E-3  1.70478E-2 -4.48989E-3  -6.55761E-1 -7.23754E-1  
1051250000  -6.97753E-1 -6.70776E-1  1.77002E-2 -5.73825E-3  1.81198E-2 -5.78594E-3  -7.19482E-1 -7.09655E-1  
1073500000  -6.94152E-1 -5.77392E-1  1.66397E-2 -6.19316E-3  1.86996E-2 -8.13293E-3  -8.14758E-1 -6.27136E-1  
1095750000  -7.41516E-1 -6.42395E-1  1.83734E-2 -6.70719E-3  1.82819E-2 -7.17830E-3  -7.45605E-1 -6.28479E-1  
1118000000  -8.40698E-1 -6.94885E-1  1.99899E-2 -9.00554E-3  1.81398E-2 -5.90038E-3  -7.16003E-1 -6.71020E-1  
1140250000  -8.13232E-1 -5.62988E-1  1.76134E-2 -8.98265E-3  1.83706E-2 -7.78198E-3  -8.04870E-1 -5.90087E-1  
1162500000  -7.48657E-1 -4.98107E-1  1.68905E-2 -7.17639E-3  1.79948E-2 -8.89587E-3  -8.00231E-1 -4.98291E-1  
1184750000  -8.05175E-1 -4.80957E-1  1.83506E-2 -7.99465E-3  1.84021E-2 -1.00526E-2  -8.22631E-1 -4.92248E-1  
1207000000  -8.48999E-1 -4.56420E-1  1.94864E-2 -1.02710E-2  1.74970E-2 -1.12648E-2  -8.47900E-1 -4.48974E-1  
1229250000  -8.86596E-1 -4.29687E-1  1.88674E-2 -1.25150E-2  1.69563E-2 -1.11331E-2  -8.63281E-1 -4.29870E-1  
1251500000  -8.69873E-1 -3.62915E-1  1.67131E-2 -1.21040E-2  1.72824E-2 -1.17397E-2  -9.00939E-1 -3.61145E-1  
1273750000  -8.52478E-1 -3.51745E-1  1.73797E-2 -1.05543E-2  1.75972E-2 -1.31835E-2  -8.92456E-1 -2.90405E-1  
1296000000  -9.24621E-1 -2.98645E-1  1.77221E-2 -1.27410E-2  1.83534E-2 -1.48906E-2  -9.28100E-1 -3.15307E-1  
1318250000  -9.14611E-1 -2.30041E-1  1.63030E-2 -1.46236E-2  1.62420E-2 -1.58958E-2  -9.62158E-1 -2.66723E-1  
1340500000  -9.31823E-1 -2.22229E-1  1.64041E-2 -1.51500E-2  1.53884E-2 -1.44290E-2  -9.45922E-1 -2.25280E-1  
1362750000  -9.68627E-1 -1.51001E-1  1.58777E-2 -1.59940E-2  1.77469E-2 -1.40085E-2  -9.68505E-1 -2.13623E-1  
1385000000  -9.47326E-1 -1.18591E-1  1.64184E-2 -1.54676E-2  1.87921E-2 -1.67627E-2  -9.75769E-1 -1.47583E-1  
1407250000  -9.97802E-1 -1.06079E-1  1.86481E-2 -1.75323E-2  1.72710E-2 -1.81465E-2  -9.21142E-1 -1.49047E-1  
1429500000  -9.96582E-1 -3.36303E-2  1.67188E-2 -2.05335E-2  1.47466E-2 -1.88617E-2  -9.51049E-1 -1.14196E-1  
1451750000  -9.64416E-1 -2.43835E-2  1.43871E-2 -1.99317E-2  1.41353E-2 -1.85480E-2  -9.68933E-1 -1.59301E-2  
1474000000  -9.80011E-1 0.17211E-1  1.34315E-2 -1.85756E-2  1.67303E-2 -1.87168E-2  -9.64965E-1 0.19805E-1  
1496250000  -9.66064E-1 0.50445E-1  1.45940E-2 -1.76057E-2  1.61371E-2 -2.03294E-2  -9.60571E-1 0.54412E-1  
1518500000  -1.00610E0 0.44311E-1  1.90992E-2 -1.95713E-2  1.35059E-2 -2.10599E-2  -9.25628E-1 0.64025E-1  
1540750000  -9.60449E-1 1.46484E-1  1.60312E-2 -2.48355E-2  1.17521E-2 -2.21786E-2  -9.60571E-1 1.29577E-1  
1563000000  -8.71582E-1 2.00378E-1  1.04856E-2 -2.08683E-2  0.99010E-2 -2.47135E-2  -9.44397E-1 3.36181E-1  
1585250000  -9.09057E-1 2.21832E-1  1.04732E-2 -2.06432E-2  1.27115E-2 -2.46410E-2  -9.36950E-1 2.77374E-1  
1607500000  -9.24804E-1 2.77008E-1  1.25789E-2 -2.33354E-2  1.23500E-2 -2.65131E-2  -9.53277E-1 2.54669E-1  
1629750000  -9.44610E-1 3.0896E-1  1.37281E-2 -2.58550E-2  0.91657E-2 -2.68106E-2  -9.52697E-1 3.05908E-1  
1652000000  -8.96453E-1 3.76281E-1  1.11827E-2 -2.67105E-2  1.08327E-2 -2.58436E-2  -9.64141E-1 3.23364E-1  
1674250000  -8.44726E-1 4.09210E-1  0.90484E-2 -2.55575E-2  1.32389E-2 -2.79789E-2  -9.86633E-1 3.97766E-1  
1696500000  -8.72833E-1 4.12963E-1  1.01165E-2 -2.72827E-2  1.10273E-2 -2.67753E-2  -8.7677E-1 3.97613E-1  
1718750000  -8.62945E-1 4.64355E-1  0.90293E-2 -2.95543E-2  0.91476E-2 -2.85615E-2  -8.76739E-1 4.19769E-1  
1741000000  -8.23059E-1 4.93286E-1  0.72078E-2 -3.01952E-2  0.63962E-2 -2.89011E-2  -8.42834E-1 4.80255E-1  
1763250000  -8.13476E-1 5.50537E-1  0.60625E-2 -3.00016E-2  0.73633E-2 -2.95839E-2  -8.38012E-1 4.96429E-1  
1785500000  -7.73681E-1 5.76355E-1  0.51422E-2 -2.92320E-2  0.66299E-2 -3.09867E-2  -8.14758E-1 5.49133E-1  
1807750000  -7.66265E-1 4.93408E-1  0.79393E-2 -2.91700E-2  0.16756E-2 -2.80332E-2  -6.81427E-1 5.8255E-1  
1830000000  -7.88909E-1 5.87707E-1  0.67882E-2 -3.24153E-2  0.21381E-2 -2.82220E-2  -6.86828E-1 5.85388E-1  
1852250000  -6.85455E-1 6.47857E-1  0.27961E-2 -3.20701E-2  0.33531E-2 -3.12786E-2  -7.33978E-1 6.57257E-1  
1874500000  -6.74285E-1 6.62597E-1  0.24890E-2 -3.23085E-2  0.32539E-2 -3.28331E-2  -6.89239E-1 6.80755E-1  
1896750000  -6.38793E-1 6.92627E-1  0.12226E-2 -3.27549E-2  0.06179E-2 -3.53870E-2  -6.56585E-1 7.18322E-1  
1919000000  -6.12274E-1 6.62750E-1  0.15106E-2 -3.28311E-2  -4.05120E-3 -3.3638E-2  -5.80078E-1 7.54974E-1  
1941250000  -5.70129E-1 7.71698E-1  -2.89917E-3 -3.59363E-2  -3.39889E-3 -3.24287E-2  -6.05743E-1 7.56317E-1  
1963500000  -4.89105E-1 8.19854E-1  -7.35282E-3 -3.39241E-2  -7.82012E-5 -3.46584E-2  -6.40838E-1 7.84332E-1  
1985750000  -4.85412E-1 8.13537E-1  -5.39588E-3 -3.29399E-2  -1.72424E-3 -3.68785E-2  -5.48461E-1 8.19610E-1  
2008000000  -4.69909E-1 8.46984E-1  -4.22477E-3 -3.50227E-2  -6.79779E-3 -3.51829E-2  -4.85870E-1 8.15216E-1  
2030250000  -4.23706E-1 8.65417E-1  -6.32858E-3 -3.79142E-2  -1.04389E-2 -3.44543E-2  -4.65362E-1 8.46710E-1  
2052500000  -3.92242E-1 9.10095E-1  -1.12056E-2 -3.85570E-2  -8.00132E-3 -3.43990E-2  -4.46624E-1 8.28582E-1  
2074750000  -3.13537E-1 9.32525E-1  -1.47018E-2 -3.59306E-2  -5.51605E-3 -3.66897E-2  -4.38354E-1 8.47320E-1  
2097000000  -3.20068E-1 8.73809E-1  -1.07231E-2 -3.49216E-2  -1.14746E-2 -3.78513E-2  -3.19793E-1 9.14276E-1  
2119250000  -3.27728E-1 8.94683E-1  -9.71412E-3 -3.86028E-2  -1.63555E-2 -3.53679E-2  -2.53356E-1 8.94439E-1  
2141500000  -2.07031E-1 9.30847E-1  -1.71718E-2 -3.87840E-2  -1.71661E-2 -3.49216E-2  -2.69592E-1 9.31091E-1  
2163750000  -1.09710E-1 9.40490E-1  -2.36454E-2 -3.43074E-2  -1.59854E-2 -3.56769E-2  -2.25158E-1 9.66278E-1  
2186000000  -1.21521E-1 9.52331E-1  -2.22587E-2 -3.26385E-2  -1.64985E-2 -3.76930E-2  -1.74987E-1 9.51416E-1  
2208250000  -1.34765E-1 9.07409E-1  -1.81770E-2 -3.45230E-2  -2.38151E-2 -3.81622E-2  -1.03759E-1 9.68200E-1  
2230500000  -9.01184E-2 9.44091E-1  -1.80358E-2 -3.71875E-2  -2.67429E-2 -3.35712E-2  -6.62231E-2 9.48364E-1  
2252750000  0.71106E-1 9.57336E-1  -2.58388E-2 -3.39145E-2  -2.23350E-2 -3.35826E-2  -1.36413E-1 9.75036E-1  
2275000000  0.9729E-1 9.14062E-1  -2.84423E-2 -3.08227E-2  -2.11639E-2 -3.51715E-2  -6.42089E-2 1.01660E0  
2297250000  0.81787E-1 9.56420E-1  -2.86254E-2 -3.30085E-2  -2.40364E-2 -3.48815E-2  0.38024E-1 9.42077E-1  
2319500000  1.48376E-1 9.52880E-1  -2.89821E-2 -3.30448E-2  -3.09028E-2 -3.50608E-2  0.63293E-1 9.51110E-1  
2341750000  2.01660E-1 9.43298E-1  -3.05748E-2 -3.38020E-2  -3.45878E-2 -3.12461E-2  1.27929E-1 9.45556E-1  
2364000000  3.37646E-1 9.49890E-1  -4.05044E-2 -3.02467E-2  -3.11965E-2 -2.87265E-2  1.43676E-1 9.12658E-1  
2386250000  2.89428E-1 9.16381E-1  -3.79791E-2 -2.73132E-2  -3.27186E-2 -3.04412E-2  2.13867E-1 9.32983E-1  
2408500000  2.33276E-1 8.97705E-1  -3.18946E-2 -2.68077E-2  -3.98292E-2 -2.62260E-2  3.36059E-1 8.79150E-1  
2430750000  3.27697E-1 9.00146E-1  -3.33995E-2 -2.94017E-2  -4.14505E-2 -2.48336E-2  3.30322E-1 8.84521E-1  
2453000000  4.09606E-1 8.93310E-1  -4.12979E-2 -2.86483E-2  -4.00238E-2 -2.44712E-2  3.46374E-1 9.20593E-1  
2475250000  4.53247E-1 8.47778E-1  -4.57229E-2 -2.32543E-2  -3.73268E-2 -2.49214E-2  3.86352E-1 8.67736E-1  
2497500000  4.58435E-1 7.90161E-1  -4.23107E-2 -1.98478E-2  -4.28848E-2 -2.80075E-2  4.42810E-1 8.68347E-1  
2519750000  4.62402E-1 7.79052E-1  -3.88164E-2 -2.13565E-2  -5.11283E-2 -2.13012E-2  5.13122E-1 8.27331E-1  
2542000000  6.00402E-1 7.43225E-1  -4.58450E-2 -1.88179E-2  -4.80728E-2 -1.61361E-2  5.01464E-1 7.94494E-1  
2564250000  6.78344E-1 6.43737E-1  -5.02357E-2 -1.03702E-2  -4.46929E-2 -1.94740E-2  5.23864E-1 8.04748E-1  
2586500000  6.45080E-1 6.98608E-1  -4.95986E-2 -1.16958E-2  -4.36935E-2 -1.81198E-2  5.88378E-1 7.45788E-1  
2608750000  6.76635E-1 6.71752E-1  -4.65316E-2 -9.76371E-3  -4.91905E-2 -1.53579E-2  6.19751E-1 7.04101E-1  
2631000000  6.99401E-1 6.25854E-1  -4.52766E-2 -1.17664E-2  -5.35697E-2 -9.33456E-3  6.57959E-1 6.78772E-1  
2653250000  7.59582E-1 6.14074E-1  -5.15632E-2 -1.13296E-2  -4.78611E-2 -7.83538E-3  6.31958E-1 6.44531E-1  
2675500000  7.82653E-1 5.38940E-1  -5.49125E-2 -5.64003E-3  -4.72545E-2 -9.30023E-3  6.72668E-1 6.36291E-1  
2697750000  7.64587E-1 5.37597E-1  -5.39112E-2 -6.64138E-3  -5.23185E-2 -5.67245E-3  7.71423E-1 5.45959E-1  
2720000000  8.16711E-1 5.10131E-1  -5.31425E-2 -4.28199E-3  -5.46283E-2 0.00133E-2  7.66906E-1 4.93957E-1  
2742250000  8.40820E-1 4.11132E-1  -5.16395E-2 0.09880E-2  -5.47332E-2 0.43487E-2  8.09204E-1 4.88525E-1  
2764500000  8.67614E-1 3.86413E-1  -5.28163E-2 0.36716E-2  -4.94442E-2 0.54626E-2  8.47351E-1 4.16442E-1  
2786750000  8.79699E-1 3.21838E-1  -5.26275E-2 0.79631E-2  -4.89997E-2 0.30117E-2  8.47229E-1 4.02526E-1  
2809000000  8.10852E-1 2.76916E-1  -4.49676E-2 0.68931E-2  -5.39455E-2 0.22144E-2  8.93615E-1 3.95019E-1  
2831250000  8.81469E-1 2.42248E-1  -4.76207E-2 0.54168E-2  -5.41248E-2 0.96340E-2  8.95263E-1 3.11645E-1  
2853500000  9.31213E-1 1.79626E-1  -5.22022E-2 0.99849E-2  -5.04627E-2 1.03817E-2  8.81835E-1 2.8125E-1  
2875750000  9.20532E-1 1.22436E-1  -5.61962E-2 1.43165E-2  -5.05867E-2 1.00021E-2  9.11193E-1 2.28759E-1  
2898000000  9.03564E-1 0.58166E-1  -5.24520E-2 1.90868E-2  -5.16395E-2 1.21555E-2  9.11926E-1 1.75048E-1  
2920250000  8.88549E-1 0.15136E-1  -4.78763E-2 2.05898E-2  -5.52291E-2 1.91059E-2  9.35974E-1 1.29943E-1  
2942500000  9.60418E-1 -3.80859E-2  -4.96044E-2 2.18696E-2  -5.10482E-2 2.46582E-2  9.16961E-1 0.45257E-1  
2964750000  9.75982E-1 -1.45874E-1  -5.04493E-2 2.78492E-2  -4.67891E-2 2.28843E-2  8.87176E-1 0.07476E-1  
2987000000  9.15039E-1 -1.23016E-1  -4.71439E-2 2.55413E-2  -4.81834E-2 2.26669E-2  9.39544E-1 -3.66516E-2  
3009250000  8.98284E-1 -1.10046E-1  -4.56981E-2 2.28557E-2  -5.07831E-2 2.98900E-2  9.74945E-1 -1.11633E-1  
3031500000  8.97644E-1 -2.16857E-1  -4.52613E-2 2.43072E-2  -4.78897E-2 3.19881E-2  9.22790E-1 -1.41326E-1  
3053750000  8.86016E-1 -2.73620E-1  -4.98256E-2 2.77843E-2  -4.61273E-2 3.07884E-2  9.15985E-1 -1.69494E-1  
3076000000  8.66516E-1 -3.33709E-1  -4.98657E-2 3.48148E-2  -4.56905E-2 2.92148E-2  8.96789E-1 -2.27935E-1  
3098250000  8.36944E-1 -3.58917E-1  -4.50325E-2 3.64418E-2  -5.02529E-2 3.61309E-2  9.05731E-1 -3.10821E-1  
3120500000  8.31756E-1 -4.10461E-1  -4.07180E-2 3.59668E-2  -4.64458E-2 4.61082E-2  8.72711E-1 -3.75183E-1  
3142750000  7.82440E-1 -4.73907E-1  -3.75976E-2 3.74374E-2  -3.82289E-2 4.55913E-2  8.42712E-1 -3.67248E-1  
3165000000  7.52868E-1 -5.03295E-1  -3.89404E-2 3.78227E-2  -3.52020E-2 4.06074E-2  8.36181E-1 -4.16015E-1  
3187250000  7.37152E-1 -5.50567E-1  -3.89709E-2 4.29687E-2  -3.77330E-2 3.88660E-2  7.92755E-1 -4.62341E-1  
3209500000  6.89697E-1 -5.84350E-1  -3.43704E-2 4.30431E-2  -3.83853E-2 4.50611E-2  7.74414E-1 -4.83032E-1  
3231750000  6.67297E-1 -6.21246E-1  -3.3041E-2 4.37755E-2  -3.58619E-2 5.55629E-2  7.39715E-1 -5.46508E-1  
3254000000  6.20300E-1 -7.16522E-1  -3.38115E-2 4.96158E-2  -2.85759E-2 5.19657E-2  6.78710E-1 -5.79742E-1  
3276250000  5.75744E-1 -7.18261E-1  -3.29017E-2 5.34172E-2  -2.64930E-2 4.78286E-2  6.67327E-1 -6.15142E-1  
3298500000  5.51910E-1 -7.21344E-1  -2.74066E-2 5.69534E-2  -2.70500E-2 4.96330E-2  6.27716E-1 -6.68396E-1  
3320750000  5.10559E-1 -7.56286E-1  -1.90219E-2 5.51567E-2  -2.66647E-2 5.6427E-2  5.90179E-1 -6.8927E-1  
3343000000  4.89379E-1 -8.02825E-1  -1.93805E-2 5.28259E-2  -1.97124E-2 5.76305E-2  5.33935E-1 -7.16064E-1  
3365250000  4.43725E-1 -8.58978E-1  -2.22415E-2 5.49659E-2  -1.40342E-2 5.15785E-2  4.66247E-1 -7.28637E-1  
3387500000  3.87512E-1 -8.05572E-1  -2.24380E-2 5.25703E-2  -1.62410E-2 5.10635E-2  4.92248E-1 -7.72064E-1  
3409750000  3.70788E-1 -7.85125E-1  -2.03781E-2 5.48286E-2  -1.92966E-2 5.64479E-2  4.55719E-1 -8.18542E-1  
3432000000  3.03375E-1 -8.53912E-1  -1.20735E-2 5.70297E-2  -1.23863E-2 6.09664E-2  3.90808E-1 -8.23669E-1  
3454250000  2.33856E-1 -8.67065E-1  -1.02443E-2 5.62553E-2  -8.23593E-3 5.73310E-2  3.52722E-1 -8.25073E-1  
3476500000  2.03460E-1 -8.82873E-1  -9.8629E-3 5.79128E-2  -4.65965E-3 5.31597E-2  3.04168E-1 -8.59893E-1  
3498750000  1.35833E-1 -8.66760E-1  -3.59535E-3 5.83305E-2  -5.04112E-3 5.34153E-2  2.52563E-1 -8.66455E-1  
3521000000  1.06475E-1 -8.72833E-1  0.06427E-2 5.57441E-2  -3.85475E-3 5.84964E-2  2.11608E-1 -8.90808E-1  
3543250000  0.54687E-1 -9.16748E-1  0.08239E-2 5.36994E-2  0.18806E-2 5.90362E-2  1.50085E-1 -8.93310E-1  
3565500000  -1.22070E-4 -9.07653E-1  -1.19590E-3 5.36251E-2  0.41160E-2 5.36174E-2  1.10748E-1 -8.90441E-1  
3587750000  -1.43737E-2 -9.04266E-1  -2.98690E-3 5.80177E-2  0.51937E-2 5.11512E-2  0.71533E-1 -9.06646E-1  
3610000000  -5.80749E-2 -9.12109E-1  0.28381E-2 6.33888E-2  0.48694E-2 5.22937E-2  0.26947E-1 -8.97705E-1  
3632250000  -1.13525E-1 -8.95019E-1  1.04484E-2 6.05850E-2  0.73814E-2 5.54084E-2  -2.33459E-2 -9.06494E-1  
3654500000  -1.54907E-1 -9.09851E-1  1.38435E-2 5.88493E-2  1.17034E-2 5.45120E-2  -8.60595E-2 -9.05700E-1  
3676750000  -2.11181E-1 -8.85498E-1  1.51519E-2 5.44204E-2  1.12991E-2 5.17807E-2  -1.19140E-1 -8.95507E-1  
3699000000  -2.30102E-1 -8.71948E-1  1.48086E-2 5.17883E-2  1.29852E-2 5.32302E-2  -1.56738E-1 -9.02465E-1  
3721250000  -2.79663E-1 -8.72070E-1  1.54800E-2 5.15518E-2  1.86691E-2 5.41534E-2  -2.14355E-1 -8.85009E-1  
3743500000  -3.41247E-1 -8.38501E-1  1.59301E-2 5.12313E-2  2.15263E-2 4.91294E-2  -2.42797E-1 -8.60107E-1  
3765750000  -3.69079E-1 -8.23059E-1  1.71775E-2 5.36918E-2  1.98421E-2 4.39167E-2  -2.84668E-1 -8.52905E-1  
3788000000  -3.88977E-1 -8.04260E-1  2.15759E-2 5.62210E-2  1.86710E-2 4.47292E-2  -3.54248E-1 -8.55407E-1  
3810250000  -4.03869E-1 -7.89917E-1  2.77481E-2 5.20477E-2  2.28958E-2 5.11817E-2  -4.33837E-1 -8.68347E-1  
3832500000  -4.82055E-1 -7.56774E-1  3.11279E-2 4.54292E-2  2.30445E-2 5.37643E-2  -4.14611E-1 -8.01513E-1  
3854750000  -5.38757E-1 -7.12646E-1  2.99606E-2 4.38575E-2  2.62374E-2 4.74662E-2  -4.31518E-1 -7.52624E-1  
3877000000  -5.50781E-1 -7.05200E-1  2.51693E-2 4.63333E-2  2.71415E-2 4.35600E-2  -4.79858E-1 -7.61413E-1  
3899250000  -5.93627E-1 -6.97143E-1  2.89230E-2 4.82978E-2  2.85415E-2 4.34188E-2  -5.3302E-1 -7.36022E-1  
3921500000  -6.15295E-1 -6.58752E-1  3.42140E-2 4.62265E-2  2.97660E-2 4.65087E-2  -5.53222E-1 -7.11914E-1  
3943750000  -6.26525E-1 -6.49963E-1  3.46069E-2 4.29916E-2  3.34014E-2 4.47235E-2  -5.88501E-1 -6.82922E-1  
3966000000  -6.63391E-1 -6.09741E-1  3.43818E-2 4.30107E-2  3.27262E-2 3.93180E-2  -6.14318E-1 -6.47033E-1  
3988250000  -6.77612E-1 -5.72082E-1  3.54118E-2 4.29306E-2  2.96173E-2 3.96919E-2  -6.47033E-1 -6.33911E-1  
4010500000  -6.98242E-1 -5.47973E-1  4.09088E-2 4.18777E-2  3.09181E-2 4.59518E-2  -6.83471E-1 -6.07788E-1  
4032750000  -7.34558E-1 -5.04638E-1  4.38575E-2 3.43666E-2  3.88793E-2 4.84390E-2  -7.09167E-1 -5.61279E-1  
4055000000  -7.49206E-1 -4.69360E-1  3.88145E-2 3.06358E-2  4.33616E-2 4.09088E-2  -7.52136E-1 -5.12268E-1  
4077250000  -7.79663E-1 -4.38354E-1  3.59878E-2 3.31420E-2  4.44564E-2 3.04336E-2  -7.52075E-1 -4.90600E-1  
