CITIFILE A.01.00
#NA VERSION HP8722ES.07.74: Oct 30, 2002
NAME FORMATTED
VAR FREQ MAG 201
DATA S[1,1] RI
DATA S[2,1] RI
DATA S[1,2] RI
DATA S[2,2] RI
SEG_LIST_BEGIN
SEG 50000000 4500000000 201
SEG_LIST_END
BEGIN
9.98443E-1,-6.32629E-2
9.90692E-1,-7.87963E-2
9.97558E-1,-9.18579E-2
1.00262E0,-1.17858E-1
1.00073E0,-1.46728E-1
1.01886E0,-1.93054E-1
1.01361E0,-2.32788E-1
9.96551E-1,-2.47558E-1
9.92584E-1,-2.77374E-1
9.66827E-1,-3.14239E-1
9.43664E-1,-3.41583E-1
9.19952E-1,-3.68164E-1
8.86749E-1,-3.87573E-1
8.76251E-1,-4.20684E-1
8.57879E-1,-4.72412E-1
8.40362E-1,-5.03356E-1
8.41705E-1,-5.32074E-1
8.24920E-1,-5.63140E-1
8.13995E-1,-5.93475E-1
8.01544E-1,-6.33270E-1
7.76458E-1,-6.50451E-1
7.58972E-1,-6.65283E-1
7.37182E-1,-6.90399E-1
6.99890E-1,-7.12951E-1
6.71325E-1,-7.33123E-1
6.31134E-1,-7.44445E-1
6.03149E-1,-7.61108E-1
5.76110E-1,-7.90466E-1
5.44311E-1,-8.11004E-1
5.16662E-1,-8.23944E-1
4.87915E-1,-8.41949E-1
4.64660E-1,-8.64410E-1
4.45556E-1,-9.00604E-1
4.19342E-1,-9.09057E-1
4.00451E-1,-9.00054E-1
3.76525E-1,-9.11315E-1
3.45214E-1,-9.19769E-1
3.17291E-1,-9.27764E-1
2.76245E-1,-9.27948E-1
2.44262E-1,-9.19860E-1
2.15820E-1,-9.34234E-1
1.79962E-1,-9.55474E-1
1.47338E-1,-9.63653E-1
1.06475E-1,-9.71801E-1
0.78369E-1,-9.76623E-1
0.78125E-1,-9.87304E-1
0.58166E-1,-9.97131E-1
0.22460E-1,-9.86267E-1
-8.30078E-3,-9.80377E-1
-3.34167E-2,-9.74914E-1
-4.6875E-2,-9.74243E-1
-8.02002E-2,-9.69116E-1
-1.27014E-1,-9.52667E-1
-1.57257E-1,-9.46167E-1
-1.86157E-1,-9.51629E-1
-2.11914E-1,-9.50164E-1
-2.39715E-1,-9.51232E-1
-2.71209E-1,-9.44458E-1
-2.91778E-1,-9.40185E-1
-3.17169E-1,-9.42688E-1
-3.43017E-1,-9.31366E-1
-3.62121E-1,-9.22363E-1
-3.84918E-1,-9.11621E-1
-3.96911E-1,-8.93768E-1
-4.16778E-1,-8.82019E-1
-4.5401E-1,-8.60199E-1
-4.80316E-1,-8.37921E-1
-5.03234E-1,-8.23883E-1
-5.27191E-1,-8.09265E-1
-5.54504E-1,-7.97515E-1
-5.95306E-1,-7.8125E-1
-6.16638E-1,-7.63977E-1
-6.25396E-1,-7.59246E-1
-6.42944E-1,-7.46185E-1
-6.62689E-1,-7.31597E-1
-6.82006E-1,-7.12616E-1
-6.86401E-1,-6.80877E-1
-6.88385E-1,-6.60705E-1
-7.08984E-1,-6.38610E-1
-7.25952E-1,-6.11969E-1
-7.40875E-1,-5.88043E-1
-7.51342E-1,-5.53527E-1
-7.65136E-1,-5.32165E-1
-7.97699E-1,-5.25665E-1
-8.22265E-1,-5.04547E-1
-8.31543E-1,-4.84405E-1
-8.45703E-1,-4.64111E-1
-8.58825E-1,-4.50836E-1
-8.80462E-1,-4.45739E-1
-8.87878E-1,-4.16137E-1
-8.80065E-1,-3.83087E-1
-8.89190E-1,-3.61114E-1
-9.11132E-1,-3.38897E-1
-9.20806E-1,-3.15063E-1
-9.22027E-1,-2.79876E-1
-9.18243E-1,-2.47100E-1
-9.38476E-1,-2.31750E-1
-9.6521E-1,-2.08313E-1
-9.66125E-1,-1.84509E-1
-9.59838E-1,-1.60919E-1
-9.62616E-1,-1.37451E-1
-9.77294E-1,-1.26525E-1
-9.86145E-1,-1.04553E-1
-9.69543E-1,-7.28759E-2
-9.56848E-1,-5.21850E-2
-9.63989E-1,-2.81066E-2
-9.64294E-1,-3.17382E-3
-9.61944E-1,0.29113E-1
-9.47296E-1,0.71258E-1
-9.47692E-1,0.94116E-1
-9.68475E-1,1.10717E-1
-9.68872E-1,1.35253E-1
-9.61639E-1,1.58325E-1
-9.56970E-1,1.84112E-1
-9.53857E-1,1.97082E-1
-9.60174E-1,2.10174E-1
-9.42077E-1,2.39746E-1
-9.09362E-1,2.66479E-1
-9.01641E-1,2.90924E-1
-8.89892E-1,3.19427E-1
-8.80035E-1,3.43353E-1
-8.70117E-1,3.80432E-1
-8.5495E-1,4.06982E-1
-8.57055E-1,4.23339E-1
-8.58306E-1,4.46136E-1
-8.49792E-1,4.68841E-1
-8.42529E-1,4.93469E-1
-8.27148E-1,5.12054E-1
-8.13262E-1,5.17669E-1
-7.98980E-1,5.36926E-1
-7.75054E-1,5.63659E-1
-7.56042E-1,5.83313E-1
-7.40905E-1,5.97686E-1
-7.24029E-1,6.08551E-1
-7.08892E-1,6.32415E-1
-6.875E-1,6.56860E-1
-6.71630E-1,6.72699E-1
-6.58264E-1,6.87194E-1
-6.40350E-1,7.03796E-1
-6.18743E-1,7.24700E-1
-5.97320E-1,7.43469E-1
-5.82153E-1,7.48046E-1
-5.68786E-1,7.59246E-1
-5.44769E-1,7.74353E-1
-5.22583E-1,7.85125E-1
-4.99633E-1,7.95013E-1
-4.74975E-1,7.98675E-1
-4.52575E-1,8.11706E-1
-4.22058E-1,8.35418E-1
-3.95019E-1,8.48968E-1
-3.76617E-1,8.60839E-1
-3.53332E-1,8.72436E-1
-3.32885E-1,8.86566E-1
-3.10150E-1,9.04693E-1
-2.84301E-1,9.08905E-1
-2.63427E-1,9.09179E-1
-2.38006E-1,9.14093E-1
-2.10449E-1,9.14398E-1
-1.84692E-1,9.18243E-1
-1.54357E-1,9.18426E-1
-1.27716E-1,9.17236E-1
-1.00280E-1,9.21661E-1
-7.11975E-2,9.22943E-1
-4.58068E-2,9.23248E-1
-1.78222E-2,9.25262E-1
0.10223E-1,9.24713E-1
0.40283E-1,9.25781E-1
0.67138E-1,9.23950E-1
0.88745E-1,9.19189E-1
1.11938E-1,9.16931E-1
1.38031E-1,9.10095E-1
1.61926E-1,9.03656E-1
1.86767E-1,8.94714E-1
2.06481E-1,8.83941E-1
2.32025E-1,8.76678E-1
2.61230E-1,8.69018E-1
2.87933E-1,8.59619E-1
3.18817E-1,8.52142E-1
3.46038E-1,8.42132E-1
3.66821E-1,8.41217E-1
3.92486E-1,8.34930E-1
4.16870E-1,8.16284E-1
4.39697E-1,7.98431E-1
4.61822E-1,7.83874E-1
4.78851E-1,7.70690E-1
5.00854E-1,7.54974E-1
5.24810E-1,7.29400E-1
5.45562E-1,7.08221E-1
5.68084E-1,6.91497E-1
5.87921E-1,6.73706E-1
6.10412E-1,6.57287E-1
6.33239E-1,6.36444E-1
6.52252E-1,6.14715E-1
6.72790E-1,5.92926E-1
6.90918E-1,5.70343E-1
7.07580E-1,5.50964E-1
7.24487E-1,5.29602E-1
7.34375E-1,5.08606E-1
7.41149E-1,4.93408E-1
7.47894E-1,4.83734E-1
7.51525E-1,4.76470E-1
END
BEGIN
-4.36796E1,0E0
-4.33105E1,0E0
-4.25410E1,0E0
-4.16660E1,0E0
-4.07617E1,0E0
-3.93027E1,0E0
-3.80820E1,0E0
-3.70390E1,0E0
-3.60605E1,0E0
-3.54609E1,0E0
-3.48710E1,0E0
-3.42480E1,0E0
-3.38398E1,0E0
-3.32480E1,0E0
-3.26816E1,0E0
-3.22031E1,0E0
-3.15292E1,0E0
-3.10380E1,0E0
-3.06738E1,0E0
-3.025E1,0E0
-2.99082E1,0E0
-2.95244E1,0E0
-2.92207E1,0E0
-2.91503E1,0E0
-2.89111E1,0E0
-2.86406E1,0E0
-2.83125E1,0E0
-2.80566E1,0E0
-2.79130E1,0E0
-2.77216E1,0E0
-2.74013E1,0E0
-2.70996E1,0E0
-2.67929E1,0E0
-2.66816E1,0E0
-2.65761E1,0E0
-2.62714E1,0E0
-2.60869E1,0E0
-2.59736E1,0E0
-2.58945E1,0E0
-2.57558E1,0E0
-2.54667E1,0E0
-2.52197E1,0E0
-2.50605E1,0E0
-2.48183E1,0E0
-2.45986E1,0E0
-2.43584E1,0E0
-2.41718E1,0E0
-2.41005E1,0E0
-2.38896E1,0E0
-2.36865E1,0E0
-2.35507E1,0E0
-2.34501E1,0E0
-2.33408E1,0E0
-2.31279E1,0E0
-2.29013E1,0E0
-2.28173E1,0E0
-2.26709E1,0E0
-2.24355E1,0E0
-2.21621E1,0E0
-2.19414E1,0E0
-2.19043E1,0E0
-2.18242E1,0E0
-2.15986E1,0E0
-2.13740E1,0E0
-2.12265E1,0E0
-2.12158E1,0E0
-2.12060E1,0E0
-2.09462E1,0E0
-2.06406E1,0E0
-2.04716E1,0E0
-2.03925E1,0E0
-2.02949E1,0E0
-2.00419E1,0E0
-1.98320E1,0E0
-1.97187E1,0E0
-1.96455E1,0E0
-1.96806E1,0E0
-1.96796E1,0E0
-1.95800E1,0E0
-1.95312E1,0E0
-1.94306E1,0E0
-1.94560E1,0E0
-1.94199E1,0E0
-1.92001E1,0E0
-1.90263E1,0E0
-1.88974E1,0E0
-1.87646E1,0E0
-1.86894E1,0E0
-1.84921E1,0E0
-1.84082E1,0E0
-1.84326E1,0E0
-1.83896E1,0E0
-1.83886E1,0E0
-1.84101E1,0E0
-1.83613E1,0E0
-1.82939E1,0E0
-1.81142E1,0E0
-1.79667E1,0E0
-1.79541E1,0E0
-1.78359E1,0E0
-1.76923E1,0E0
-1.75966E1,0E0
-1.76132E1,0E0
-1.76806E1,0E0
-1.75703E1,0E0
-1.74072E1,0E0
-1.74599E1,0E0
-1.74892E1,0E0
-1.74570E1,0E0
-1.72851E1,0E0
-1.71123E1,0E0
-1.71826E1,0E0
-1.7125E1,0E0
-1.68876E1,0E0
-1.67568E1,0E0
-1.67255E1,0E0
-1.68554E1,0E0
-1.69785E1,0E0
-1.68769E1,0E0
-1.69482E1,0E0
-1.70693E1,0E0
-1.69677E1,0E0
-1.67880E1,0E0
-1.66084E1,0E0
-1.65742E1,0E0
-1.66054E1,0E0
-1.64873E1,0E0
-1.64209E1,0E0
-1.65068E1,0E0
-1.65820E1,0E0
-1.65410E1,0E0
-1.63632E1,0E0
-1.62734E1,0E0
-1.63681E1,0E0
-1.63837E1,0E0
-1.63115E1,0E0
-1.61757E1,0E0
-1.61005E1,0E0
-1.61142E1,0E0
-1.60175E1,0E0
-1.57729E1,0E0
-1.56479E1,0E0
-1.56455E1,0E0
-1.57749E1,0E0
-1.57851E1,0E0
-1.56601E1,0E0
-1.56074E1,0E0
-1.55522E1,0E0
-1.54492E1,0E0
-1.52978E1,0E0
-1.50590E1,0E0
-1.49565E1,0E0
-1.49252E1,0E0
-1.48022E1,0E0
-1.46674E1,0E0
-1.44702E1,0E0
-1.43520E1,0E0
-1.43837E1,0E0
-1.43364E1,0E0
-1.42392E1,0E0
-1.41357E1,0E0
-1.40293E1,0E0
-1.39384E1,0E0
-1.37583E1,0E0
-1.35302E1,0E0
-1.34057E1,0E0
-1.32841E1,0E0
-1.31313E1,0E0
-1.30200E1,0E0
-1.29101E1,0E0
-1.28881E1,0E0
-1.27905E1,0E0
-1.25957E1,0E0
-1.24423E1,0E0
-1.24077E1,0E0
-1.24018E1,0E0
-1.23422E1,0E0
-1.20820E1,0E0
-1.18696E1,0E0
-1.16899E1,0E0
-1.16337E1,0E0
-1.16254E1,0E0
-1.14873E1,0E0
-1.13520E1,0E0
-1.13969E1,0E0
-1.14306E1,0E0
-1.13925E1,0E0
-1.11699E1,0E0
-1.09863E1,0E0
-1.10239E1,0E0
-1.10527E1,0E0
-1.09321E1,0E0
-1.07700E1,0E0
-1.06821E1,0E0
-1.07060E1,0E0
-1.06513E1,0E0
-1.05400E1,0E0
-1.05205E1,0E0
-1.05927E1,0E0
-1.06899E1,0E0
-1.07954E1,0E0
END
BEGIN
-4.36992E1,0E0
-4.32128E1,0E0
-4.24160E1,0E0
-4.15058E1,0E0
-4.04316E1,0E0
-3.88789E1,0E0
-3.78554E1,0E0
-3.69648E1,0E0
-3.60527E1,0E0
-3.54101E1,0E0
-3.47695E1,0E0
-3.41816E1,0E0
-3.37460E1,0E0
-3.31289E1,0E0
-3.26035E1,0E0
-3.21230E1,0E0
-3.15253E1,0E0
-3.10488E1,0E0
-3.07646E1,0E0
-3.04794E1,0E0
-3.01738E1,0E0
-2.97753E1,0E0
-2.94013E1,0E0
-2.92080E1,0E0
-2.89853E1,0E0
-2.86337E1,0E0
-2.82255E1,0E0
-2.77646E1,0E0
-2.75576E1,0E0
-2.73193E1,0E0
-2.69443E1,0E0
-2.66044E1,0E0
-2.63525E1,0E0
-2.62578E1,0E0
-2.62441E1,0E0
-2.59814E1,0E0
-2.58476E1,0E0
-2.58027E1,0E0
-2.57216E1,0E0
-2.55351E1,0E0
-2.52617E1,0E0
-2.50966E1,0E0
-2.49667E1,0E0
-2.48085E1,0E0
-2.45869E1,0E0
-2.43066E1,0E0
-2.41445E1,0E0
-2.40507E1,0E0
-2.38105E1,0E0
-2.35996E1,0E0
-2.33896E1,0E0
-2.33310E1,0E0
-2.33339E1,0E0
-2.31152E1,0E0
-2.28623E1,0E0
-2.27763E1,0E0
-2.27294E1,0E0
-2.26230E1,0E0
-2.22617E1,0E0
-2.18613E1,0E0
-2.18066E1,0E0
-2.18076E1,0E0
-2.16914E1,0E0
-2.13974E1,0E0
-2.11572E1,0E0
-2.13642E1,0E0
-2.15293E1,0E0
-2.13173E1,0E0
-2.09716E1,0E0
-2.07587E1,0E0
-2.08066E1,0E0
-2.08027E1,0E0
-2.04209E1,0E0
-2.01357E1,0E0
-2.00273E1,0E0
-2.00224E1,0E0
-2.00205E1,0E0
-1.98095E1,0E0
-1.96748E1,0E0
-1.96865E1,0E0
-1.96445E1,0E0
-1.95869E1,0E0
-1.94248E1,0E0
-1.92080E1,0E0
-1.91933E1,0E0
-1.90224E1,0E0
-1.87246E1,0E0
-1.84960E1,0E0
-1.83808E1,0E0
-1.84326E1,0E0
-1.83418E1,0E0
-1.80732E1,0E0
-1.80400E1,0E0
-1.81767E1,0E0
-1.82597E1,0E0
-1.81054E1,0E0
-1.77861E1,0E0
-1.77714E1,0E0
-1.78564E1,0E0
-1.77109E1,0E0
-1.74531E1,0E0
-1.71826E1,0E0
-1.72207E1,0E0
-1.73857E1,0E0
-1.72353E1,0E0
-1.70214E1,0E0
-1.70537E1,0E0
-1.725E1,0E0
-1.74375E1,0E0
-1.72763E1,0E0
-1.71328E1,0E0
-1.71982E1,0E0
-1.73300E1,0E0
-1.72802E1,0E0
-1.69648E1,0E0
-1.67861E1,0E0
-1.69736E1,0E0
-1.70439E1,0E0
-1.69668E1,0E0
-1.68623E1,0E0
-1.68115E1,0E0
-1.70507E1,0E0
-1.71494E1,0E0
-1.69824E1,0E0
-1.69043E1,0E0
-1.69267E1,0E0
-1.69902E1,0E0
-1.69951E1,0E0
-1.67373E1,0E0
-1.66455E1,0E0
-1.67373E1,0E0
-1.67451E1,0E0
-1.66533E1,0E0
-1.65410E1,0E0
-1.66435E1,0E0
-1.68837E1,0E0
-1.68183E1,0E0
-1.65507E1,0E0
-1.63613E1,0E0
-1.63310E1,0E0
-1.63876E1,0E0
-1.61367E1,0E0
-1.57597E1,0E0
-1.56533E1,0E0
-1.57602E1,0E0
-1.57963E1,0E0
-1.55703E1,0E0
-1.52299E1,0E0
-1.51792E1,0E0
-1.52788E1,0E0
-1.52075E1,0E0
-1.49399E1,0E0
-1.46982E1,0E0
-1.47236E1,0E0
-1.47563E1,0E0
-1.45376E1,0E0
-1.42168E1,0E0
-1.39995E1,0E0
-1.39384E1,0E0
-1.38637E1,0E0
-1.36264E1,0E0
-1.34326E1,0E0
-1.33945E1,0E0
-1.33598E1,0E0
-1.31899E1,0E0
-1.29130E1,0E0
-1.28252E1,0E0
-1.28178E1,0E0
-1.27021E1,0E0
-1.24965E1,0E0
-1.23369E1,0E0
-1.23335E1,0E0
-1.24145E1,0E0
-1.22456E1,0E0
-1.19555E1,0E0
-1.17856E1,0E0
-1.18149E1,0E0
-1.18408E1,0E0
-1.18217E1,0E0
-1.17265E1,0E0
-1.16674E1,0E0
-1.17163E1,0E0
-1.17646E1,0E0
-1.16406E1,0E0
-1.14873E1,0E0
-1.13530E1,0E0
-1.12880E1,0E0
-1.13330E1,0E0
-1.13193E1,0E0
-1.11977E1,0E0
-1.11147E1,0E0
-1.11181E1,0E0
-1.11123E1,0E0
-1.10634E1,0E0
-1.09960E1,0E0
-1.10654E1,0E0
-1.1146E1,0E0
-1.11298E1,0E0
-1.10756E1,0E0
-1.10361E1,0E0
-1.10190E1,0E0
END
BEGIN
9.91027E-1,-1.96289E-1
9.72808E-1,-2.35015E-1
9.66583E-1,-2.80181E-1
9.49585E-1,-3.40942E-1
9.21630E-1,-4.09729E-1
9.06951E-1,-5.04058E-1
8.67645E-1,-5.76080E-1
8.23089E-1,-6.12182E-1
7.79632E-1,-6.68853E-1
7.12097E-1,-7.21893E-1
6.49169E-1,-7.64160E-1
5.83587E-1,-8.06488E-1
5.10955E-1,-8.34472E-1
4.36187E-1,-8.73748E-1
3.35845E-1,-9.18243E-1
2.65472E-1,-9.42108E-1
1.97204E-1,-9.73602E-1
1.24145E-1,-9.89715E-1
0.57525E-1,-9.96337E-1
-1.37939E-2,-1.00354E0
-6.86340E-2,-9.92675E-1
-1.10473E-1,-9.84832E-1
-1.76757E-1,-9.75830E-1
-2.39990E-1,-9.52423E-1
-3.03222E-1,-9.32251E-1
-3.65570E-1,-9.04968E-1
-4.23004E-1,-8.76251E-1
-5.07019E-1,-8.48053E-1
-5.70617E-1,-8.11248E-1
-6.17401E-1,-7.72766E-1
-6.66229E-1,-7.32238E-1
-7.20581E-1,-6.88415E-1
-7.77191E-1,-6.36779E-1
-8.11523E-1,-5.92712E-1
-8.09722E-1,-5.57830E-1
-8.36029E-1,-5.11261E-1
-8.65173E-1,-4.57611E-1
-8.91387E-1,-4.03137E-1
-9.02832E-1,-3.45245E-1
-9.0448E-1,-2.97576E-1
-9.26727E-1,-2.36236E-1
-9.49890E-1,-1.63147E-1
-9.58252E-1,-9.98535E-2
-9.58984E-1,-2.89611E-2
-9.60388E-1,0.32379E-1
-9.71405E-1,0.82214E-1
-9.71130E-1,1.41113E-1
-9.55932E-1,1.94580E-1
-9.42932E-1,2.48382E-1
-9.23950E-1,2.99408E-1
-9.13330E-1,3.41705E-1
-8.86016E-1,3.94043E-1
-8.40026E-1,4.45465E-1
-8.07006E-1,4.94812E-1
-7.74902E-1,5.49377E-1
-7.38281E-1,5.97991E-1
-7.01965E-1,6.47430E-1
-6.56311E-1,6.92260E-1
-6.23687E-1,7.32788E-1
-5.87707E-1,7.79846E-1
-5.35797E-1,8.12133E-1
-4.85229E-1,8.40698E-1
-4.31457E-1,8.68804E-1
-3.79547E-1,8.91082E-1
-3.22479E-1,9.11254E-1
-2.43194E-1,9.12139E-1
-1.72302E-1,9.13574E-1
-1.07513E-1,9.24713E-1
-4.31213E-2,9.32159E-1
0.29144E-1,9.34112E-1
1.11389E-1,9.24652E-1
1.75872E-1,9.16137E-1
2.32513E-1,9.22027E-1
2.93853E-1,9.11468E-1
3.59130E-1,8.90899E-1
4.23339E-1,8.61572E-1
4.63867E-1,8.28155E-1
5.02716E-1,8.00964E-1
5.5896E-1,7.57690E-1
6.07116E-1,7.10418E-1
6.53778E-1,6.60003E-1
6.8573E-1,6.02874E-1
7.24914E-1,5.47393E-1
7.86102E-1,4.81018E-1
8.29467E-1,4.11071E-1
8.58184E-1,3.49426E-1
8.84765E-1,2.82104E-1
9.12048E-1,2.18627E-1
9.43328E-1,1.48284E-1
9.47540E-1,0.78949E-1
9.37652E-1,0.22766E-1
9.34021E-1,-4.60510E-2
9.23828E-1,-1.21093E-1
9.09851E-1,-1.90002E-1
8.81500E-1,-2.56897E-1
8.49243E-1,-3.16772E-1
8.22662E-1,-3.92089E-1
7.85339E-1,-4.66949E-1
7.49969E-1,-5.25054E-1
7.11090E-1,-5.80688E-1
6.66870E-1,-6.34185E-1
6.21276E-1,-6.94488E-1
5.68298E-1,-7.44049E-1
5.20629E-1,-7.6474E-1
4.73541E-1,-7.91351E-1
4.13665E-1,-8.24310E-1
3.53363E-1,-8.46862E-1
2.89032E-1,-8.64227E-1
2.28546E-1,-8.66973E-1
1.64611E-1,-8.79791E-1
0.87432E-1,-8.98437E-1
0.20111E-1,-9.04235E-1
-4.25415E-2,-9.00909E-1
-1.04614E-1,-8.95233E-1
-1.68701E-1,-8.96331E-1
-2.36816E-1,-8.91601E-1
-2.89672E-1,-8.72589E-1
-3.35052E-1,-8.54492E-1
-3.88610E-1,-8.30505E-1
-4.39086E-1,-8.04382E-1
-4.89257E-1,-7.74963E-1
-5.28137E-1,-7.31323E-1
-5.63751E-1,-6.93817E-1
-6.11450E-1,-6.57562E-1
-6.53778E-1,-6.13555E-1
-6.92443E-1,-5.70648E-1
-7.30133E-1,-5.22552E-1
-7.62756E-1,-4.80041E-1
-8.01788E-1,-4.39514E-1
-8.27972E-1,-3.90625E-1
-8.40545E-1,-3.42437E-1
-8.57666E-1,-2.93029E-1
-8.72589E-1,-2.43988E-1
-8.85650E-1,-1.95861E-1
-8.88671E-1,-1.40869E-1
-8.82446E-1,-8.79821E-2
-8.87329E-1,-3.30200E-2
-8.92608E-1,0.25726E-1
-8.90045E-1,0.79528E-1
-8.81042E-1,1.35040E-1
-8.69567E-1,1.87835E-1
-8.64715E-1,2.42584E-1
-8.53393E-1,2.99346E-1
-8.31634E-1,3.45764E-1
-8.10882E-1,3.90533E-1
-7.89947E-1,4.36950E-1
-7.72033E-1,4.79309E-1
-7.40112E-1,5.22491E-1
-7.00927E-1,5.56823E-1
-6.64764E-1,5.92376E-1
-6.26739E-1,6.33697E-1
-5.84625E-1,6.69494E-1
-5.35186E-1,7.03430E-1
-4.78302E-1,7.33947E-1
-4.32495E-1,7.61169E-1
-3.85131E-1,7.91778E-1
-3.34747E-1,8.13201E-1
-2.85980E-1,8.28735E-1
-2.33642E-1,8.43261E-1
-1.83441E-1,8.53759E-1
-1.30310E-1,8.62884E-1
-7.19604E-2,8.64624E-1
-1.52893E-2,8.6203E-1
0.45929E-1,8.59588E-1
1.09863E-1,8.50708E-1
1.66290E-1,8.35449E-1
2.20336E-1,8.12255E-1
2.78869E-1,7.89764E-1
3.40454E-1,7.67761E-1
3.97003E-1,7.37274E-1
4.44335E-1,7.02056E-1
4.90722E-1,6.64306E-1
5.38421E-1,6.24481E-1
5.88073E-1,5.85784E-1
6.26007E-1,5.36010E-1
6.52496E-1,4.82208E-1
6.82189E-1,4.28039E-1
7.12036E-1,3.70910E-1
7.36511E-1,3.10913E-1
7.55859E-1,2.39837E-1
7.68646E-1,1.72088E-1
7.83874E-1,1.11175E-1
7.96295E-1,0.45684E-1
7.97302E-1,-2.07824E-2
7.92144E-1,-8.77685E-2
7.82562E-1,-1.55883E-1
7.70233E-1,-2.14325E-1
7.51709E-1,-2.77862E-1
7.21374E-1,-3.44085E-1
6.85180E-1,-4.06433E-1
6.46606E-1,-4.65759E-1
6.04064E-1,-5.21453E-1
5.53558E-1,-5.72784E-1
4.96734E-1,-6.18347E-1
4.39086E-1,-6.59301E-1
3.77502E-1,-6.96533E-1
3.14300E-1,-7.27294E-1
2.50396E-1,-7.52075E-1
1.94519E-1,-7.71606E-1
1.48437E-1,-7.84912E-1
1.12152E-1,-7.94433E-1
END

