! Network Analyzer HP8722ES.07.74: Oct 30, 2002 Serial No. US39175660
! Hewlett-Packard
! 30 May 2012  16:28:10
! Frequency       S11                S21                S12                S22
# HZ  S  DB R  50 
50000000  -37.954   -145.72    .1667   -4.3369    .1277   -4.6156   -38.794   -91.957   
72250000  -19.843   -68.457    .1952    4.7516   -.0293    3.0254   -26.26   -88.759   
94500000  -26.76   -90.857    .0778   -5.6937    .0396   -6.5712   -30.756   -110.03   
116750000  -25.115    121.14    .571   -4.5964    .3144   -5.3572   -22.218    106.99   
139000000  -32.624    146.66    .2395   -8.7122    .1400   -10.085   -29.305    107.94   
161250000  -21.057   -91.138    .3889   -11.076    .2676   -12.391   -20.901   -88.187   
183500000  -20.038   -93.704    .2569   -13.333    .1699   -14.794   -19.927   -100.88   
205750000  -30.403   -157.72    .2592   -17.791    .1717   -18.561   -27.211   -126.57   
228000000  -25.742    154.42    .3354   -17.948    .2017   -19.151   -29.511   -123.89   
250250000  -24.414   -123.85    .0612   -23.386    .0155   -23.623   -24.323   -119.51   
272500000  -20.482   -106.29    .3246   -22.926    .2124   -23.485   -19.558   -112.3   
294750000  -22.382   -126.15    .0683   -27.485    .0034   -27.933   -22.051   -127.88   
317000000  -23.428   -174.43    .2993   -27.838    .1516   -28.309   -24.48   -141.07   
339250000  -23.386   -156.72    .1699   -30.74    .0707   -31.284   -23.839   -131.78   
361500000  -21.209   -127.31    .2367   -33.05    .1126   -33.904   -21.216   -129.87   
383750000  -20.266   -134.74    .2053   -34.773    .0348   -35.826   -20.341   -135.66   
406000000  -21.194   -151.82   -.0182   -38.224   -.1453   -38.838   -21.488   -142.43   
428250000  -21.855   -159.32    .0180   -39.173   -.0980   -40.258   -21.454   -143.92   
450500000  -20.944   -151.71    .0239   -42.924   -.0282   -43.245   -20.634   -146.87   
472750000  -20.415   -153.25    .2467   -45.636    .1471   -45.527   -20.395   -151.34   
495000000  -19.966   -153.95   -.1069   -47.274   -.0762   -47.163   -20.316   -151.64   
517250000  -16.414    165.66   -.0866   -49.651    .1125   -49.671   -20.265    142.25   
539500000  -19.165    171.82   -.0806   -51.225    .0321   -51.505   -21.341    170.49   
561750000  -19.679   -135.66   -.0559   -53.594   -.1458   -52.524   -19.356   -156.27   
584000000  -18.915   -148.74   -.1313   -56.242   -.0900   -54.944   -19.05   -161.78   
606250000  -17.988    177.65    .0346   -57.29    .0406   -57.39   -19.24   -170.52   
628500000  -17.25    172.42   -.0823   -59.848    .0030   -59.994   -19.985   -175.72   
650750000  -19.28   -173.55   -.1226   -61.876   -.0711   -62.051   -19.149   -169.42   
673000000  -20.161   -168.65   -.0515   -63.427   -.2962   -65.047   -18.902   -168.59   
695250000  -18.872   -178.89   -.1066   -66.204   -.1461   -66.323   -18.873   -175.13   
717500000  -18.017    173.52   -.2645   -68.229   -.3079   -69.221   -18.948   -178.87   
739750000  -18.558    170.53   -.2866   -69.951   -.2830   -70.204   -19.059    179.38   
762000000  -18.842    168.14   -.1938   -72.567   -.2455   -72.673   -18.214   -137.79   
784250000  -19.025    167.3   -.1123   -74.649   -.1999   -75.2   -18.213   -148.31   
806500000  -16.409    170.55   -.1192   -77.581   -.1467   -78.067   -16.829    157.83   
828750000  -15.288    164.7   -.3217   -79.426   -.2275   -79.991   -17.07    144.1   
851000000  -19.487    154.76   -.1060   -80.824   -.1841   -80.846   -19.79    171.36   
873250000  -21.498    155.92   -.0068   -83.098   -.1969   -82.704   -19.254   -176.51   
895500000  -19.17    153.39   -.0827   -84.942   -.1797   -85.459   -19.202    162.06   
917750000  -17.658    150.14   -.1610   -86.743   -.2384   -87.105   -19.513    156.14   
940000000  -19.168    144.34   -.1745   -88.988   -.1800   -89.12   -19.684    156.13   
962250000  -21.524    142.09   -.1583   -91.107   -.1619   -91.739   -19.728    154.52   
984500000  -21.078    144.96   -.1743   -93.531   -.2231   -93.925   -19.989    152.37   
1006750000  -19.674    137.63   -.1640   -96.016   -.1912   -95.556   -19.027    136.15   
1029000000  -19.77    134.26   -.2056   -97.656   -.2206   -97.457   -19.669    127.64   
1051250000  -20.966    133.09   -.1310   -98.768   -.1576   -99.472   -20.978    148.07   
1073500000  -22.475    135.01   -.2240   -100.68   -.2571   -102.04   -20.868    150.84   
1095750000  -21.124    127.09   -.174   -103.69   -.2093   -103.89   -21.01    139.04   
1118000000  -19.891    123.84   -.2009   -106.63   -.1925   -106.04   -20.503    123.97   
1140250000  -21.333    116.35   -.1889   -108.25   -.1708   -108.01   -21.969    130.86   
1162500000  -22.504    106.58   -.1457   -109.81   -.2104   -110.15   -23.176    146.52   
1184750000  -23.306    110.47   -.1647   -111.97   -.2189   -112.32   -22.542    141.14   
1207000000  -23.411    103.94   -.1758   -114.29   -.2647   -114.29   -22.042    125.17   
1229250000  -24.438    103.79   -.1832   -116.5   -.1889   -116.05   -23.046    116.61   
1251500000  -24.491    74.667   -.1548   -117.9   -.1606   -118.12   -26.163    135.3   
1273750000  -25.684    39.595   -.1038   -120.23   -.1995   -120.64   -25.413    154.82   
1296000000  -25.623    99.535   -.1503   -122.35   -.1980   -122.7   -25.054    123.89   
1318250000  -23.148    121.29   -.2100   -124.3   -.2322   -124.69   -24.145    110.03   
1340500000  -25.788    88.114   -.1716   -126.7   -.1884   -126.53   -27.23    118.71   
1362750000  -25.384    55.276   -.1746   -128.61   -.1264   -129.03   -30.243    133.3   
1385000000  -28.15    53.422   -.1569   -130.85   -.1511   -131.57   -29.334    132.74   
1407250000  -32.163    90.319   -.1488   -133.15   -.1729   -133.02   -32.427    132.14   
1429500000  -31.164    89.328   -.1836   -135.46   -.1643   -135.24   -31.991    145.9   
1451750000  -29.395    48.476   -.1559   -137.3   -.1997   -137.06   -29.162   -92.473   
1474000000  -28.338    24.056   -.1418   -139.74   -.2004   -139.34   -22.376   -98.08   
1496250000  -33.248    13.24   -.2115   -141.49   -.2195   -141.76   -31.103    150.41   
1518500000  -30.846   -8.7616   -.1841   -143.22   -.2336   -143.82   -27.074    120.75   
1540750000  -32.269   -23.537   -.1781   -145.85   -.2014   -145.94   -34.903    174.17   
1563000000  -18.912    32.171   -.1800   -147.84   -.1458   -148.66   -24.475   -99.954   
1585250000  -24.702    4.5717   -.1904   -150.25   -.1943   -151.04   -26.572   -134.73   
1607500000  -24.727   -106.66   -.2478   -152.47   -.2501   -152.85   -30.32   -160.39   
1629750000  -26.914   -130.57   -.0460   -153.87    .0004   -154.25   -29.456   -152.3   
1652000000  -29.474   -32.903   -.2813   -156.3   -.3200   -155.97   -23.013   -112.34   
1674250000  -26.725   -35.262   -.2635   -158.38   -.3125   -157.48   -20.2   -118.41   
1696500000  -26.338   -97.612   -.2513   -160.64   -.2866   -160.75   -26.721   -156.76   
1718750000  -25.553   -108.21   -.2672   -162.53   -.2619   -162.49   -28.687   -169.34   
1741000000  -25.205   -100.39   -.2287   -164.87   -.2446   -165.1   -25.126   -148.25   
1763250000  -23.47   -66.772   -.2511   -167.6   -.253   -167.78   -21.562   -136.58   
1785500000  -24.691   -95.315   -.2621   -169.41   -.2570   -169.33   -22.599   -148.25   
1807750000  -21.632   -125.45   -.3896   -171.27   -.5188   -172.41   -25.247   -161.27   
1830000000  -22.276   -130.91   -.3238   -172.98   -.2659   -173.96   -24.393   -153.68   
1852250000  -23.434   -117.06   -.2788   -175.04   -.2910   -175.44   -21.596   -152.32   
1874500000  -22.491   -115.11   -.2562   -177.15   -.3067   -177.38   -20.786   -156.61   
1896750000  -21.225   -130.03   -.3228   -179.68   -.3309   -179.52   -21.553   -162.85   
1919000000  -20.818   -137.77   -.3800    178.47   -.3123    178.53   -22.068   -165.14   
1941250000  -21.097   -134.17   -.2565    176.47   -.2894    175.73   -20.636   -164.88   
1963500000  -21.544   -132.87   -.2216    173.55   -.3794    173.41   -20.003   -163.06   
1985750000  -20.672   -140.88   -.2974    171.34   -.3891    171.83   -19.814   -169.35   
2008000000  -20.387   -145.41   -.4369    169.59   -.3846    169.09   -21.523    142.08   
2030250000  -19.983   -149.44   -.3442    167.88   -.2782    167.32   -21.443    157.91   
2052500000  -20.526   -151.68   -.2988    166.22   -.3525    165.58   -17.617   -157.01   
2074750000  -19.932   -149.92   -.2556    163.88   -.4706    163.63   -16.773   -161.51   
2097000000  -18.617   -156.76   -.3892    161   -.4034    161.63   -18.947    170.94   
2119250000  -18.136   -163.63   -.4832    159.39   -.3478    159.44   -20.139    161.74   
2141500000  -19.039   -163.69   -.3212    157.64   -.3158    157   -18.739    174.8   
2163750000  -19.237   -168.75   -.1937    154.77   -.3891    154.49   -17.767    179.3   
2186000000  -18.927   -170.78   -.2566    152.32   -.4744    152.84   -18.201    169.01   
2208250000  -15.125   -163.65   -.4237    150.52   -.4083    150.96   -18.385    160.85   
2230500000  -16.603   -169.48   -.4892    149.24   -.2718    148.87   -18.718    161.11   
2252750000  -19.613    162.4   -.3111    147.15   -.3847    146.28   -18.414    160.73   
2275000000  -20.214    162.43   -.2686    144.7   -.5082    144.65   -18.534    158.26   
2297250000  -18.201   -175.95   -.3383    142.24   -.4986    142.16   -17.312    139.17   
2319500000  -17.294   -175.33   -.3778    140.31   -.3716    140.79   -16.802    125.37   
2341750000  -18.932    166.97   -.3633    138.25   -.3246    138.41   -18.488    150.67   
2364000000  -19.279    155.14   -.2926    135.38   -.4243    134.87   -18.391    150.41   
2386250000  -19.193    162.29   -.2730    133.74   -.4288    133.65   -18.454    144.41   
2408500000  -19.064    158.88   -.4673    131.1   -.3388    131.65   -17.531    127.05   
2430750000  -19.111    156.49   -.5219    129.9   -.3005    129.8   -18.976    130.3   
2453000000  -18.059    130.14   -.1697    128.64   -.1815    127.65   -19.297    145.32   
2475250000  -19.939    130.74   -.2947    125.98   -.4699    125.09   -18.719    141.07   
2497500000  -19.771    155.86   -.3697    123.3   -.5079    123.76   -18.877    128.17   
2519750000  -19.175    152.16   -.5502    120.91   -.4055    121.93   -19.237    122.45   
2542000000  -19.989    141.19   -.3981    118.98   -.3231    119.2   -20.55    135.91   
2564250000  -20.584    127.98   -.2643    116.22   -.4397    116.41   -19.889    164.85   
2586500000  -20.78    136.69   -.3304    114.81   -.4800    114.38   -20.353    120.38   
2608750000  -20.496    135.43   -.4372    112.77   -.4914    113.25   -18.213    99.321   
2631000000  -20.954    132.9   -.4854    110.65   -.3911    111.07   -20.551    101.81   
2653250000  -18.784    113.12   -.4065    109.26   -.3739    108.18   -22.678    116.32   
2675500000  -20.418    112.36   -.3701    106.89   -.4943    105.85   -21.899    113.09   
2697750000  -24.935    147.18   -.4435    104.41   -.4398    103.76   -21.506    100.7   
2720000000  -25.754    152.35   -.4696    102.11   -.4503    101.75   -22.125    94.723   
2742250000  -23.607    116.23   -.3953    99.94   -.3843    99.962   -25.807    106.51   
2764500000  -23.672    100.45   -.3904    97.689   -.3902    97.462   -28.077    149.13   
2786750000  -25.404    112.71   -.3963    95.823   -.4555    95.57   -24.515    86.896   
2809000000  -25.788    124.54   -.4228    93.81   -.5030    94.752   -25.733    75.423   
2831250000  -26.262    118.05   -.4586    91.826   -.4330    91.799   -26.639    76.435   
2853500000  -20.008    86.848   -.3914    90.11   -.4293    89.408   -31.964    79.465   
2875750000  -23.176    89.206   -.4093    87.729   -.4603    87.064   -30.268    84.4   
2898000000  -37.966    147.74   -.4198    85.025   -.4761    84.592   -22.831    54.722   
2920250000  -34.483    177.43   -.4188    82.553   -.4605    82.557   -22.774    45.196   
2942500000  -33.572    99.246   -.4291    80.538   -.4164    80.395   -39.788    8.4004   
2964750000  -33.247    70.513   -.3779    78.181   -.3748    77.842   -37.345   -131.72   
2987000000  -56.063    166.15   -.4439    76.334   -.4487    76.293   -35.177    15.632   
3009250000  -35.612   -157.1   -.4307    74.789   -.4182    74.891   -25.577    23.888   
3031500000  -37.414   -145.07   -.4416    72.232   -.4607    72.118   -34.51   -27.577   
3053750000  -32.726   -147.92   -.3728    70.661   -.4096    70.416   -29.149   -122.99   
3076000000  -31.218   -129.31   -.4326    68.1   -.4383    67.906   -31.568   -126.5   
3098250000  -23.119   -119.84   -.4641    65.359   -.4209    64.84   -33.706   -92.813   
3120500000  -22.111   -121.97   -.4781    63.129   -.5052    62.169   -30.165   -93.045   
3142750000  -27.972   -119.47   -.4795    61.221   -.5146    60.776   -27.519   -109.35   
3165000000  -26.794   -112.46   -.4581    58.85   -.4919    58.674   -26.365   -116.67   
3187250000  -25.34   -119.3   -.4916    56.901   -.4761    57.003   -28.98   -103.8   
3209500000  -22.907   -126.78   -.5771    55.085   -.5645    54.764   -25.659    8.0901   
3231750000  -23.854   -130.51   -.5172    52.666   -.5383    51.91   -25.791   -120.93   
3254000000  -23.652   -141.52   -.4971    49.704   -.5522    49.861   -18.011   -131.67   
3276250000  -22.855   -133.02   -.4916    47.288   -.5300    48.051   -19.675   -138.71   
3298500000  -22.016   -137.33   -.5818    45.268   -.5419    45.564   -22.674   -140.55   
3320750000  -21.304   -135.4   -.6392    43.584   -.5471    43.103   -21.976   -138.32   
3343000000  -20.752   -157.78   -.5843    42.041   -.6185    41.18   -17.618   -138.12   
3365250000  -20.815   -168.62   -.5173    39.63   -.6526    40.073   -15.989   -141.03   
3387500000  -20.07   -140.35   -.4999    37.635   -.6217    37.932   -19.938   -151.15   
3409750000  -19.209   -143.05   -.5434    36.043   -.5716    35.774   -19.132   -154.61   
3432000000  -19.391   -149.22   -.5874    33.206   -.6040    32.456   -18.966   -156.36   
3454250000  -18.48   -160.82   -.5892    30.873   -.6517    30.77   -15.878   -151.22   
3476500000  -18.547   -155.84   -.5631    28.521   -.7139    28.945   -16.997   -160.24   
3498750000  -18.173   -151.94   -.6889    25.748   -.6442    26.428   -18.485   -170.01   
3521000000  -17.512   -154.58   -.7245    24.237   -.5987    23.671   -18.396   -169.64   
3543250000  -17.405   -160.4   -.6777    22.478   -.6731    21.544   -16.071   -162.73   
3565500000  -17.457   -162.65   -.5711    20.572   -.7385    20.12   -15.285   -165.35   
3587750000  -17.416   -164.15   -.5100    18.35   -.7855    18.951   -17.432   -179.88   
3610000000  -16.779   -168.22   -.5894    15.892   -.6919    17.184   -17.83    176.33   
3632250000  -17.015   -172.08   -.6789    13.328   -.6644    13.822   -16.765    176.44   
3654500000  -16.296   -177.22   -.6600    11.429   -.6911    12.077   -15.64    177.41   
3676750000  -16.574   -178.08   -.7220    9.7366   -.6831    10.057   -16.139    171.03   
3699000000  -16.448   -174.86   -.7165    7.7481   -.6968    7.3677   -17.422    163.49   
3721250000  -16.41   -178.67   -.6543    5.5852   -.7260    4.8821   -17.272    165.01   
3743500000  -16.407    175.53   -.6288    3.4305   -.7902    2.9004   -16.293    164.57   
3765750000  -16.808    173.07   -.5891    .5053   -.7906    1.4131   -15.863    159.83   
3788000000  -16.752    172.21   -.6882   -1.9185   -.8031   -.0178   -17.503    142.89   
3810250000  -17.03    169.18   -.7922   -3.4978   -.7491   -3.3536   -18.585    120.52   
3832500000  -16.669    162.86   -.8593   -5.4932   -.5902   -5.9766   -16.312    151.66   
3854750000  -15.028    144.76   -.8012   -8.0667   -.6671   -8.0008   -15.054    159.04   
3877000000  -16.349    156.46   -.6314   -9.3796   -.7567   -9.3068   -15.885    146.12   
3899250000  -17.255    167.24   -.6533   -11.923   -.7845   -10.881   -16.809    124.32   
3921500000  -17.088    162.64   -.7467   -14.058   -.6726   -13.39   -17.146    129.77   
3943750000  -16.591    152.22   -.7981   -15.721   -.7349   -16.014   -16.435    142.42   
3966000000  -17.084    146.08   -.7286   -17.873   -.8183   -17.599   -15.838    137.17   
3988250000  -18.344    154.45   -.6653   -20.253   -.7012   -19.366   -16.44    127.05   
4010500000  -18.639    156.21   -.7594   -22.431   -.5664   -21.959   -16.764    121.53   
4032750000  -17.665    147.01   -.8740   -24.773   -.5457   -25.315   -17.513    129.35   
4055000000  -17.557    143.8   -.8926   -26.759   -.6833   -28.098   -15.882    160.53   
4077250000  -18.014    142.63   -.6844   -28.181   -.8715   -29.198   -17.926    121.66   
4099500000  -28.697    148.67   -.5749   -31.024   -.5961   -31.36   -14.922    91.376   
4121750000  -22.643    140.66   -.7407   -33.843   -.6404   -33.398   -16.995    93.444   
4144000000  -16.742    145.35   -.6854   -36.009   -.5772   -35.173   -19.461    107.34   
4166250000  -17.212    137.8   -.7246   -37.365   -.6790   -37.687   -19.114    106.58   
4188500000  -21.061    123.26   -.7146   -38.797   -.7158   -39.464   -18.578    95.861   
4210750000  -22.755    122.1   -.6947   -40.975   -.6865   -41.447   -19.166    86.911   
4233000000  -20.638    131.42   -.6592   -44.474   -.6026   -44.264   -21.911    92.061   
4255250000  -20.515    132.04   -.6967   -46.349   -.6395   -46.821   -25.093    116.02   
4277500000  -21.647    128.61   -.6748   -48.065   -.7208   -48.952   -22.232    79.667   
4299750000  -22.241    128.5   -.5872   -50.543   -.7118   -50.573   -20.729    67.403   
4322000000  -23.178    131.95   -.6187   -53.241   -.6631   -52.844   -22.69    61.699   
4344250000  -23.915    127.19   -.6743   -55.622   -.6485   -55.322   -29.212    76.702   
4366500000  -25.998    127.63   -.6982   -57.616   -.6631   -57.685   -29.355    71.333   
4388750000  -27.519    128.63   -.6899   -59.687   -.6838   -60.017   -24.699    46.391   
4411000000  -29.174    132.3   -.6546   -61.913   -.6615   -62.363   -25.301    25.659   
4433250000  -28.604    144.92   -.6428   -64.118   -.6641   -64.524   -29.08    16.588   
4455500000  -28.68    153.97   -.6520   -66.539   -.6855   -67.092   -29.536   -6.0384   
4477750000  -29.008    168.04   -.6939   -68.735   -.6965   -69.175   -29.894   -17.772   
4500000000  -28.788    175.18   -.7000   -70.4   -.5833   -70.288   -25.397   -8.925   

