CITIFILE A.01.00
#NA VERSION HP8722ES.07.74: Oct 30, 2002
NAME FORMATTED
VAR FREQ MAG 201
DATA S[1,1] RI
DATA S[2,1] RI
DATA S[1,2] RI
DATA S[2,2] RI
SEG_LIST_BEGIN
SEG 50000000 4500000000 201
SEG_LIST_END
BEGIN
-3.19335E1,0E0
-3.11728E1,0E0
-2.87587E1,0E0
-2.61992E1,0E0
-2.51201E1,0E0
-2.59628E1,0E0
-2.56279E1,0E0
-2.49658E1,0E0
-2.35029E1,0E0
-2.38418E1,0E0
-2.43203E1,0E0
-2.30068E1,0E0
-2.22246E1,0E0
-2.17636E1,0E0
-2.19599E1,0E0
-2.17548E1,0E0
-2.13242E1,0E0
-2.08359E1,0E0
-2.01513E1,0E0
-1.99941E1,0E0
-1.97773E1,0E0
-1.93574E1,0E0
-1.89355E1,0E0
-1.84834E1,0E0
-1.83847E1,0E0
-1.89199E1,0E0
-1.88779E1,0E0
-1.86406E1,0E0
-1.85898E1,0E0
-1.87119E1,0E0
-1.89658E1,0E0
-1.85556E1,0E0
-1.78593E1,0E0
-1.79472E1,0E0
-1.84443E1,0E0
-1.85322E1,0E0
-1.83632E1,0E0
-1.83828E1,0E0
-1.91142E1,0E0
-1.99414E1,0E0
-1.99677E1,0E0
-1.97207E1,0E0
-1.99775E1,0E0
-2.06650E1,0E0
-2.09453E1,0E0
-2.07119E1,0E0
-2.07480E1,0E0
-2.11523E1,0E0
-2.16572E1,0E0
-2.20068E1,0E0
-2.22871E1,0E0
-2.27685E1,0E0
-2.35957E1,0E0
-2.42089E1,0E0
-2.43007E1,0E0
-2.46552E1,0E0
-2.49375E1,0E0
-2.54677E1,0E0
-2.65634E1,0E0
-2.73466E1,0E0
-2.78847E1,0E0
-2.86269E1,0E0
-2.96923E1,0E0
-3.04726E1,0E0
-3.10605E1,0E0
-2.91679E1,0E0
-2.82451E1,0E0
-2.75781E1,0E0
-2.7375E1,0E0
-2.68349E1,0E0
-2.62470E1,0E0
-2.53994E1,0E0
-2.63486E1,0E0
-2.64199E1,0E0
-2.62402E1,0E0
-2.59228E1,0E0
-2.48027E1,0E0
-2.41669E1,0E0
-2.37519E1,0E0
-2.33144E1,0E0
-2.27460E1,0E0
-2.23671E1,0E0
-2.18535E1,0E0
-2.18408E1,0E0
-2.16123E1,0E0
-2.11767E1,0E0
-2.08183E1,0E0
-2.07187E1,0E0
-2.05918E1,0E0
-2.02373E1,0E0
-1.97509E1,0E0
-1.95175E1,0E0
-1.93535E1,0E0
-1.92021E1,0E0
-1.84306E1,0E0
-1.79550E1,0E0
-1.80976E1,0E0
-1.83945E1,0E0
-1.82744E1,0E0
-1.79970E1,0E0
-1.79980E1,0E0
-1.85908E1,0E0
-1.89609E1,0E0
-1.88828E1,0E0
-1.87255E1,0E0
-1.87050E1,0E0
-1.90830E1,0E0
-1.92031E1,0E0
-1.91875E1,0E0
-1.93017E1,0E0
-1.95185E1,0E0
-1.97568E1,0E0
-2.01054E1,0E0
-2.025E1,0E0
-2.01093E1,0E0
-2.02871E1,0E0
-2.09931E1,0E0
-2.17324E1,0E0
-2.21357E1,0E0
-2.25898E1,0E0
-2.32255E1,0E0
-2.42255E1,0E0
-2.50605E1,0E0
-2.43574E1,0E0
-2.39882E1,0E0
-2.60400E1,0E0
-2.75839E1,0E0
-2.87509E1,0E0
-2.98164E1,0E0
-3.40742E1,0E0
-3.63027E1,0E0
-3.83378E1,0E0
-3.75898E1,0E0
-3.71230E1,0E0
-3.56289E1,0E0
-3.40390E1,0E0
-3.00253E1,0E0
-2.87656E1,0E0
-2.70410E1,0E0
-2.56376E1,0E0
-2.45859E1,0E0
-2.46621E1,0E0
-2.47685E1,0E0
-2.39179E1,0E0
-2.31328E1,0E0
-2.24775E1,0E0
-2.21787E1,0E0
-2.16386E1,0E0
-2.10039E1,0E0
-2.05087E1,0E0
-2.00039E1,0E0
-1.96093E1,0E0
-1.92412E1,0E0
-1.87695E1,0E0
-1.83886E1,0E0
-1.81386E1,0E0
-1.78564E1,0E0
-1.76132E1,0E0
-1.73945E1,0E0
-1.71259E1,0E0
-1.69921E1,0E0
-1.68554E1,0E0
-1.67060E1,0E0
-1.65615E1,0E0
-1.65654E1,0E0
-1.65283E1,0E0
-1.66328E1,0E0
-1.66464E1,0E0
-1.64433E1,0E0
-1.64355E1,0E0
-1.65566E1,0E0
-1.65966E1,0E0
-1.65732E1,0E0
-1.65810E1,0E0
-1.68203E1,0E0
-1.73359E1,0E0
-1.75244E1,0E0
-1.75673E1,0E0
-1.76992E1,0E0
-1.94287E1,0E0
-2.02236E1,0E0
-1.99941E1,0E0
-1.97910E1,0E0
-2.02753E1,0E0
-2.10175E1,0E0
-2.13925E1,0E0
-2.02236E1,0E0
-2.00820E1,0E0
-2.08671E1,0E0
-2.17197E1,0E0
-2.21269E1,0E0
-2.25908E1,0E0
-2.35742E1,0E0
-2.48105E1,0E0
-2.58046E1,0E0
-2.67246E1,0E0
-2.75576E1,0E0
-2.82539E1,0E0
-2.86523E1,0E0
-2.88330E1,0E0
-2.87783E1,0E0
END
BEGIN
2.15835E-1,0E0
2.26265E-1,0E0
2.57995E-1,0E0
2.70858E-1,0E0
2.84088E-1,0E0
3.04122E-1,0E0
3.01727E-1,0E0
2.66540E-1,0E0
2.42111E-1,0E0
2.29293E-1,0E0
2.16896E-1,0E0
2.13676E-1,0E0
1.95076E-1,0E0
1.83731E-1,0E0
1.39907E-1,0E0
1.33567E-1,0E0
1.26037E-1,0E0
8.64906E-2,0E0
4.03289E-2,0E0
-5.51223E-4,0E0
-5.92565E-3,0E0
-2.72388E-2,0E0
-2.57234E-2,0E0
-7.27615E-2,0E0
-7.49664E-2,0E0
-6.99577E-2,0E0
-7.36808E-2,0E0
-1.03488E-1,0E0
-1.25679E-1,0E0
-1.58340E-1,0E0
-1.62605E-1,0E0
-1.62147E-1,0E0
-2.00737E-1,0E0
-2.00637E-1,0E0
-1.63848E-1,0E0
-1.34681E-1,0E0
-1.29997E-1,0E0
-1.38908E-1,0E0
-1.44462E-1,0E0
-1.23424E-1,0E0
-1.31698E-1,0E0
-1.60125E-1,0E0
-1.67015E-1,0E0
-1.76017E-1,0E0
-1.75926E-1,0E0
-1.81991E-1,0E0
-1.84104E-1,0E0
-1.81488E-1,0E0
-1.75651E-1,0E0
-1.82037E-1,0E0
-1.76208E-1,0E0
-1.73446E-1,0E0
-1.59622E-1,0E0
-1.54113E-1,0E0
-1.63253E-1,0E0
-1.64260E-1,0E0
-1.64077E-1,0E0
-1.60308E-1,0E0
-1.59484E-1,0E0
-1.70875E-1,0E0
-1.71653E-1,0E0
-1.61918E-1,0E0
-1.67617E-1,0E0
-1.68991E-1,0E0
-1.72027E-1,0E0
-1.76483E-1,0E0
-1.77444E-1,0E0
-1.90582E-1,0E0
-1.76895E-1,0E0
-1.86859E-1,0E0
-1.98204E-1,0E0
-2.08679E-1,0E0
-2.21130E-1,0E0
-2.26593E-1,0E0
-2.27050E-1,0E0
-2.57919E-1,0E0
-2.73407E-1,0E0
-2.82043E-1,0E0
-2.85949E-1,0E0
-2.84378E-1,0E0
-2.97836E-1,0E0
-3.16253E-1,0E0
-3.15429E-1,0E0
-2.91458E-1,0E0
-2.87689E-1,0E0
-3.10241E-1,0E0
-3.22830E-1,0E0
-3.19381E-1,0E0
-3.01605E-1,0E0
-3.20571E-1,0E0
-3.57971E-1,0E0
-3.61373E-1,0E0
-3.26599E-1,0E0
-3.14102E-1,0E0
-3.31970E-1,0E0
-3.65310E-1,0E0
-3.54156E-1,0E0
-3.23471E-1,0E0
-3.25958E-1,0E0
-3.52218E-1,0E0
-3.67477E-1,0E0
-3.48739E-1,0E0
-3.17871E-1,0E0
-3.40194E-1,0E0
-3.76388E-1,0E0
-3.52264E-1,0E0
-3.40423E-1,0E0
-3.41339E-1,0E0
-3.78128E-1,0E0
-3.95996E-1,0E0
-3.67019E-1,0E0
-3.39645E-1,0E0
-3.77853E-1,0E0
-4.05090E-1,0E0
-4.10385E-1,0E0
-3.84613E-1,0E0
-3.91082E-1,0E0
-4.20440E-1,0E0
-4.29718E-1,0E0
-4.23004E-1,0E0
-4.10278E-1,0E0
-4.12628E-1,0E0
-4.25262E-1,0E0
-4.17816E-1,0E0
-4.09179E-1,0E0
-4.12719E-1,0E0
-4.16763E-1,0E0
-4.21447E-1,0E0
-4.15023E-1,0E0
-4.12948E-1,0E0
-4.18548E-1,0E0
-4.23141E-1,0E0
-4.16442E-1,0E0
-4.18411E-1,0E0
-4.23416E-1,0E0
-4.37759E-1,0E0
-4.42855E-1,0E0
-4.46762E-1,0E0
-4.53872E-1,0E0
-4.83093E-1,0E0
-4.95178E-1,0E0
-4.99908E-1,0E0
-5.01831E-1,0E0
-5.16449E-1,0E0
-5.42297E-1,0E0
-5.55542E-1,0E0
-5.46997E-1,0E0
-5.44525E-1,0E0
-5.51116E-1,0E0
-5.64819E-1,0E0
-5.65918E-1,0E0
-5.55023E-1,0E0
-5.69946E-1,0E0
-5.99548E-1,0E0
-6.24939E-1,0E0
-6.28906E-1,0E0
-6.17858E-1,0E0
-6.17858E-1,0E0
-6.34399E-1,0E0
-6.30310E-1,0E0
-6.29943E-1,0E0
-6.35467E-1,0E0
-6.47369E-1,0E0
-6.64306E-1,0E0
-6.64306E-1,0E0
-6.65588E-1,0E0
-6.84478E-1,0E0
-7.04071E-1,0E0
-7.16217E-1,0E0
-7.12951E-1,0E0
-7.16430E-1,0E0
-7.38952E-1,0E0
-7.54669E-1,0E0
-7.45605E-1,0E0
-7.17865E-1,0E0
-7.11883E-1,0E0
-7.46582E-1,0E0
-7.80761E-1,0E0
-7.71850E-1,0E0
-7.39959E-1,0E0
-7.41668E-1,0E0
-7.44537E-1,0E0
-7.39593E-1,0E0
-7.16796E-1,0E0
-6.88507E-1,0E0
-6.84936E-1,0E0
-7.02331E-1,0E0
-6.92932E-1,0E0
-6.78924E-1,0E0
-6.63757E-1,0E0
-6.5802E-1,0E0
-6.58508E-1,0E0
-6.62872E-1,0E0
-6.56860E-1,0E0
-6.52313E-1,0E0
-6.61560E-1,0E0
-6.72302E-1,0E0
-6.75964E-1,0E0
-6.76239E-1,0E0
-6.77673E-1,0E0
-6.84143E-1,0E0
END
BEGIN
1.19426E-1,0E0
1.2117E-1,0E0
1.41151E-1,0E0
1.47171E-1,0E0
1.53411E-1,0E0
1.86439E-1,0E0
1.82998E-1,0E0
1.68434E-1,0E0
1.48910E-1,0E0
1.32377E-1,0E0
1.18187E-1,0E0
1.09779E-1,0E0
8.58955E-2,0E0
6.29272E-2,0E0
1.85565E-2,0E0
1.40552E-2,0E0
1.34124E-2,0E0
-7.62510E-3,0E0
-7.62510E-3,0E0
-7.99274E-3,0E0
-8.08477E-3,0E0
-6.93607E-3,0E0
2.89380E-3,0E0
-1.76849E-2,0E0
-1.69496E-2,0E0
-7.53326E-2,0E0
-1.00826E-1,0E0
-1.23977E-1,0E0
-1.51535E-1,0E0
-1.92421E-1,0E0
-2.21450E-1,0E0
-2.32246E-1,0E0
-2.22412E-1,0E0
-2.27836E-1,0E0
-2.11990E-1,0E0
-1.97242E-1,0E0
-1.96235E-1,0E0
-1.93382E-1,0E0
-1.95541E-1,0E0
-1.94946E-1,0E0
-1.95953E-1,0E0
-1.99310E-1,0E0
-1.96136E-1,0E0
-1.98852E-1,0E0
-2.03033E-1,0E0
-2.07397E-1,0E0
-1.99905E-1,0E0
-2.02659E-1,0E0
-2.02430E-1,0E0
-2.17727E-1,0E0
-2.07992E-1,0E0
-2.01011E-1,0E0
-2.02018E-1,0E0
-2.05925E-1,0E0
-2.09045E-1,0E0
-2.04681E-1,0E0
-1.84928E-1,0E0
-1.79512E-1,0E0
-1.81259E-1,0E0
-1.76254E-1,0E0
-1.76483E-1,0E0
-1.71936E-1,0E0
-1.76391E-1,0E0
-1.91680E-1,0E0
-1.98898E-1,0E0
-1.94992E-1,0E0
-1.99264E-1,0E0
-2.06474E-1,0E0
-1.77764E-1,0E0
-1.92146E-1,0E0
-2.03399E-1,0E0
-2.15568E-1,0E0
-2.32154E-1,0E0
-2.39364E-1,0E0
-2.39776E-1,0E0
-2.76580E-1,0E0
-3.04962E-1,0E0
-2.98294E-1,0E0
-2.98950E-1,0E0
-3.05328E-1,0E0
-3.17642E-1,0E0
-3.26141E-1,0E0
-3.3078E-1,0E0
-3.10836E-1,0E0
-3.28476E-1,0E0
-3.41842E-1,0E0
-3.37753E-1,0E0
-3.40835E-1,0E0
-3.63433E-1,0E0
-3.79745E-1,0E0
-3.75198E-1,0E0
-3.64715E-1,0E0
-3.65356E-1,0E0
-3.93432E-1,0E0
-4.01382E-1,0E0
-3.72985E-1,0E0
-3.70330E-1,0E0
-3.93249E-1,0E0
-4.19342E-1,0E0
-4.16854E-1,0E0
-3.95446E-1,0E0
-3.97750E-1,0E0
-4.20166E-1,0E0
-4.13589E-1,0E0
-3.83926E-1,0E0
-3.38623E-1,0E0
-3.52691E-1,0E0
-3.78860E-1,0E0
-3.76205E-1,0E0
-3.61084E-1,0E0
-3.75518E-1,0E0
-4.01138E-1,0E0
-4.45373E-1,0E0
-4.34127E-1,0E0
-4.15023E-1,0E0
-4.27688E-1,0E0
-4.44366E-1,0E0
-4.45877E-1,0E0
-4.32189E-1,0E0
-4.17770E-1,0E0
-4.26956E-1,0E0
-4.45373E-1,0E0
-4.36645E-1,0E0
-4.35134E-1,0E0
-4.36554E-1,0E0
-4.49691E-1,0E0
-4.59716E-1,0E0
-4.54147E-1,0E0
-4.35821E-1,0E0
-4.38079E-1,0E0
-4.36462E-1,0E0
-4.36554E-1,0E0
-4.27047E-1,0E0
-4.23889E-1,0E0
-4.2453E-1,0E0
-4.43130E-1,0E0
-4.52545E-1,0E0
-4.63104E-1,0E0
-4.65316E-1,0E0
-4.87457E-1,0E0
-5.01739E-1,0E0
-5.20477E-1,0E0
-5.24017E-1,0E0
-5.27923E-1,0E0
-5.35797E-1,0E0
-5.56121E-1,0E0
-5.68725E-1,0E0
-5.80627E-1,0E0
-5.83404E-1,0E0
-5.93994E-1,0E0
-6.09649E-1,0E0
-6.33483E-1,0E0
-6.37146E-1,0E0
-6.29455E-1,0E0
-6.36779E-1,0E0
-6.60644E-1,0E0
-6.86523E-1,0E0
-6.92291E-1,0E0
-6.85241E-1,0E0
-6.91925E-1,0E0
-7.03979E-1,0E0
-7.07397E-1,0E0
-7.05596E-1,0E0
-7.06298E-1,0E0
-7.20397E-1,0E0
-7.40173E-1,0E0
-7.48504E-1,0E0
-7.35229E-1,0E0
-7.30957E-1,0E0
-7.35351E-1,0E0
-7.34527E-1,0E0
-7.17681E-1,0E0
-7.07885E-1,0E0
-7.17773E-1,0E0
-7.33673E-1,0E0
-7.19238E-1,0E0
-6.89117E-1,0E0
-6.74682E-1,0E0
-7.03064E-1,0E0
-6.83288E-1,0E0
-6.57867E-1,0E0
-6.40136E-1,0E0
-6.56219E-1,0E0
-6.80511E-1,0E0
-6.80969E-1,0E0
-6.42578E-1,0E0
-6.48773E-1,0E0
-6.60278E-1,0E0
-6.79504E-1,0E0
-6.77246E-1,0E0
-6.67602E-1,0E0
-6.64306E-1,0E0
-6.75872E-1,0E0
-6.79016E-1,0E0
-6.70929E-1,0E0
-6.67144E-1,0E0
-6.71936E-1,0E0
-6.62597E-1,0E0
-6.51184E-1,0E0
-6.36840E-1,0E0
-6.25640E-1,0E0
END
BEGIN
-3.34882E1,0E0
-3.21328E1,0E0
-2.95761E1,0E0
-2.68808E1,0E0
-2.52255E1,0E0
-2.56904E1,0E0
-2.47714E1,0E0
-2.43916E1,0E0
-2.33544E1,0E0
-2.38662E1,0E0
-2.44248E1,0E0
-2.35683E1,0E0
-2.22587E1,0E0
-2.18535E1,0E0
-2.21240E1,0E0
-2.19218E1,0E0
-2.13388E1,0E0
-2.08349E1,0E0
-2.06992E1,0E0
-2.08417E1,0E0
-2.05380E1,0E0
-2.01943E1,0E0
-1.99951E1,0E0
-1.99365E1,0E0
-1.97695E1,0E0
-1.95752E1,0E0
-1.92226E1,0E0
-1.91640E1,0E0
-1.91650E1,0E0
-1.90185E1,0E0
-1.87656E1,0E0
-1.84345E1,0E0
-1.81728E1,0E0
-1.83037E1,0E0
-1.83476E1,0E0
-1.83681E1,0E0
-1.85537E1,0E0
-1.87636E1,0E0
-1.91777E1,0E0
-1.95947E1,0E0
-1.94853E1,0E0
-1.95449E1,0E0
-1.97988E1,0E0
-1.99921E1,0E0
-2.01816E1,0E0
-2.02919E1,0E0
-2.05751E1,0E0
-2.11679E1,0E0
-2.15781E1,0E0
-2.17304E1,0E0
-2.20419E1,0E0
-2.27773E1,0E0
-2.34794E1,0E0
-2.39199E1,0E0
-2.40585E1,0E0
-2.47275E1,0E0
-2.58994E1,0E0
-2.67978E1,0E0
-2.76923E1,0E0
-2.86328E1,0E0
-2.92197E1,0E0
-2.89667E1,0E0
-2.95195E1,0E0
-2.90673E1,0E0
-2.98632E1,0E0
-2.87265E1,0E0
-2.79531E1,0E0
-2.81181E1,0E0
-2.91298E1,0E0
-2.79736E1,0E0
-2.69921E1,0E0
-2.58232E1,0E0
-2.64248E1,0E0
-2.62177E1,0E0
-2.49667E1,0E0
-2.39873E1,0E0
-2.43066E1,0E0
-2.49052E1,0E0
-2.41728E1,0E0
-2.30449E1,0E0
-2.25341E1,0E0
-2.26064E1,0E0
-2.23261E1,0E0
-2.15771E1,0E0
-2.09228E1,0E0
-2.09121E1,0E0
-2.10058E1,0E0
-2.04443E1,0E0
-1.96875E1,0E0
-1.94462E1,0E0
-1.94658E1,0E0
-1.93115E1,0E0
-1.87753E1,0E0
-1.83125E1,0E0
-1.84218E1,0E0
-1.87001E1,0E0
-1.86240E1,0E0
-1.83945E1,0E0
-1.81904E1,0E0
-1.80527E1,0E0
-1.80937E1,0E0
-1.80947E1,0E0
-1.80566E1,0E0
-1.79306E1,0E0
-1.79941E1,0E0
-1.82773E1,0E0
-1.85507E1,0E0
-1.86064E1,0E0
-1.87275E1,0E0
-1.90273E1,0E0
-1.93642E1,0E0
-1.95605E1,0E0
-1.94062E1,0E0
-1.96679E1,0E0
-2.02109E1,0E0
-2.05908E1,0E0
-2.07275E1,0E0
-2.10468E1,0E0
-2.18261E1,0E0
-2.32353E1,0E0
-2.38017E1,0E0
-2.42382E1,0E0
-2.49150E1,0E0
-2.64091E1,0E0
-2.75722E1,0E0
-2.71474E1,0E0
-2.63896E1,0E0
-2.85712E1,0E0
-3.02304E1,0E0
-3.14502E1,0E0
-3.05380E1,0E0
-3.11435E1,0E0
-3.20468E1,0E0
-3.33027E1,0E0
-3.24335E1,0E0
-3.14082E1,0E0
-3.03134E1,0E0
-3.04257E1,0E0
-2.96367E1,0E0
-2.91376E1,0E0
-2.83125E1,0E0
-2.60703E1,0E0
-2.45722E1,0E0
-2.38798E1,0E0
-2.32529E1,0E0
-2.16298E1,0E0
-2.02480E1,0E0
-1.94121E1,0E0
-1.95722E1,0E0
-1.94707E1,0E0
-1.85E1,0E0
-1.77890E1,0E0
-1.79130E1,0E0
-1.82568E1,0E0
-1.77041E1,0E0
-1.71543E1,0E0
-1.69355E1,0E0
-1.72138E1,0E0
-1.71806E1,0E0
-1.67744E1,0E0
-1.64521E1,0E0
-1.66455E1,0E0
-1.69287E1,0E0
-1.67666E1,0E0
-1.64853E1,0E0
-1.65908E1,0E0
-1.70117E1,0E0
-1.70361E1,0E0
-1.66982E1,0E0
-1.65E1,0E0
-1.65732E1,0E0
-1.67568E1,0E0
-1.66044E1,0E0
-1.62119E1,0E0
-1.62304E1,0E0
-1.64746E1,0E0
-1.67070E1,0E0
-1.65742E1,0E0
-1.66855E1,0E0
-1.64697E1,0E0
-1.66357E1,0E0
-1.70664E1,0E0
-1.74023E1,0E0
-1.75546E1,0E0
-1.80234E1,0E0
-1.85927E1,0E0
-2.00459E1,0E0
-2.07939E1,0E0
-2.09755E1,0E0
-2.14863E1,0E0
-2.30048E1,0E0
-2.44609E1,0E0
-2.48593E1,0E0
-2.48886E1,0E0
-2.58671E1,0E0
-2.7125E1,0E0
-2.81543E1,0E0
-2.76093E1,0E0
-2.70439E1,0E0
-2.71435E1,0E0
-2.71572E1,0E0
END

