CITIFILE A.01.00
#NA VERSION HP8722ES.07.74: Oct 30, 2002
NAME DATA
VAR FREQ MAG 201
DATA S[1,1] RI
DATA S[2,1] RI
DATA S[1,2] RI
DATA S[2,2] RI
SEG_LIST_BEGIN
SEG 50000000 4500000000 201
SEG_LIST_END
BEGIN
-1.04570E-2,-7.12871E-3
3.73878E-2,-9.47074E-2
-6.86645E-4,-4.59175E-2
-2.86979E-2,4.74948E-2
-1.95303E-2,1.28498E-2
-1.75857E-3,-8.85276E-2
-6.43158E-3,-9.93614E-2
-2.79350E-2,-1.14479E-2
-4.65679E-2,2.22969E-2
-3.35121E-2,-4.99572E-2
-2.65312E-2,-9.08088E-2
-4.48494E-2,-6.13784E-2
-6.70738E-2,-6.54220E-3
-6.22024E-2,-2.67677E-2
-5.27381E-2,-6.92062E-2
-6.82678E-2,-6.88934E-2
-7.68241E-2,-4.11644E-2
-7.55691E-2,-2.85224E-2
-7.89871E-2,-4.25148E-2
-8.51287E-2,-4.29153E-2
-9.01870E-2,-4.40902E-2
-1.46408E-1,0.37437E-1
-1.08966E-1,1.56707E-2
-7.42111E-2,-7.25250E-2
-9.68551E-2,-5.87997E-2
-1.25953E-1,0.05180E-1
-1.36055E-1,0.18096E-1
-1.07959E-1,-1.21994E-2
-9.6241E-2,-1.93138E-2
-1.13845E-1,-2.20871E-3
-1.24843E-1,1.41830E-2
-1.16455E-1,1.94206E-2
-1.11816E-1,2.34909E-2
-1.09138E-1,2.46009E-2
-1.49139E-1,0.24826E-1
-1.65924E-1,0.45387E-1
-9.59549E-2,4.52346E-2
-7.68318E-2,3.43437E-2
-9.83696E-2,4.92820E-2
-1.13563E-1,6.52008E-2
-8.94165E-2,6.41670E-2
-6.61964E-2,5.15556E-2
-7.23152E-2,5.07164E-2
-7.67097E-2,6.99691E-2
-7.16590E-2,7.35397E-2
-6.11267E-2,6.53381E-2
-5.31864E-2,5.31768E-2
-5.29937E-2,7.00836E-2
-5.63888E-2,8.41064E-2
-3.80744E-2,7.68623E-2
-2.13928E-2,7.18345E-2
-2.39067E-2,6.40258E-2
-1.62620E-2,6.55326E-2
-1.42993E-2,5.82618E-2
1.57661E-2,5.75027E-2
4.00505E-2,3.31268E-2
-8.67080E-3,5.16166E-2
-3.61461E-2,5.94787E-2
0.16899E-2,5.13267E-2
3.06472E-2,4.42199E-2
2.33192E-2,3.14235E-2
-1.37329E-4,2.46505E-2
0.03242E-2,2.76536E-2
2.24762E-2,2.5383E-2
3.49655E-2,1.56097E-2
2.11782E-2,0.49829E-2
2.83536E-2,-4.36973E-3
2.23274E-2,-9.72557E-3
9.59396E-2,6.03485E-2
5.80101E-2,0.46386E-2
-1.66358E-2,-5.55915E-2
-2.93426E-2,-3.42674E-2
2.82077E-2,-1.82514E-2
3.76453E-2,-2.66170E-2
-6.38580E-3,-4.77790E-2
-1.64871E-2,-5.01213E-2
-9.90295E-3,-5.40237E-2
2.64530E-2,-6.16302E-2
-5.39779E-3,-5.80215E-2
-4.80651E-2,-6.75087E-2
-5.03959E-2,-5.81512E-2
-3.06396E-2,-5.99746E-2
-3.18527E-2,-6.79740E-2
-5.58548E-2,-6.64978E-2
-6.73904E-2,-6.11724E-2
-6.14166E-2,-6.32133E-2
-5.69534E-2,-6.13517E-2
-7.18078E-2,-5.84030E-2
-7.87353E-2,-5.42907E-2
-8.62808E-2,-5.09491E-2
-8.28628E-2,-4.46548E-2
-8.72192E-2,-5.05142E-2
-1.07742E-1,-4.62799E-2
-1.18911E-1,-3.49273E-2
-1.07200E-1,-3.13644E-2
-1.07086E-1,-2.13012E-2
-1.11686E-1,-1.81350E-2
-1.68205E-1,-4.93545E-2
-1.45378E-1,-2.70004E-2
-9.96589E-2,3.16200E-2
-9.30137E-2,2.94494E-2
-1.22711E-1,-8.68988E-3
-1.36108E-1,-1.11084E-2
-1.10172E-1,2.54936E-2
-9.85870E-2,4.56771E-2
-1.04534E-1,3.33900E-2
-1.03900E-1,4.01382E-2
-1.01577E-1,4.41932E-2
-8.06045E-2,9.55886E-2
-6.57196E-2,7.62977E-2
-9.36927E-2,4.19998E-2
-9.72366E-2,5.13534E-2
-7.8022E-2,6.27479E-2
-5.75408E-2,7.36923E-2
-6.65245E-2,6.27021E-2
-6.72836E-2,6.62841E-2
-6.09931E-2,6.56356E-2
-4.51736E-2,1.05781E-1
-3.62510E-2,8.81424E-2
-4.76150E-2,3.07083E-2
-4.56714E-2,2.39238E-2
-2.91748E-2,5.92174E-2
-1.18866E-2,6.44378E-2
-2.07271E-2,4.95185E-2
-2.91175E-2,4.23049E-2
-2.28691E-2,4.29153E-2
0.54931E-2,9.97543E-2
0.09613E-2,6.93702E-2
-1.06878E-2,6.74676E-3
-1.88550E-2,0.08478E-2
-3.36837E-3,2.06890E-2
0.72593E-2,2.05135E-2
-1.52766E-3,3.76641E-4
-1.52664E-2,-6.44779E-3
-1.10425E-2,-7.71141E-3
-1.95770E-2,-1.22699E-2
-1.74121E-2,-2.12650E-2
-3.47442E-2,-6.05735E-2
-4.15229E-2,-6.65245E-2
-1.96514E-2,-3.47690E-2
-1.74789E-2,-4.22687E-2
-2.64625E-2,-4.71572E-2
-4.28390E-2,-5.73120E-2
-4.16793E-2,-4.87823E-2
-5.14106E-2,-4.08706E-2
-4.91180E-2,-5.26275E-2
-5.82962E-2,-5.37338E-2
-6.12793E-2,-6.04248E-2
-8.48922E-2,-3.46832E-2
-8.92524E-2,-1.79672E-2
-7.63778E-2,-6.32934E-2
-8.75396E-2,-6.58416E-2
-9.21478E-2,-5.48934E-2
-1.12518E-1,-3.91387E-2
-1.07849E-1,-4.83856E-2
-1.08902E-1,-5.80596E-2
-1.20285E-1,-5.71594E-2
-1.27006E-1,-4.52270E-2
-1.27914E-1,-3.99627E-2
-1.29524E-1,-3.67813E-2
-1.41845E-1,-2.95867E-2
-1.39663E-1,-1.94397E-2
-1.53007E-1,-7.43103E-3
-1.48269E-1,-4.97436E-3
-1.4991E-1,-1.34964E-2
-1.51145E-1,-3.52478E-3
-1.50779E-1,0.11779E-1
-1.43356E-1,0.17433E-1
-1.44004E-1,0.19691E-1
-1.38259E-1,0.26428E-1
-1.40228E-1,0.43258E-1
-1.44767E-1,1.02287E-1
-1.39572E-1,0.60798E-1
-1.33789E-1,0.30288E-1
-1.33453E-1,0.41725E-1
-1.30996E-1,0.69007E-1
-1.16092E-1,7.80639E-2
-1.09172E-1,5.21965E-2
-1.07021E-1,4.71801E-2
-1.09745E-1,7.12471E-2
-1.06895E-1,7.82508E-2
-9.98954E-2,7.62939E-2
-3.13854E-2,1.9104E-2
-5.70449E-2,4.67605E-2
-1.19701E-1,8.27369E-2
-1.02115E-1,9.25941E-2
-4.85458E-2,7.40051E-2
-3.87001E-2,6.16893E-2
-6.14776E-2,6.96792E-2
-6.31141E-2,6.99958E-2
-5.16204E-2,6.46438E-2
-4.80976E-2,6.04572E-2
-4.63638E-2,5.15880E-2
-3.85150E-2,5.07621E-2
-3.06091E-2,3.96976E-2
-2.62641E-2,3.28712E-2
-2.34069E-2,2.57234E-2
-3.03897E-2,2.13451E-2
-3.30791E-2,1.61552E-2
-3.46775E-2,0.73471E-2
-3.62281E-2,0.30555E-2
END
BEGIN
1.01647E0,-7.70874E-2
1.01922E0,0.84716E-1
1.00402E0,-1.00097E-1
1.06451E0,-8.55712E-2
1.01611E0,-1.55700E-1
1.02630E0,-2.00927E-1
1.00225E0,-2.37548E-1
9.81018E-1,-3.14819E-1
9.888E-1,-3.20282E-1
9.24346E-1,-3.99749E-1
9.56085E-1,-4.04388E-1
8.94134E-1,-4.65179E-1
9.15283E-1,-4.83367E-1
8.76495E-1,-5.21240E-1
8.61358E-1,-5.60455E-1
8.41064E-1,-5.83984E-1
7.83935E-1,-6.17462E-1
7.76855E-1,-6.32995E-1
7.34283E-1,-6.82922E-1
7.19390E-1,-7.35504E-1
6.70196E-1,-7.25616E-1
6.41021E-1,-7.54547E-1
6.20483E-1,-7.72399E-1
5.89721E-1,-7.99652E-1
5.47363E-1,-8.18908E-1
5.42572E-1,-8.44787E-1
4.97558E-1,-8.56536E-1
4.64782E-1,-8.69567E-1
4.44702E-1,-8.89068E-1
3.98590E-1,-9.03808E-1
3.59771E-1,-9.00817E-1
3.31695E-1,-9.08905E-1
2.92968E-1,-9.33013E-1
2.61322E-1,-9.51934E-1
2.12127E-1,-9.63287E-1
1.76849E-1,-9.47265E-1
1.57562E-1,-9.75219E-1
1.20086E-1,-9.91973E-1
0.87341E-1,-9.86663E-1
0.55786E-1,-9.80041E-1
0.17303E-1,-9.7995E-1
-1.89819E-2,-9.81750E-1
-6.03637E-2,-9.78271E-1
-1.02844E-1,-9.75891E-1
-1.30127E-1,-9.67895E-1
-1.50146E-1,-9.73510E-1
-1.80664E-1,-9.57641E-1
-2.31933E-1,-9.52331E-1
-2.79602E-1,-9.36279E-1
-3.06457E-1,-9.29260E-1
-3.33252E-1,-9.25170E-1
-3.67065E-1,-9.09973E-1
-4.03137E-1,-8.93188E-1
-4.36950E-1,-8.76220E-1
-4.59655E-1,-8.68164E-1
-4.97558E-1,-8.53698E-1
-5.25878E-1,-8.30322E-1
-5.50109E-1,-8.06335E-1
-5.85876E-1,-7.86132E-1
-6.11572E-1,-7.65869E-1
-6.42334E-1,-7.42919E-1
-6.72241E-1,-7.17224E-1
-6.97876E-1,-6.86706E-1
-7.21862E-1,-6.66076E-1
-7.50793E-1,-6.35742E-1
-7.63671E-1,-6.07666E-1
-7.84179E-1,-5.86120E-1
-8.10791E-1,-5.49926E-1
-8.29162E-1,-5.21423E-1
-8.49365E-1,-4.85473E-1
-8.61816E-1,-4.49218E-1
-8.93066E-1,-4.38049E-1
-8.86474E-1,-3.89160E-1
-9.01855E-1,-3.57482E-1
-9.16503E-1,-3.22143E-1
-9.24987E-1,-2.91076E-1
-9.40246E-1,-2.54211E-1
-9.48852E-1,-2.08557E-1
-9.53735E-1,-1.78344E-1
-9.45068E-1,-1.45080E-1
-9.56176E-1,-1.17797E-1
-9.64782E-1,-8.36792E-2
-9.69726E-1,-4.83398E-2
-9.63501E-1,-5.40161E-3
-9.56848E-1,0.25604E-1
-9.69055E-1,0.59692E-1
-9.68627E-1,1.09588E-1
-9.55322E-1,1.45507E-1
-9.35302E-1,1.71752E-1
-9.39727E-1,2.01782E-1
-9.38385E-1,2.30102E-1
-9.32830E-1,2.69561E-1
-9.04083E-1,3.11309E-1
-8.85314E-1,3.33038E-1
-8.91235E-1,3.66607E-1
-8.84613E-1,4.16931E-1
-8.59802E-1,4.50958E-1
-8.29040E-1,4.6875E-1
-8.12225E-1,4.8349E-1
-8.10485E-1,5.23437E-1
-7.91320E-1,5.60211E-1
-7.60376E-1,5.88958E-1
-7.36755E-1,6.11450E-1
-7.15545E-1,6.38549E-1
-6.88171E-1,6.79168E-1
-6.70043E-1,7.00073E-1
-6.22955E-1,7.14080E-1
-6.04095E-1,7.22381E-1
-6.12304E-1,7.65991E-1
-5.67901E-1,7.82226E-1
-5.26123E-1,8.00994E-1
-4.82177E-1,8.05297E-1
-4.62738E-1,8.35632E-1
-4.28527E-1,8.70239E-1
-4.03900E-1,8.73840E-1
-3.68103E-1,8.7677E-1
-3.33435E-1,8.84918E-1
-3.14758E-1,9.00878E-1
-2.78381E-1,9.16961E-1
-2.36511E-1,9.20318E-1
-1.98822E-1,9.26269E-1
-1.64947E-1,9.41162E-1
-1.27929E-1,9.47448E-1
-9.69238E-2,9.5047E-1
-6.32934E-2,9.50378E-1
-3.02429E-2,9.48089E-1
-1.83105E-3,9.55932E-1
0.37811E-1,9.53216E-1
0.82641E-1,9.49218E-1
1.23535E-1,9.44885E-1
1.56494E-1,9.38842E-1
1.96106E-1,9.37133E-1
2.24487E-1,9.23278E-1
2.49694E-1,9.18273E-1
2.90039E-1,9.05090E-1
3.17260E-1,9.03930E-1
3.54858E-1,8.82751E-1
3.95263E-1,8.61633E-1
4.27795E-1,8.44238E-1
4.55566E-1,8.29406E-1
4.90722E-1,8.11828E-1
5.16052E-1,7.91626E-1
5.35583E-1,7.67272E-1
5.71411E-1,7.49145E-1
6.10778E-1,7.20275E-1
6.40991E-1,6.94335E-1
6.58203E-1,6.64367E-1
6.72973E-1,6.40502E-1
6.94335E-1,6.26098E-1
7.25647E-1,6.00952E-1
7.47619E-1,5.76477E-1
7.59521E-1,5.52734E-1
7.81982E-1,5.11840E-1
8.02002E-1,4.79492E-1
8.23486E-1,4.47509E-1
8.32031E-1,4.01306E-1
8.38867E-1,3.77685E-1
8.54675E-1,3.53637E-1
8.76647E-1,3.29040E-1
8.95019E-1,2.96875E-1
8.98681E-1,2.55859E-1
8.99902E-1,2.13195E-1
9.08447E-1,1.83654E-1
9.06982E-1,1.55639E-1
9.12414E-1,1.24145E-1
9.23034E-1,0.90271E-1
9.28497E-1,0.55664E-1
9.34387E-1,0.08239E-1
9.23309E-1,-3.09448E-2
9.11132E-1,-5.56945E-2
9.01641E-1,-8.67004E-2
9.02862E-1,-1.27960E-1
9.1745E-1,-1.51550E-1
9.07531E-1,-1.91619E-1
8.90136E-1,-2.22900E-1
8.78082E-1,-2.47161E-1
8.75152E-1,-2.82226E-1
8.68988E-1,-3.20678E-1
8.46954E-1,-3.49639E-1
8.21044E-1,-3.78936E-1
8.05694E-1,-4.06280E-1
8.14666E-1,-4.36492E-1
8.02063E-1,-4.82391E-1
7.62664E-1,-5.11413E-1
7.47528E-1,-5.43335E-1
7.31170E-1,-5.58319E-1
7.17804E-1,-5.77087E-1
6.96960E-1,-6.05316E-1
6.61407E-1,-6.49383E-1
6.37054E-1,-6.67785E-1
6.18347E-1,-6.88293E-1
5.93963E-1,-7.21618E-1
5.57312E-1,-7.46063E-1
5.22491E-1,-7.63671E-1
4.94232E-1,-7.79235E-1
4.66186E-1,-7.97363E-1
4.36645E-1,-8.18176E-1
4.05395E-1,-8.35510E-1
3.69354E-1,-8.50982E-1
3.34838E-1,-8.60351E-1
3.09478E-1,-8.69110E-1
END
BEGIN
1.01153E0,-8.16650E-2
9.95239E-1,0.52612E-1
9.97985E-1,-1.14990E-1
1.03234E0,-9.68017E-2
1.00054E0,-1.77978E-1
1.00726E0,-2.21313E-1
9.85961E-1,-2.60406E-1
9.66918E-1,-3.24707E-1
9.66857E-1,-3.35784E-1
9.17846E-1,-4.01458E-1
9.39880E-1,-4.08386E-1
8.83850E-1,-4.68627E-1
8.95904E-1,-4.82605E-1
8.61602E-1,-5.23529E-1
8.40820E-1,-5.65094E-1
8.14056E-1,-5.87707E-1
7.65991E-1,-6.16729E-1
7.54577E-1,-6.38977E-1
7.26074E-1,-6.82891E-1
7.12554E-1,-7.25769E-1
6.73980E-1,-7.26867E-1
6.55639E-1,-7.72277E-1
6.24755E-1,-7.85583E-1
5.98297E-1,-7.80395E-1
5.68450E-1,-8.10150E-1
5.41473E-1,-8.46313E-1
5.00274E-1,-8.66272E-1
4.64874E-1,-8.76159E-1
4.07745E-1,-8.76251E-1
3.94897E-1,-9.00543E-1
3.42437E-1,-9.02374E-1
3.27819E-1,-9.10736E-1
2.89520E-1,-9.28009E-1
2.49633E-1,-9.44824E-1
2.03308E-1,-9.62005E-1
1.69311E-1,-9.59320E-1
1.55761E-1,-9.66552E-1
1.24145E-1,-9.69665E-1
0.77545E-1,-9.76440E-1
0.49133E-1,-9.71679E-1
0.15045E-1,-9.79370E-1
-2.97851E-2,-9.81079E-1
-6.67114E-2,-9.72351E-1
-9.47265E-2,-9.73632E-1
-1.26525E-1,-9.66674E-1
-1.61621E-1,-9.68627E-1
-2.02575E-1,-9.49462E-1
-2.34375E-1,-9.47631E-1
-2.70263E-1,-9.40002E-1
-3.03100E-1,-9.32495E-1
-3.36242E-1,-9.16320E-1
-3.70361E-1,-9.02038E-1
-3.99047E-1,-8.84094E-1
-4.29687E-1,-8.79089E-1
-4.62707E-1,-8.65783E-1
-4.98107E-1,-8.40820E-1
-5.28015E-1,-8.22570E-1
-5.54138E-1,-8.00537E-1
-5.82458E-1,-7.86315E-1
-6.20666E-1,-7.65564E-1
-6.52038E-1,-7.35290E-1
-6.68823E-1,-7.16674E-1
-6.96716E-1,-6.90979E-1
-7.15454E-1,-6.65710E-1
-7.41333E-1,-6.36657E-1
-7.65869E-1,-6.03454E-1
-7.85705E-1,-5.74707E-1
-8.09448E-1,-5.47241E-1
-8.39904E-1,-5.11413E-1
-8.55590E-1,-4.73510E-1
-8.64563E-1,-4.43359E-1
-9.00756E-1,-4.34448E-1
-8.80249E-1,-3.92578E-1
-8.91052E-1,-3.69567E-1
-9.13452E-1,-3.18969E-1
-9.25354E-1,-2.91870E-1
-9.39514E-1,-2.50061E-1
-9.49279E-1,-2.05627E-1
-9.54040E-1,-1.79809E-1
-9.33776E-1,-1.24389E-1
-9.64477E-1,-1.01989E-1
-9.63989E-1,-7.68432E-2
-9.64294E-1,-4.41894E-2
-9.62585E-1,-8.14819E-3
-9.64355E-1,0.24719E-1
-9.64538E-1,0.72021E-1
-9.50927E-1,1.09924E-1
-9.46472E-1,1.35955E-1
-9.39392E-1,1.81091E-1
-9.44854E-1,2.12585E-1
-9.29962E-1,2.39166E-1
-9.08844E-1,2.67028E-1
-9.05975E-1,3.00842E-1
-8.99566E-1,3.37371E-1
-8.87603E-1,3.76831E-1
-8.62945E-1,4.11865E-1
-8.42468E-1,4.32159E-1
-8.34167E-1,4.63073E-1
-8.29589E-1,5.01098E-1
-7.95715E-1,5.31097E-1
-7.69256E-1,5.45715E-1
-7.45636E-1,5.79284E-1
-7.42370E-1,6.05712E-1
-7.20489E-1,6.39434E-1
-6.71875E-1,6.74896E-1
-6.56982E-1,6.88720E-1
-6.39160E-1,7.18627E-1
-6.18408E-1,7.42095E-1
-5.98266E-1,7.75329E-1
-5.44647E-1,7.75116E-1
-5.24200E-1,7.84118E-1
-5.04821E-1,8.09936E-1
-4.70123E-1,8.41003E-1
-4.22912E-1,8.51379E-1
-3.90564E-1,8.61877E-1
-3.73107E-1,8.68225E-1
-3.4375E-1,8.92028E-1
-2.98797E-1,9.10064E-1
-2.58056E-1,9.08752E-1
-2.26104E-1,9.23339E-1
-1.93420E-1,9.29565E-1
-1.65527E-1,9.42291E-1
-1.24176E-1,9.47967E-1
-9.21020E-2,9.44427E-1
-7.81860E-2,9.40490E-1
-2.98767E-2,9.50897E-1
0.09826E-1,9.51721E-1
0.48584E-1,9.47143E-1
0.89233E-1,9.42443E-1
1.22863E-1,9.40368E-1
1.59057E-1,9.39819E-1
2.01721E-1,9.36279E-1
2.25036E-1,9.22607E-1
2.48413E-1,9.20043E-1
2.91198E-1,9.02526E-1
3.19763E-1,8.98742E-1
3.57605E-1,8.80981E-1
4.05029E-1,8.62304E-1
4.40490E-1,8.34350E-1
4.60144E-1,8.22509E-1
4.91272E-1,8.07189E-1
5.15564E-1,7.93945E-1
5.40649E-1,7.65380E-1
5.79834E-1,7.39746E-1
6.04919E-1,7.17407E-1
6.28906E-1,6.99707E-1
6.57775E-1,6.70837E-1
6.85546E-1,6.41601E-1
7.00927E-1,6.13159E-1
7.09838E-1,5.97168E-1
7.34252E-1,5.72265E-1
7.59643E-1,5.47363E-1
7.87109E-1,5.00610E-1
7.97119E-1,4.74609E-1
8.06030E-1,4.45800E-1
8.31481E-1,4.13269E-1
8.54858E-1,3.74755E-1
8.60778E-1,3.39843E-1
8.62426E-1,3.15979E-1
8.64013E-1,2.96691E-1
8.82202E-1,2.72827E-1
8.99536E-1,2.21313E-1
9.03076E-1,1.93237E-1
9.10156E-1,1.61438E-1
9.15283E-1,1.18347E-1
9.16473E-1,0.78277E-1
9.11865E-1,0.46203E-1
9.12719E-1,0.22522E-1
9.11682E-1,-2.74658E-4
9.15802E-1,-5.36804E-2
9.29229E-1,-9.72900E-2
9.17053E-1,-1.28906E-1
9.04510E-1,-1.48223E-1
8.97216E-1,-1.72454E-1
9.00329E-1,-2.14325E-1
8.83209E-1,-2.53509E-1
8.67492E-1,-2.75177E-1
8.70239E-1,-3.05908E-1
8.68896E-1,-3.50341E-1
8.48907E-1,-4.01580E-1
8.15399E-1,-4.35363E-1
7.89611E-1,-4.41253E-1
7.97271E-1,-4.85900E-1
7.75512E-1,-5.11352E-1
7.64862E-1,-5.39001E-1
7.31842E-1,-5.65399E-1
7.10937E-1,-5.85327E-1
6.92596E-1,-6.11633E-1
6.68121E-1,-6.51184E-1
6.35711E-1,-6.77459E-1
6.04400E-1,-6.94091E-1
5.85144E-1,-7.11639E-1
5.59600E-1,-7.38403E-1
5.28045E-1,-7.63183E-1
4.95300E-1,-7.82989E-1
4.61914E-1,-8.00598E-1
4.29870E-1,-8.20922E-1
3.98498E-1,-8.36303E-1
3.59710E-1,-8.51226E-1
3.28125E-1,-8.62640E-1
3.15399E-1,-8.80249E-1
END
BEGIN
-3.92437E-4,-1.14827E-2
0.10547E-2,-4.86316E-2
-9.92965E-3,-2.72331E-2
-2.26326E-2,7.40814E-2
-1.05552E-2,3.25908E-2
0.28533E-2,-9.01069E-2
-1.90353E-2,-9.90333E-2
-2.59780E-2,-3.50112E-2
-1.86538E-2,-2.77690E-2
-2.99415E-2,-5.29098E-2
-3.99322E-2,-9.73510E-2
-4.84886E-2,-6.23321E-2
-4.64439E-2,-3.75213E-2
-4.28237E-2,-4.79354E-2
-5.57327E-2,-6.67228E-2
-6.87637E-2,-6.71997E-2
-6.67877E-2,-5.13725E-2
-6.8367E-2,-4.98161E-2
-7.78503E-2,-5.08117E-2
-8.38470E-2,-4.58374E-2
-8.48541E-2,-4.58145E-2
-7.66944E-2,5.93872E-2
-8.45108E-2,1.41639E-2
-9.85870E-2,-4.33349E-2
-1.05957E-1,-3.48892E-2
-1.07654E-1,-1.79824E-2
-9.98954E-2,-7.48443E-3
-1.08421E-1,-2.02484E-2
-1.11236E-1,-2.24380E-2
-1.13449E-1,-9.67407E-3
-1.12850E-1,-2.23541E-3
-1.11434E-1,0.12054E-2
-9.09729E-2,-8.25195E-2
-1.04522E-1,-6.45370E-2
-1.33415E-1,0.54359E-1
-1.13502E-1,8.21609E-2
-1.01284E-1,1.53923E-2
-1.08772E-1,-6.62994E-3
-1.04293E-1,3.37600E-2
-9.67330E-2,4.27856E-2
-9.48371E-2,4.19654E-2
-9.31472E-2,4.4384E-2
-8.87107E-2,4.64363E-2
-8.06694E-2,7.74879E-2
-6.34422E-2,8.22601E-2
-7.58285E-2,4.72564E-2
-7.90252E-2,4.40940E-2
-6.72264E-2,5.83572E-2
-5.2742E-2,7.82661E-2
-5.21488E-2,6.02970E-2
-5.78632E-2,3.82671E-2
-5.81150E-2,4.68235E-2
-4.55322E-2,6.46247E-2
-3.15399E-2,6.29615E-2
-3.49655E-2,3.45974E-2
-4.85305E-2,2.28138E-2
-3.11641E-2,4.63905E-2
-2.12574E-2,5.82962E-2
-2.08969E-2,3.81546E-2
-2.10895E-2,2.23808E-2
-2.31714E-2,2.50778E-2
-1.60436E-2,1.77326E-2
-2.08215E-2,1.40981E-2
-1.50299E-3,-3.47919E-2
-1.06926E-2,-7.53097E-2
-2.42204E-2,1.37529E-2
-2.26478E-2,3.80611E-2
-1.78890E-2,0.18253E-2
-1.03263E-2,-5.88378E-2
-3.30276E-2,-3.33328E-2
-2.87113E-2,-1.02310E-2
-2.98061E-2,-1.56517E-2
-2.68707E-2,-6.53839E-2
-4.65011E-2,-8.59527E-2
-4.23851E-2,-1.81999E-2
-3.61499E-2,-6.80160E-3
-4.71305E-2,-2.91671E-2
-6.06842E-2,-5.74226E-2
-6.30416E-2,-3.90129E-2
-5.17616E-2,-1.75476E-2
-5.40504E-2,-2.67410E-2
-7.36961E-2,-3.86543E-2
-8.38432E-2,-3.62625E-2
-7.99140E-2,-2.46543E-2
-7.61718E-2,-2.02179E-2
-8.97254E-2,-2.42424E-2
-9.56230E-2,-2.91290E-2
-1.00410E-1,-1.88789E-2
-6.62002E-2,5.15747E-2
-7.84759E-2,3.18527E-2
-1.21116E-1,-5.13916E-2
-1.37504E-1,-4.59899E-2
-1.11473E-1,1.77841E-2
-9.34600E-2,3.08418E-2
-1.15154E-1,1.04751E-2
-1.29303E-1,0.01586E-1
-1.20761E-1,2.34527E-2
-1.13761E-1,3.95164E-2
-1.09664E-1,3.75328E-2
-1.13304E-1,3.96194E-2
-1.09970E-1,4.38499E-2
-1.03107E-1,8.90884E-2
-8.36410E-2,1.17843E-1
-1.03759E-1,5.82885E-2
-1.0466E-1,5.94329E-2
-9.71641E-2,6.95457E-2
-8.00705E-2,1.06048E-1
-7.27691E-2,8.58154E-2
-8.91723E-2,6.16912E-2
-9.01451E-2,7.28263E-2
-7.03277E-2,8.94622E-2
-5.85784E-2,9.21402E-2
-6.74209E-2,6.53114E-2
-9.77630E-2,2.6474E-2
-4.85534E-2,8.28323E-2
-1.98974E-2,1.21223E-1
-1.9207E-2,9.18731E-2
-3.25775E-2,6.58493E-2
-3.15170E-2,7.39250E-2
-1.56135E-2,8.26225E-2
-6.44683E-3,7.80334E-2
-1.45587E-2,4.91313E-2
-3.38707E-2,2.02484E-2
0.32196E-2,5.93757E-2
1.30081E-2,5.00183E-2
1.09233E-2,4.52671E-2
0.46119E-2,2.47993E-2
0.29926E-2,3.05156E-2
4.16908E-2,5.89294E-2
5.12046E-2,5.15556E-2
1.01375E-2,1.49726E-3
-9.03511E-3,-1.01327E-2
1.67789E-2,0.46949E-2
4.81109E-2,2.13089E-2
1.66778E-2,-8.71086E-3
-1.89914E-2,-2.92549E-2
-1.57051E-2,-2.12211E-2
-1.01280E-3,-2.06155E-2
-1.64794E-3,-3.09829E-2
-1.39427E-2,-3.97014E-2
-2.15721E-2,-4.29458E-2
-8.48579E-3,-3.45363E-2
5.16071E-2,0.73356E-2
-2.63900E-2,-4.40368E-2
-8.35952E-2,-9.39178E-2
-7.80029E-2,-6.84967E-2
-5.67588E-2,-4.67071E-2
-5.94940E-2,-5.29632E-2
-9.79461E-2,-8.78295E-2
-1.23374E-1,-9.98153E-2
-8.82186E-2,-4.85916E-2
-9.98382E-2,-4.73785E-2
-1.03187E-1,-4.51583E-2
-1.40884E-1,-7.73773E-2
-1.32980E-1,-4.77752E-2
-1.17248E-1,-2.06451E-2
-1.18316E-1,-2.16369E-2
-1.50116E-1,-4.66766E-2
-1.66496E-1,-4.35333E-2
-1.34399E-1,-2.74658E-4
-1.28112E-1,0.08224E-1
-1.44844E-1,0.09002E-1
-1.65023E-1,0.07461E-1
-1.54060E-1,0.24330E-1
-1.29013E-1,0.38238E-1
-1.32240E-1,0.35415E-1
-1.47705E-1,0.40763E-1
-1.51138E-1,0.55519E-1
-1.06304E-1,8.04367E-2
-5.97686E-2,1.01387E-1
-1.34567E-1,0.72578E-1
-1.65016E-1,0.63232E-1
-1.33338E-1,0.89523E-1
-8.14094E-2,1.19251E-1
-8.88557E-2,1.06769E-1
-1.19468E-1,9.19456E-2
-1.18415E-1,1.09775E-1
-9.07783E-2,1.20235E-1
-7.59124E-2,1.23706E-1
-8.44268E-2,1.02958E-1
-1.51474E-1,0.53543E-1
-6.66503E-2,1.08070E-1
-4.31060E-3,1.79374E-1
-8.49151E-3,1.41075E-1
-3.17153E-2,1.01570E-1
-3.16047E-2,1.06132E-1
-1.20315E-2,1.17176E-1
0.59318E-2,1.09916E-1
-2.88772E-3,8.01963E-2
-2.44102E-2,4.99916E-2
1.38740E-2,7.60879E-2
3.53317E-2,8.48884E-2
3.47862E-2,6.45980E-2
0.79650E-2,3.36990E-2
1.09024E-2,3.22704E-2
4.01535E-2,4.21524E-2
4.89616E-2,2.35214E-2
3.36914E-2,1.00364E-2
3.31745E-2,-3.50952E-3
3.04851E-2,-9.77134E-3
5.30738E-2,-8.33511E-3
END

