! Network Analyzer HP8722ES.07.74: Oct 30, 2002 Serial No. US39175660
! Hewlett-Packard
!  1 Jun 2012  09:57:16
! Frequency       S11                S21                S12                S22
# HZ  S  DB R  50 
600000000  -7.5828   -123.69    15.524    126.99   -31.632   -4.4399   -8.7733    156.99   
601500000  -7.4882   -127.19    15.523    123.69   -31.624   -7.2318   -8.6999    155.43   
603000000  -7.227   -130.33    15.606    120.7   -31.517   -9.7229   -8.62    154.22   
604500000  -6.9428   -133.78    15.729    117.87   -31.383   -11.876   -8.5091    152.84   
606000000  -6.8686   -136.96    15.704    114.51   -31.305   -14.751   -8.4774    151.21   
607500000  -6.8551   -140.3    15.615    111.11   -31.331   -18.004   -8.4866    149.53   
609000000  -6.7839   -143.5    15.567    107.73   -31.333   -20.29   -8.4757    147.91   
610500000  -6.6656   -146.5    15.562    104.4   -31.305   -23.614   -8.4491    146.34   
612000000  -6.5565   -149.48    15.547    101.06   -31.264   -26.75   -8.4351    144.85   
613500000  -6.4352   -152.44    15.566    97.839   -31.2   -29.597   -8.4139    143.28   
615000000  -6.2933   -155.34    15.597    94.513   -31.164   -31.991   -8.3842    141.78   
616500000  -6.1978   -158.1    15.59    91.257   -31.146   -35.476   -8.375    140.26   
618000000  -6.1275   -160.94    15.583    87.961   -31.051   -38.39   -8.3786    138.78   
619500000  -5.9991   -163.56    15.592    84.689   -31.057   -41.446   -8.3643    137.28   
621000000  -5.912   -166.25    15.583    81.392   -30.994   -43.988   -8.3674    135.68   
622500000  -5.8495   -168.82    15.589    78.003   -30.941   -47.27   -8.3783    134.12   
624000000  -5.7243   -171.44    15.63    74.906   -30.882   -49.959   -8.3748    132.63   
625500000  -5.621   -173.8    15.649    71.669   -30.804   -53.222   -8.3737    131.17   
627000000  -5.5503   -176.37    15.637    68.496   -30.768   -56.275   -8.4051    129.54   
628500000  -5.5019   -178.71    15.616    65.113   -30.723   -59.333   -8.4478    128.01   
630000000  -5.4859    178.87    15.577    61.795   -30.647   -62.435   -8.4919    126.38   
631500000  -5.4511    176.47    15.553    58.626   -30.685   -65.178   -8.5243    124.71   
633000000  -5.4213    174.21    15.532    55.316   -30.593   -68.739   -8.5858    123.27   
634500000  -5.3731    171.9    15.551    52.211   -30.595   -71.393   -8.6309    121.6   
636000000  -5.3395    169.83    15.524    49.08   -30.62   -74.66   -8.6766    120.07   
637500000  -5.3178    167.5    15.511    45.839   -30.536   -77.498   -8.7578    118.49   
639000000  -5.3108    165.48    15.501    42.701   -30.523   -80.903   -8.8077    116.91   
640500000  -5.3246    163.25    15.494    39.597   -30.482   -83.787   -8.9    115.36   
642000000  -5.3027    161.15    15.482    36.447   -30.491   -86.662   -8.9746    113.72   
643500000  -5.2758    159.12    15.509    33.352   -30.423   -90.225   -9.0308    112.17   
645000000  -5.2547    157.07    15.531    30.254   -30.455   -92.844   -9.1092    110.5   
646500000  -5.2435    155.05    15.527    27.131   -30.369   -96.025   -9.2076    108.86   
648000000  -5.2476    153.02    15.527    24.016   -30.364   -99.036   -9.2915    107.17   
649500000  -5.2466    151.03    15.547    20.906   -30.311   -101.97   -9.3856    105.56   
651000000  -5.2379    148.93    15.568    17.731   -30.308   -105.14   -9.4865    103.91   
652500000  -5.2421    146.8    15.583    14.704   -30.273   -108.05   -9.5905    102.32   
654000000  -5.2089    144.78    15.611    11.522   -30.255   -111.07   -9.7012    100.55   
655500000  -5.2384    142.63    15.638    8.3881   -30.241   -113.95   -9.8061    98.811   
657000000  -5.2234    140.39    15.669    5.2748   -30.201   -117.07   -9.9065    96.991   
658500000  -5.2124    138.36    15.703    2.0284   -30.074   -120.16   -10.024    95.28   
660000000  -5.2358    136.12    15.733   -1.1632   -30.089   -123.13   -10.153    93.502   
661500000  -5.2313    133.81    15.769   -4.3781   -30.092   -126.49   -10.269    91.517   
663000000  -5.2379    131.72    15.815   -7.6561   -30.015   -129.37   -10.392    89.604   
664500000  -5.2665    129.37    15.841   -10.916   -29.973   -132.4   -10.532    87.598   
666000000  -5.3099    127.02    15.878   -14.304   -30   -135.95   -10.672    85.538   
667500000  -5.359    124.74    15.908   -17.618   -29.936   -138.49   -10.826    83.44   
669000000  -5.4675    122.1    15.951   -20.923   -29.993   -142.45   -10.989    81.087   
670500000  -5.6178    119.26    15.991   -24.277   -30.097   -145.84   -11.167    78.75   
672000000  -5.6802    116.8    16.014   -27.661   -29.963   -148.96   -11.31    76.422   
673500000  -5.6473    114.96    16.037   -31.203   -29.902   -151.9   -11.509    74   
675000000  -5.6184    112.88    16.05   -34.556   -29.732   -154.72   -11.682    71.505   
676500000  -5.6884    110.51    16.071   -38.061   -29.675   -157.97   -11.885    68.843   
678000000  -5.7898    108.11    16.088   -41.535   -29.66   -161.18   -12.098    65.88   
679500000  -5.8698    105.46    16.101   -44.971   -29.6   -164.29   -12.328    63.011   
681000000  -6.0134    103.07    16.105   -48.473   -29.628   -167.87   -12.571    59.955   
682500000  -6.1774    100.44    16.099   -51.871   -29.611   -170.63   -12.846    56.852   
684000000  -6.3335    97.748    16.103   -55.383   -29.57   -174.4   -13.091    53.335   
685500000  -6.4608    95.231    16.114   -58.859   -29.558   -177.42   -13.347    49.785   
687000000  -6.6616    92.666    16.109   -62.272   -29.562    179.24   -13.645    45.898   
688500000  -6.8514    90.114    16.097   -65.719   -29.566    176.03   -13.95    42.131   
690000000  -7.0393    87.587    16.079   -69.186   -29.541    172.72   -14.276    37.864   
691500000  -7.281    84.994    16.068   -72.517   -29.579    169.67   -14.581    33.591   
693000000  -7.4918    82.47    16.069   -75.984   -29.554    166.7   -14.897    28.926   
694500000  -7.735    79.853    16.055   -79.393   -29.5    163.33   -15.202    23.879   
696000000  -7.9898    77.349    16.038   -82.72   -29.521    160   -15.515    18.706   
697500000  -8.2814    74.706    16.017   -86.009   -29.537    156.86   -15.809    13   
699000000  -8.5831    71.892    16.015   -89.783   -29.535    153.75   -16.103    6.6714   
700500000  -8.8482    69.289    16.009   -93.119   -29.488    150.29   -16.354    .0865   
702000000  -9.1654    66.874    15.997   -96.382   -29.524    147.25   -16.545   -6.5739   
703500000  -9.5372    63.982    15.982   -99.811   -29.472    143.75   -16.664   -13.521   
705000000  -9.8853    61.16    15.972   -103.19   -29.426    140.48   -16.756   -20.822   
706500000  -10.242    58.678    15.992   -106.45   -29.472    137.83   -16.749   -28.036   
708000000  -10.647    55.827    15.977   -109.89   -29.421    134.42   -16.692   -35.795   
709500000  -11.08    53.072    15.973   -113.27   -29.415    131.4   -16.555   -42.84   
711000000  -11.532    50.131    15.969   -116.64   -29.324    127.89   -16.362   -50.282   
712500000  -12.019    47.376    15.964   -119.89   -29.36    124.35   -16.102   -57.505   
714000000  -12.527    44.504    15.973   -123.3   -29.348    121.31   -15.819   -64.238   
715500000  -13.077    41.689    15.964   -126.57   -29.38    118.62   -15.48   -70.869   
717000000  -13.679    38.672    15.965   -129.92   -29.355    115.06   -15.14   -77.745   
718500000  -14.339    35.658    15.954   -133.32   -29.312    111.78   -14.772   -83.356   
720000000  -15.041    32.658    15.959   -136.72   -29.337    108.04   -14.33   -89.015   
721500000  -15.788    29.468    15.954   -140.16   -29.333    105.07   -13.947   -94.536   
723000000  -16.626    26.296    15.948   -143.5   -29.311    101.6   -13.545   -99.804   
724500000  -17.546    22.902    15.933   -146.92   -29.311    98.501   -13.217   -104.73   
726000000  -18.55    19.624    15.935   -150.28   -29.322    95.354   -12.814   -109.72   
727500000  -19.704    16.245    15.939   -153.69   -29.293    91.898   -12.436   -114.25   
729000000  -21.016    12.448    15.947   -157   -29.285    88.759   -12.072   -118.52   
730500000  -22.514    8.524    15.925   -160.44   -29.306    85.584   -11.763   -122.8   
732000000  -24.344    4.8491    15.912   -163.76   -29.327    81.792   -11.469   -126.79   
733500000  -26.527   -.3309    15.902   -167.18   -29.268    78.747   -11.156   -130.72   
735000000  -29.314   -5.7253    15.879   -170.62   -29.308    75.521   -10.903   -134.75   
736500000  -33.083   -14.296    15.862   -173.92   -29.363    72.388   -10.702   -138.4   
738000000  -39.55   -34.595    15.861   -177.34   -29.388    69.119   -10.433   -141.5   
739500000  -43.919   -118.97    15.838    179.38   -29.395    66.004   -10.248   -145.26   
741000000  -36.697   -167.79    15.82    176.05   -29.428    62.452   -10.098   -148.73   
742500000  -31.929   -177.73    15.826    172.71   -29.385    59.587   -9.906   -151.66   
744000000  -29.083    175.2    15.816    169.43   -29.336    56.284   -9.7489   -154.8   
745500000  -26.759    172.13    15.853    166.38   -29.286    53.527   -9.5633   -157.4   
747000000  -25.199    167.89    15.866    163.17   -29.315    50.12   -9.423   -160.17   
748500000  -24.285    161.85    15.787    159.59   -29.418    46.74   -9.3858   -163.66   
750000000  -23.469    157.04    15.707    156.14   -29.461    43.443   -9.3238   -166.39   
751500000  -22.719    153.52    15.685    152.88   -29.472    40.491   -9.2283   -168.96   
753000000  -22.025    150.56    15.691    149.66   -29.492    37.5   -9.1441   -171.5   
754500000  -21.422    147.4    15.691    146.43   -29.505    33.979   -9.0699   -173.83   
756000000  -20.979    144.34    15.702    143.17   -29.475    31.212   -9.0162   -176.02   
757500000  -20.588    141.34    15.709    140.04   -29.493    27.919   -8.9566   -178.2   
759000000  -20.299    137.93    15.697    136.75   -29.507    24.41   -8.8999    179.6   
760500000  -20.09    134.78    15.683    133.44   -29.508    21.54   -8.8773    177.45   
762000000  -19.939    131.51    15.675    130.23   -29.508    18.402   -8.8368    175.37   
763500000  -19.822    128.59    15.671    127.03   -29.512    15.709   -8.8107    173.19   
765000000  -19.802    125.33    15.69    123.73   -29.537    11.927   -8.8027    171.26   
766500000  -19.743    122.23    15.684    120.42   -29.485    9.1379   -8.7782    169.47   
768000000  -19.826    118.93    15.683    117.23   -29.504    6.0562   -8.7298    167.64   
769500000  -19.917    115.65    15.696    113.86   -29.498    2.682   -8.7331    166.05   
771000000  -20.052    112.35    15.707    110.69   -29.465   -.5355   -8.7114    163.97   
772500000  -20.246    109.05    15.716    107.41   -29.526   -3.3261   -8.6852    162.26   
774000000  -20.492    105.63    15.724    104.11   -29.463   -6.8088   -8.6549    160.57   
775500000  -20.788    102.09    15.748    100.89   -29.47   -10.058   -8.6616    158.97   
777000000  -21.162    98.395    15.76    97.515   -29.479   -13.314   -8.6254    157.46   
778500000  -21.564    94.863    15.782    94.167   -29.459   -16.305   -8.6304    155.75   
780000000  -22.017    90.829    15.785    90.864   -29.442   -19.569   -8.6125    154.14   
781500000  -22.596    87.03    15.821    87.572   -29.456   -22.764   -8.5823    152.39   
783000000  -23.183    82.66    15.824    84.148   -29.461   -25.81   -8.5582    150.98   
784500000  -23.891    77.919    15.859    80.89   -29.453   -28.957   -8.5691    149.07   
786000000  -24.646    72.688    15.877    77.493   -29.462   -32.246   -8.5319    147.5   
787500000  -25.632    66.587    15.9    74.134   -29.488   -35.791   -8.5244    145.86   
789000000  -26.569    60.298    15.926    70.756   -29.483   -38.447   -8.4966    144.1   
790500000  -27.667    52.454    15.945    67.136   -29.544   -41.81   -8.4593    142.62   
792000000  -28.771    42.19    15.961    63.821   -29.468   -44.908   -8.4737    140.73   
793500000  -29.83    29.472    15.985    60.412   -29.503   -48.16   -8.4702    139.12   
795000000  -30.683    14.858    16.011    56.985   -29.48   -51.305   -8.4562    137.1   
796500000  -31.092   -1.4749    16.02    53.475   -29.517   -54.345   -8.4503    135.28   
798000000  -30.977   -19.893    16.043    49.894   -29.539   -57.546   -8.4557    133.53   
799500000  -30.313   -36.442    16.075    46.39   -29.573   -60.591   -8.4548    131.55   
801000000  -29.143   -50.186    16.097    42.859   -29.56   -63.811   -8.4622    129.65   
802500000  -27.883   -60.709    16.105    39.315   -29.566   -66.824   -8.4627    127.65   
804000000  -26.708   -69.082    16.123    35.701   -29.547   -69.807   -8.4735    125.59   
805500000  -25.57   -76.572    16.153    32.003   -29.542   -72.914   -8.4958    123.65   
807000000  -24.544   -82.224    16.156    28.471   -29.588   -76.071   -8.5234    121.53   
808500000  -23.526   -86.675    16.164    24.814   -29.564   -79.041   -8.5417    119.47   
810000000  -22.61   -91.042    16.178    21.154   -29.519   -82.198   -8.5937    117.32   
811500000  -21.742   -94.971    16.194    17.485   -29.494   -85.456   -8.6271    115.03   
813000000  -21.011   -98.302    16.199    13.828   -29.518   -88.169   -8.6616    112.73   
814500000  -20.301   -101.32    16.203    10.142   -29.51   -91.637   -8.7082    110.33   
816000000  -19.629   -103.97    16.198    6.4297   -29.516   -94.603   -8.7772    107.91   
817500000  -18.976   -106.33    16.198    2.7287   -29.511   -97.594   -8.8334    105.35   
819000000  -18.416   -109.12    16.191   -1.0561   -29.478   -101.09   -8.9131    102.86   
820500000  -17.843   -111.2    16.17   -4.7049   -29.447   -104.06   -8.9932    100.33   
822000000  -17.328   -113.48    16.162   -8.557   -29.456   -107.16   -9.0884    97.478   
823500000  -16.79   -115.43    16.142   -12.198   -29.424   -110.58   -9.1649    94.731   
825000000  -16.312   -117.23    16.116   -15.949   -29.441   -113.77   -9.2573    91.972   
826500000  -15.848   -119.73    16.094   -19.736   -29.42   -116.99   -9.4084    88.662   
828000000  -15.434   -121.28    16.056   -23.498   -29.327   -119.73   -9.5398    86.012   
829500000  -14.962   -123.13    16.02   -27.236   -29.364   -123.51   -9.6571    82.822   
831000000  -14.522   -125.01    15.987   -30.903   -29.331   -126.87   -9.8078    79.693   
832500000  -14.138   -126.68    15.944   -34.655   -29.342   -129.97   -10.017    76.624   
834000000  -13.792   -128.46    15.893   -38.319   -29.327   -133.51   -10.172    72.995   
835500000  -13.374   -130.33    15.843   -42.049   -29.343   -136.62   -10.326    69.704   
837000000  -12.963   -132.25    15.794   -45.758   -29.328   -139.85   -10.538    66.098   
838500000  -12.649   -133.95    15.736   -49.308   -29.331   -143.33   -10.746    62.452   
840000000  -12.264   -135.72    15.685   -53.028   -29.381   -146.57   -10.948    58.754   
841500000  -11.895   -137.42    15.63   -56.548   -29.357   -150.03   -11.207    54.959   
843000000  -11.567   -139.33    15.566   -60.255   -29.384   -153.09   -11.458    51.2   
844500000  -11.253   -141.07    15.514   -63.784   -29.381   -156.57   -11.689    46.964   
846000000  -10.919   -142.91    15.449   -67.339   -29.418   -159.93   -11.929    42.854   
847500000  -10.568   -144.79    15.393   -70.904   -29.453   -162.84   -12.163    38.617   
849000000  -10.294   -146.76    15.327   -74.469   -29.472   -166.45   -12.393    34.092   
850500000  -9.9852   -148.89    15.254   -78.087   -29.484   -169.62   -12.605    29.458   
852000000  -9.6934   -150.82    15.207   -81.571   -29.556   -173.17   -12.881    24.707   
853500000  -9.4262   -153.04    15.143   -85.125   -29.59   -176.27   -13.129    20.095   
855000000  -9.1391   -155.13    15.097   -88.551   -29.598   -179.3   -13.291    15.032   
856500000  -8.8312   -157.52    15.034   -92.234   -29.65    177.52   -13.504    9.8286   
858000000  -8.5899   -159.77    14.984   -95.738   -29.671    174.31   -13.668    4.5786   
859500000  -8.3912   -162.07    14.915   -99.215   -29.694    171.12   -13.791   -.7402   
861000000  -8.0922   -164.42    14.865   -102.89   -29.772    167.99   -13.956   -6.4462   
862500000  -7.8663   -166.81    14.803   -106.38   -29.759    164.92   -14.04   -11.949   
864000000  -7.6507   -169.11    14.744   -109.94   -29.816    161.89   -14.062   -17.816   
865500000  -7.4376   -171.53    14.702   -113.5   -29.838    158.74   -14.048   -23.77   
867000000  -7.2518   -173.89    14.62   -116.95   -29.894    155.68   -14.02   -29.257   
868500000  -7.0296   -176.5    14.561   -120.54   -29.862    152.78   -13.993   -35.005   
870000000  -6.8809   -179.05    14.474   -124.06   -29.883    149.65   -13.884   -40.721   
871500000  -6.6835    178.51    14.426   -127.67   -29.956    146.87   -13.768   -46.491   
873000000  -6.5346    175.94    14.347   -131.26   -29.945    144.09   -13.651   -51.965   
874500000  -6.3752    173.55    14.264   -134.74   -29.972    141.03   -13.441   -57.666   
876000000  -6.2544    170.94    14.182   -138.21   -29.992    137.97   -13.233   -62.893   
877500000  -6.1157    168.41    14.112   -141.9   -29.947    134.88   -12.996   -67.701   
879000000  -6.0088    166.04    14.034   -145.24   -30.022    132.33   -12.749   -73.125   
880500000  -5.8963    163.56    13.936   -148.67   -29.998    129.25   -12.508   -77.949   
882000000  -5.8097    161.1    13.847   -152.14   -29.985    126.35   -12.269   -82.516   
883500000  -5.7173    158.7    13.756   -155.56   -29.971    123.39   -11.953   -86.946   
885000000  -5.6247    156.1    13.654   -158.93   -29.936    120.49   -11.749   -91.482   
886500000  -5.5362    153.72    13.573   -162.32   -29.992    117.56   -11.483   -95.784   
888000000  -5.4806    151.33    13.471   -165.56   -29.955    114.52   -11.217   -99.934   
889500000  -5.3986    148.95    13.375   -168.89   -29.862    111.28   -10.933   -103.98   
891000000  -5.3447    146.62    13.272   -172.2   -29.889    108.59   -10.714   -107.82   
892500000  -5.2785    144.3    13.184   -175.41   -29.866    105.51   -10.458   -111.78   
894000000  -5.219    141.91    13.082   -178.58   -29.839    102.65   -10.218   -115.58   
895500000  -5.1703    139.65    12.992    178.35   -29.82    99.808   -10.011   -119.19   
897000000  -5.1301    137.24    12.896    175.13   -29.714    96.467   -9.7925   -123.01   
898500000  -5.0706    134.9    12.809    172   -29.776    93.549   -9.5968   -126.36   
900000000  -5.0238    132.53    12.726    168.9   -29.756    90.216   -9.4123   -129.77   

