CITIFILE A.01.00
#NA VERSION HP8722ES.07.74: Oct 30, 2002
NAME DATA
VAR FREQ MAG 201
DATA S[1,1] RI
DATA S[2,1] RI
DATA S[1,2] RI
DATA S[2,2] RI
SEG_LIST_BEGIN
SEG 50000000 4500000000 201
SEG_LIST_END
BEGIN
-3.91793E-3,5.75327E-3
1.26476E-2,-1.95026E-4
3.72791E-3,2.65002E-3
-1.86443E-3,6.76703E-3
1.69992E-3,3.07703E-3
6.59465E-3,0.61082E-3
9.18817E-3,0.31232E-3
1.04684E-2,6.13498E-3
7.92121E-3,9.13715E-3
9.58633E-3,3.82757E-3
1.32799E-2,4.12273E-3
1.41639E-2,0.32520E-3
1.45587E-2,2.38037E-3
1.72023E-2,-1.13678E-3
2.12383E-2,-3.72314E-3
2.30712E-2,-4.77886E-3
2.51703E-2,-5.82885E-3
2.71778E-2,-7.17926E-3
2.85282E-2,-8.39996E-3
2.56080E-2,-7.43293E-3
3.12671E-2,-1.89247E-2
3.20205E-2,-1.98307E-2
3.68919E-2,-2.32219E-2
4.23698E-2,-2.30140E-2
3.95584E-2,-2.81353E-2
4.32109E-2,-2.69298E-2
3.8414E-2,-3.51982E-2
3.95793E-2,-4.26826E-2
4.27131E-2,-4.44984E-2
4.15763E-2,-5.42907E-2
4.01077E-2,-5.60913E-2
3.87039E-2,-5.96809E-2
3.86238E-2,-6.38656E-2
3.95584E-2,-7.26814E-2
3.95889E-2,-7.84149E-2
3.54461E-2,-8.23974E-2
3.44848E-2,-8.83064E-2
3.26156E-2,-9.36126E-2
2.97431E-2,-1.00654E-1
2.55584E-2,-1.07078E-1
2.51655E-2,-1.12777E-1
2.00500E-2,-1.15875E-1
1.53389E-2,-1.21559E-1
0.12458E-1,-1.26419E-1
0.06485E-1,-1.32415E-1
-3.28064E-4,-1.38259E-1
-7.04193E-3,-1.42837E-1
-8.61358E-3,-1.49284E-1
-1.20849E-2,-1.52160E-1
-1.95922E-2,-1.55090E-1
-2.89764E-2,-1.50703E-1
-3.67431E-2,-1.58096E-1
-4.43801E-2,-1.63993E-1
-5.28259E-2,-1.68243E-1
-5.99823E-2,-1.68541E-1
-6.50634E-2,-1.70089E-1
-7.48977E-2,-1.76445E-1
-8.62884E-2,-1.77581E-1
-9.02557E-2,-1.75689E-1
-9.81140E-2,-1.75186E-1
-1.09863E-1,-1.73095E-1
-1.22680E-1,-1.74285E-1
-1.33529E-1,-1.73980E-1
-1.39953E-1,-1.71722E-1
-1.48788E-1,-1.71585E-1
-1.55044E-1,-1.68930E-1
-1.58844E-1,-1.66809E-1
-1.72149E-1,-1.61438E-1
-1.85974E-1,-1.45507E-1
-1.93512E-1,-1.44592E-1
-2.03521E-1,-1.44561E-1
-2.22076E-1,-1.39663E-1
-2.22854E-1,-1.34063E-1
-2.29583E-1,-1.23931E-1
-2.35717E-1,-1.22985E-1
-2.43789E-1,-1.19995E-1
-2.50030E-1,-1.04705E-1
-2.55920E-1,-9.64813E-2
-2.63641E-1,-8.46099E-2
-2.59323E-1,-8.19244E-2
-2.74978E-1,-7.13043E-2
-2.83538E-1,-5.6427E-2
-2.84484E-1,-4.94232E-2
-2.89230E-1,-3.79943E-2
-2.85842E-1,-2.36663E-2
-2.97943E-1,-1.55181E-2
-3.02429E-1,-2.38037E-3
-3.02383E-1,0.12481E-1
-3.04275E-1,0.24337E-1
-3.07647E-1,0.36117E-1
-3.13201E-1,0.45196E-1
-3.14376E-1,0.59036E-1
-3.02032E-1,0.72372E-1
-2.96203E-1,0.78506E-1
-3.01696E-1,0.97946E-1
-3.03176E-1,1.18652E-1
-2.96569E-1,1.27380E-1
-2.85232E-1,1.28952E-1
-2.86300E-1,1.44027E-1
-2.91198E-1,1.73584E-1
-2.77206E-1,1.86538E-1
-2.70294E-1,1.82098E-1
-2.63504E-1,1.94381E-1
-2.54653E-1,2.10556E-1
-2.5E-1,2.32788E-1
-2.35809E-1,2.35282E-1
-2.27279E-1,2.34954E-1
-2.20581E-1,2.50640E-1
-2.19574E-1,2.77008E-1
-1.99646E-1,2.76016E-1
-1.75674E-1,2.77038E-1
-1.61361E-1,2.79998E-1
-1.55334E-1,2.97226E-1
-1.37268E-1,3.17184E-1
-1.26068E-1,3.10302E-1
-1.21597E-1,3.17016E-1
-1.02111E-1,3.19946E-1
-9.64355E-2,3.31497E-1
-7.46307E-2,3.32626E-1
-5.01403E-2,3.18206E-1
-3.69262E-2,3.18588E-1
-1.59912E-2,3.27606E-1
0.01983E-1,3.3078E-1
0.16571E-1,3.29132E-1
0.28106E-1,3.22753E-1
0.41793E-1,3.22006E-1
0.53024E-1,3.33435E-1
0.72967E-1,3.18557E-1
0.96664E-1,3.05114E-1
1.1409E-1,2.92236E-1
1.31515E-1,2.90329E-1
1.53442E-1,2.87994E-1
1.62139E-1,2.72949E-1
1.66259E-1,2.65838E-1
1.85974E-1,2.53143E-1
1.89834E-1,2.46307E-1
2.09426E-1,2.25967E-1
2.23861E-1,2.07366E-1
2.34542E-1,1.90185E-1
2.49176E-1,1.76651E-1
2.59872E-1,1.58279E-1
2.72338E-1,1.48651E-1
2.78045E-1,1.32782E-1
2.83187E-1,1.14105E-1
2.87811E-1,0.97961E-1
2.96142E-1,0.73822E-1
2.95303E-1,0.53619E-1
3.00186E-1,0.32653E-1
3.02642E-1,0.14862E-1
3.06091E-1,-3.20434E-3
3.07495E-1,-2.53601E-2
2.98767E-1,-4.01001E-2
3.02734E-1,-6.03485E-2
2.89337E-1,-8.61206E-2
2.89199E-1,-1.06384E-1
2.80212E-1,-1.28189E-1
2.73452E-1,-1.48819E-1
2.68753E-1,-1.69281E-1
2.60406E-1,-1.89407E-1
2.54470E-1,-1.97250E-1
2.46200E-1,-2.13691E-1
2.29553E-1,-2.31979E-1
2.11921E-1,-2.45986E-1
1.97876E-1,-2.65152E-1
1.81488E-1,-2.84530E-1
1.70669E-1,-2.98568E-1
1.46377E-1,-3.11706E-1
1.32965E-1,-3.21151E-1
1.19628E-1,-3.27270E-1
1.03546E-1,-3.33129E-1
0.78079E-1,-3.43185E-1
0.49896E-1,-3.50845E-1
0.36346E-1,-3.56765E-1
0.20187E-1,-3.71658E-1
-1.17492E-3,-3.76922E-1
-1.22222E-2,-3.76083E-1
-3.29589E-2,-3.75473E-1
-5.50079E-2,-3.79226E-1
-6.91375E-2,-3.79760E-1
-9.89227E-2,-3.74099E-1
-1.23352E-1,-3.69720E-1
-1.44378E-1,-3.68743E-1
-1.60522E-1,-3.57971E-1
-1.77917E-1,-3.59771E-1
-2.08709E-1,-3.74084E-1
-2.26928E-1,-3.60137E-1
-2.29339E-1,-3.43780E-1
-2.45513E-1,-3.31146E-1
-2.74810E-1,-3.25561E-1
-2.91992E-1,-3.15429E-1
-3.11309E-1,-2.99713E-1
-3.27209E-1,-2.95867E-1
-3.47686E-1,-2.82135E-1
-3.53027E-1,-2.57904E-1
-3.65387E-1,-2.48382E-1
-3.79028E-1,-2.37945E-1
-3.89251E-1,-2.17681E-1
-4.03961E-1,-2.02911E-1
-4.15618E-1,-1.85668E-1
-4.29046E-1,-1.70837E-1
-4.43542E-1,-1.48132E-1
END
BEGIN
1.70616E-1,-8.43811E-3
1.70661E-1,0.18974E-1
1.69677E-1,-9.59014E-3
1.81510E-1,-5.89752E-3
1.73904E-1,-1.56860E-2
1.76490E-1,-2.27432E-2
1.73706E-1,-2.64511E-2
1.70822E-1,-3.89480E-2
1.72477E-1,-3.82080E-2
1.64245E-1,-5.20935E-2
1.69166E-1,-5.16967E-2
1.61872E-1,-5.99594E-2
1.65878E-1,-6.27136E-2
1.61087E-1,-6.87179E-2
1.60797E-1,-7.45849E-2
1.57798E-1,-7.77816E-2
1.53137E-1,-8.47854E-2
1.52442E-1,-8.72802E-2
1.47934E-1,-9.48333E-2
1.49063E-1,-9.99603E-2
1.42082E-1,-1.01936E-1
1.37565E-1,-1.08406E-1
1.35345E-1,-1.12434E-1
1.3414E-1,-1.16760E-1
1.29692E-1,-1.20925E-1
1.29715E-1,-1.26602E-1
1.23039E-1,-1.30287E-1
1.19644E-1,-1.34262E-1
1.16470E-1,-1.38740E-1
1.13304E-1,-1.42349E-1
1.09420E-1,-1.46087E-1
1.0289E-1,-1.48407E-1
0.98800E-1,-1.52359E-1
0.95680E-1,-1.57470E-1
0.91789E-1,-1.64215E-1
0.85220E-1,-1.6922E-1
0.81718E-1,-1.68197E-1
0.78125E-1,-1.69265E-1
0.72326E-1,-1.74743E-1
0.66574E-1,-1.77314E-1
0.60737E-1,-1.80580E-1
0.52871E-1,-1.82243E-1
0.47470E-1,-1.83830E-1
0.43518E-1,-1.88415E-1
0.37056E-1,-1.89888E-1
0.33599E-1,-1.93138E-1
0.25978E-1,-1.92489E-1
0.21209E-1,-1.94625E-1
0.15487E-1,-1.99325E-1
0.04745E-1,-1.99111E-1
-9.15527E-4,-1.94549E-1
-4.73022E-3,-1.95831E-1
-9.45282E-3,-1.98310E-1
-1.63879E-2,-2.03201E-1
-2.64816E-2,-2.01072E-1
-3.19366E-2,-1.96525E-1
-3.78799E-2,-1.98532E-1
-4.57763E-2,-1.99844E-1
-5.27801E-2,-1.99676E-1
-6.10961E-2,-1.98532E-1
-6.65283E-2,-1.93847E-1
-6.94580E-2,-1.95022E-1
-7.80792E-2,-1.97570E-1
-8.89892E-2,-1.93725E-1
-9.74121E-2,-1.86447E-1
-9.91363E-2,-1.80023E-1
-9.58557E-2,-1.80435E-1
-1.07223E-1,-1.85623E-1
-1.25579E-1,-1.72714E-1
-1.31134E-1,-1.67251E-1
-1.31393E-1,-1.66656E-1
-1.35650E-1,-1.71447E-1
-1.42440E-1,-1.63040E-1
-1.51336E-1,-1.54907E-1
-1.53900E-1,-1.52465E-1
-1.59286E-1,-1.50772E-1
-1.67129E-1,-1.46377E-1
-1.75048E-1,-1.37741E-1
-1.79412E-1,-1.30203E-1
-1.74667E-1,-1.24816E-1
-1.80435E-1,-1.24862E-1
-1.91772E-1,-1.17294E-1
-1.95587E-1,-1.10992E-1
-1.99050E-1,-1.03042E-1
-1.98486E-1,-9.67102E-2
-2.11731E-1,-9.5047E-2
-2.23220E-1,-8.09936E-2
-2.20214E-1,-7.03887E-2
-2.15942E-1,-6.56738E-2
-2.20062E-1,-6.52923E-2
-2.31506E-1,-6.21032E-2
-2.39288E-1,-4.80041E-2
-2.30072E-1,-3.52325E-2
-2.25875E-1,-3.54919E-2
-2.38052E-1,-2.93273E-2
-2.53006E-1,-1.28784E-2
-2.50564E-1,-7.62939E-5
-2.36442E-1,0.03356E-1
-2.32765E-1,0.06385E-1
-2.47482E-1,0.18364E-1
-2.52685E-1,0.31341E-1
-2.48626E-1,0.36819E-1
-2.42713E-1,0.46821E-1
-2.40684E-1,0.53260E-1
-2.54089E-1,0.65185E-1
-2.52609E-1,0.75912E-1
-2.34817E-1,0.87806E-1
-2.27508E-1,0.90133E-1
-2.43087E-1,0.95504E-1
-2.44926E-1,1.05453E-1
-2.32101E-1,1.20796E-1
-2.17628E-1,1.26525E-1
-2.19680E-1,1.36779E-1
-2.26562E-1,1.55563E-1
-2.23922E-1,1.56448E-1
-2.11883E-1,1.69616E-1
-1.94534E-1,1.72637E-1
-2.00637E-1,1.71974E-1
-2.00561E-1,1.80862E-1
-1.90818E-1,1.84417E-1
-1.80786E-1,1.95282E-1
-1.74621E-1,2.10868E-1
-1.71279E-1,2.16003E-1
-1.67266E-1,2.26486E-1
-1.46652E-1,2.36114E-1
-1.35238E-1,2.35862E-1
-1.39289E-1,2.40638E-1
-1.39198E-1,2.40943E-1
-1.27899E-1,2.54516E-1
-1.11007E-1,2.67700E-1
-1.04324E-1,2.72018E-1
-9.74426E-2,2.79785E-1
-8.56018E-2,2.79510E-1
-7.12280E-2,2.79022E-1
-5.61523E-2,2.80883E-1
-5.84716E-2,2.80380E-1
-5.70678E-2,2.85720E-1
-3.95507E-2,2.95150E-1
-1.84021E-2,3.03863E-1
0.01663E-1,3.07266E-1
0.10467E-1,3.00384E-1
0.13610E-1,3.02398E-1
0.29647E-1,3.05374E-1
0.47439E-1,3.04367E-1
0.57449E-1,3.01788E-1
0.58212E-1,3.00033E-1
0.63781E-1,3.08364E-1
0.88989E-1,3.20068E-1
1.10641E-1,3.12210E-1
1.17858E-1,2.98736E-1
1.27288E-1,2.80151E-1
1.28967E-1,2.81951E-1
1.51031E-1,2.88681E-1
1.67511E-1,2.76931E-1
1.71920E-1,2.70187E-1
1.87225E-1,2.66265E-1
2.06420E-1,2.65792E-1
2.27951E-1,2.55737E-1
2.34893E-1,2.32254E-1
2.25250E-1,2.24121E-1
2.26974E-1,2.30514E-1
2.47833E-1,2.28027E-1
2.65533E-1,2.23892E-1
2.81631E-1,2.03796E-1
2.88024E-1,1.83715E-1
2.99575E-1,1.71325E-1
3.02627E-1,1.49093E-1
2.98812E-1,1.40808E-1
2.97485E-1,1.42150E-1
3.14941E-1,1.38366E-1
3.43170E-1,1.17706E-1
3.45123E-1,0.86212E-1
3.32473E-1,0.68481E-1
3.32092E-1,0.65795E-1
3.41140E-1,0.58075E-1
3.45596E-1,0.43777E-1
3.43490E-1,0.22720E-1
3.37539E-1,0.10070E-1
3.45214E-1,0.07186E-1
3.59664E-1,-1.19323E-2
3.52829E-1,-5.06897E-2
3.36502E-1,-7.02819E-2
3.27850E-1,-8.48083E-2
3.29376E-1,-6.65283E-2
3.45336E-1,-7.35931E-2
3.43307E-1,-1.04873E-1
3.31237E-1,-1.22802E-1
3.18908E-1,-1.27441E-1
3.20785E-1,-1.38610E-1
3.23303E-1,-1.63711E-1
3.05664E-1,-1.86294E-1
2.86880E-1,-1.88613E-1
2.76001E-1,-1.85958E-1
2.73468E-1,-1.89834E-1
2.80014E-1,-2.08801E-1
2.73498E-1,-2.36282E-1
2.52624E-1,-2.51647E-1
2.36587E-1,-2.55706E-1
2.22198E-1,-2.57476E-1
2.12707E-1,-2.60437E-1
2.05093E-1,-2.66708E-1
END
BEGIN
1.72691E-1,-7.24029E-3
1.67945E-1,0.12413E-1
1.66465E-1,-1.17111E-2
1.75056E-1,-9.26208E-3
1.70196E-1,-1.93176E-2
1.71852E-1,-2.61688E-2
1.70753E-1,-3.14483E-2
1.69700E-1,-4.08706E-2
1.69570E-1,-4.04815E-2
1.62712E-1,-5.21850E-2
1.66015E-1,-5.24215E-2
1.60469E-1,-6.1203E-2
1.62918E-1,-6.30493E-2
1.59103E-1,-6.90460E-2
1.58142E-1,-7.54394E-2
1.55441E-1,-7.94448E-2
1.51367E-1,-8.53576E-2
1.50360E-1,-8.84170E-2
1.45828E-1,-9.48638E-2
1.46835E-1,-9.98840E-2
1.42379E-1,-1.03035E-1
1.39144E-1,-1.09573E-1
1.35940E-1,-1.12922E-1
1.34445E-1,-1.13922E-1
1.31187E-1,-1.19850E-1
1.30508E-1,-1.27739E-1
1.23367E-1,-1.31668E-1
1.20140E-1,-1.33987E-1
1.13304E-1,-1.37458E-1
1.13250E-1,-1.42707E-1
1.11160E-1,-1.45492E-1
1.03042E-1,-1.47964E-1
0.99670E-1,-1.51657E-1
0.96511E-1,-1.57218E-1
0.90156E-1,-1.62933E-1
0.84533E-1,-1.66732E-1
0.78933E-1,-1.66755E-1
0.73959E-1,-1.68502E-1
0.71434E-1,-1.74263E-1
0.64651E-1,-1.76986E-1
0.59967E-1,-1.79184E-1
0.55023E-1,-1.82960E-1
0.48751E-1,-1.85112E-1
0.43449E-1,-1.87027E-1
0.36865E-1,-1.87759E-1
0.33393E-1,-1.92695E-1
0.28160E-1,-1.96014E-1
0.19950E-1,-1.94587E-1
0.13748E-1,-1.91467E-1
0.07728E-1,-1.96357E-1
0.00282E-1,-1.98120E-1
-5.54657E-3,-1.99630E-1
-1.37405E-2,-1.99844E-1
-2.04162E-2,-1.98722E-1
-2.56118E-2,-1.99653E-1
-3.20358E-2,-2.01934E-1
-3.75289E-2,-2.02133E-1
-4.76608E-2,-2.01660E-1
-5.51834E-2,-1.96723E-1
-5.73730E-2,-1.94679E-1
-6.29577E-2,-1.97845E-1
-7.2052E-2,-1.95892E-1
-8.24279E-2,-1.92977E-1
-8.79516E-2,-1.89575E-1
-8.84094E-2,-1.87927E-1
-9.69085E-2,-1.86065E-1
-1.08200E-1,-1.81137E-1
-1.16622E-1,-1.79229E-1
-1.26892E-1,-1.81396E-1
-1.26480E-1,-1.75521E-1
-1.32583E-1,-1.72256E-1
-1.46484E-1,-1.71890E-1
-1.40899E-1,-1.62017E-1
-1.40197E-1,-1.62139E-1
-1.52191E-1,-1.52694E-1
-1.59286E-1,-1.49520E-1
-1.69281E-1,-1.42196E-1
-1.72058E-1,-1.36154E-1
-1.76223E-1,-1.33514E-1
-1.85852E-1,-1.17446E-1
-1.91955E-1,-1.13632E-1
-1.90979E-1,-1.14669E-1
-1.94763E-1,-1.11129E-1
-2.01583E-1,-1.07788E-1
-2.12814E-1,-9.85717E-2
-2.12371E-1,-8.56933E-2
-2.06161E-1,-8.07342E-2
-2.11624E-1,-7.88879E-2
-2.21725E-1,-6.57806E-2
-2.29766E-1,-5.76477E-2
-2.25250E-1,-5.05828E-2
-2.19802E-1,-4.76989E-2
-2.31994E-1,-4.31366E-2
-2.40905E-1,-2.90222E-2
-2.40356E-1,-1.89514E-2
-2.34947E-1,-1.22528E-2
-2.34550E-1,-8.97979E-3
-2.46559E-1,-2.34222E-3
-2.52822E-1,0.14450E-1
-2.37510E-1,0.22491E-1
-2.30934E-1,0.24322E-1
-2.36747E-1,0.35705E-1
-2.45636E-1,0.43403E-1
-2.50396E-1,0.56457E-1
-2.34214E-1,0.71823E-1
-2.35916E-1,0.72792E-1
-2.49153E-1,0.84068E-1
-2.45040E-1,0.95626E-1
-2.39578E-1,1.04583E-1
-2.23503E-1,1.07383E-1
-2.26966E-1,1.05125E-1
-2.39791E-1,1.19247E-1
-2.26959E-1,1.40266E-1
-2.09465E-1,1.40800E-1
-2.05993E-1,1.47674E-1
-2.10601E-1,1.53350E-1
-2.11700E-1,1.67633E-1
-1.91902E-1,1.80954E-1
-1.81846E-1,1.81541E-1
-1.88674E-1,1.88293E-1
-1.87103E-1,2.02682E-1
-1.81953E-1,2.12265E-1
-1.68624E-1,2.21160E-1
-1.54403E-1,2.19268E-1
-1.59912E-1,2.12768E-1
-1.53610E-1,2.32093E-1
-1.36489E-1,2.41401E-1
-1.27281E-1,2.41874E-1
-1.18705E-1,2.47581E-1
-1.19354E-1,2.57904E-1
-1.08642E-1,2.75009E-1
-8.55102E-2,2.79083E-1
-8.45336E-2,2.72064E-1
-9.08813E-2,2.80456E-1
-7.16705E-2,2.89978E-1
-5.84411E-2,2.92144E-1
-4.56237E-2,2.89245E-1
-4.61883E-2,2.92648E-1
-3.71093E-2,3.10195E-1
-6.59179E-3,3.13827E-1
0.13504E-1,3.05786E-1
0.18173E-1,2.99392E-1
0.23300E-1,3.05053E-1
0.31311E-1,3.18512E-1
0.59860E-1,3.181E-1
0.75637E-1,3.05221E-1
0.79071E-1,3.01391E-1
0.86700E-1,3.08029E-1
1.07070E-1,3.14758E-1
1.33117E-1,3.06610E-1
1.33850E-1,2.87811E-1
1.2854E-1,2.88543E-1
1.52771E-1,2.95257E-1
1.74163E-1,2.81997E-1
1.88186E-1,2.67593E-1
1.96716E-1,2.56668E-1
2.02926E-1,2.58132E-1
2.21206E-1,2.57598E-1
2.36785E-1,2.37731E-1
2.41729E-1,2.25616E-1
2.44491E-1,2.20840E-1
2.56881E-1,2.14935E-1
2.71362E-1,2.07931E-1
2.77816E-1,1.88736E-1
2.80548E-1,1.79824E-1
2.96112E-1,1.73904E-1
3.11431E-1,1.49459E-1
3.09570E-1,1.24755E-1
3.02551E-1,1.20697E-1
3.06610E-1,1.27227E-1
3.22662E-1,1.18774E-1
3.36349E-1,0.86700E-1
3.33053E-1,0.68878E-1
3.32778E-1,0.64758E-1
3.37936E-1,0.58227E-1
3.42376E-1,0.40512E-1
3.38821E-1,0.15167E-1
3.24630E-1,0.04425E-1
3.26812E-1,0.12481E-1
3.44711E-1,0.04074E-1
3.46420E-1,-2.41851E-2
3.44345E-1,-6.23168E-2
3.25637E-1,-7.74383E-2
3.23028E-1,-6.60553E-2
3.43109E-1,-7.24639E-2
3.43490E-1,-1.01852E-1
3.26644E-1,-1.17324E-1
3.17489E-1,-1.21536E-1
3.21426E-1,-1.31347E-1
3.21121E-1,-1.53640E-1
3.11370E-1,-1.79519E-1
2.99041E-1,-1.84402E-1
2.90802E-1,-1.90261E-1
2.81906E-1,-2.00317E-1
2.74734E-1,-2.2052E-1
2.61871E-1,-2.36007E-1
2.51831E-1,-2.39730E-1
2.52624E-1,-2.49359E-1
2.37686E-1,-2.73086E-1
2.15652E-1,-2.86468E-1
2.04589E-1,-2.86254E-1
END
BEGIN
1.44457E-3,8.40187E-4
-2.16805E-3,0.60415E-3
2.64823E-4,8.15153E-4
0.99849E-3,7.32612E-3
1.79767E-3,7.70473E-3
4.65583E-3,5.76257E-3
6.43587E-3,5.91945E-3
8.52203E-3,8.40282E-3
1.11570E-2,9.44995E-3
1.24712E-2,7.77626E-3
1.40228E-2,6.77108E-3
1.61485E-2,0.74853E-2
1.84927E-2,0.80146E-2
2.20079E-2,0.71620E-2
2.49233E-2,0.56915E-2
2.72769E-2,0.44746E-2
3.01208E-2,0.32024E-2
3.31745E-2,0.25367E-2
3.50990E-2,-1.12915E-3
3.81851E-2,-3.42941E-3
4.13322E-2,-5.56373E-3
4.35600E-2,-6.24275E-3
4.64687E-2,-9.88388E-3
4.95262E-2,-1.40800E-2
5.14583E-2,-1.78604E-2
5.46455E-2,-2.15606E-2
5.61122E-2,-2.51140E-2
5.79071E-2,-3.07502E-2
5.96504E-2,-3.61156E-2
6.13708E-2,-4.03289E-2
6.34689E-2,-4.51583E-2
6.29882E-2,-4.99496E-2
6.55517E-2,-5.80177E-2
6.63375E-2,-6.44798E-2
6.38732E-2,-6.87980E-2
6.37207E-2,-7.43484E-2
6.43577E-2,-8.10051E-2
6.33392E-2,-8.76274E-2
6.35414E-2,-9.39865E-2
6.16493E-2,-9.98115E-2
5.96618E-2,-1.07109E-1
5.72509E-2,-1.15524E-1
5.31654E-2,-1.21067E-1
0.51284E-1,-1.26625E-1
0.47966E-1,-1.32392E-1
0.46966E-1,-1.42112E-1
0.41687E-1,-1.4991E-1
0.34408E-1,-1.53862E-1
0.30304E-1,-1.57409E-1
0.26107E-1,-1.66969E-1
0.19218E-1,-1.74049E-1
0.13137E-1,-1.78787E-1
0.05958E-1,-1.83380E-1
0.00160E-1,-1.88575E-1
-7.17926E-3,-1.96571E-1
-1.71585E-2,-2.02941E-1
-2.24075E-2,-2.05108E-1
-3.00216E-2,-2.10792E-1
-4.09851E-2,-2.14111E-1
-4.80499E-2,-2.19024E-1
-5.90820E-2,-2.21801E-1
-6.91680E-2,-2.20413E-1
-7.75299E-2,-2.22778E-1
-8.84704E-2,-2.29736E-1
-9.93042E-2,-2.31353E-1
-1.12289E-1,-2.30545E-1
-1.26434E-1,-2.25143E-1
-1.33987E-1,-2.30850E-1
-1.50100E-1,-2.40997E-1
-1.59454E-1,-2.32971E-1
-1.66946E-1,-2.29019E-1
-1.82464E-1,-2.33459E-1
-1.83609E-1,-2.25647E-1
-1.91558E-1,-2.30346E-1
-2.13882E-1,-2.13638E-1
-2.22595E-1,-2.09671E-1
-2.36618E-1,-2.04406E-1
-2.43087E-1,-1.98822E-1
-2.56805E-1,-1.95236E-1
-2.77557E-1,-1.79428E-1
-2.82638E-1,-1.70791E-1
-2.91564E-1,-1.75048E-1
-3.03497E-1,-1.67266E-1
-3.11264E-1,-1.54922E-1
-3.24188E-1,-1.44897E-1
-3.27255E-1,-1.34368E-1
-3.29513E-1,-1.24588E-1
-3.44741E-1,-1.12487E-1
-3.54858E-1,-9.26361E-2
-3.61740E-1,-8.71124E-2
-3.63021E-1,-7.90557E-2
-3.66088E-1,-6.99005E-2
-3.85070E-1,-5.07202E-2
-3.91174E-1,-2.96020E-2
-3.89938E-1,-2.32849E-2
-3.94393E-1,-9.14001E-3
-3.99704E-1,0.06805E-1
-4.08554E-1,0.19714E-1
-4.08203E-1,0.38299E-1
-3.96255E-1,0.37353E-1
-4.01809E-1,0.4953E-1
-4.06845E-1,0.85113E-1
-4.04190E-1,0.99441E-1
-4.03503E-1,1.14746E-1
-3.87451E-1,1.37130E-1
-3.99826E-1,1.44546E-1
-4.13452E-1,1.70547E-1
-4.01245E-1,1.81396E-1
-4.03350E-1,1.87164E-1
-3.86001E-1,2.03689E-1
-3.81012E-1,2.17575E-1
-3.79241E-1,2.37838E-1
-3.57193E-1,2.52777E-1
-3.44848E-1,2.60009E-1
-3.46038E-1,2.81219E-1
-3.38394E-1,2.95944E-1
-3.28033E-1,3.09051E-1
-3.01666E-1,3.21426E-1
-2.92953E-1,3.29315E-1
-2.95150E-1,3.54690E-1
-2.74612E-1,3.72100E-1
-2.62802E-1,3.73306E-1
-2.49877E-1,3.88702E-1
-2.34527E-1,3.93432E-1
-2.27447E-1,3.90564E-1
-2.06176E-1,4.11560E-1
-1.81045E-1,4.18960E-1
-1.69754E-1,4.27169E-1
-1.47613E-1,4.38430E-1
-1.31988E-1,4.42504E-1
-1.07605E-1,4.53140E-1
-7.74231E-2,4.56665E-1
-7.72705E-2,4.55139E-1
-7.51647E-2,4.66613E-1
-3.82080E-2,4.61013E-1
-2.38189E-2,4.62509E-1
-1.52587E-5,4.62524E-1
0.13000E-1,4.61990E-1
0.34698E-1,4.62249E-1
0.65490E-1,4.50653E-1
0.83618E-1,4.44885E-1
1.02417E-1,4.46472E-1
1.23199E-1,4.40826E-1
1.40167E-1,4.33136E-1
1.74072E-1,4.20867E-1
1.84143E-1,4.09820E-1
1.97052E-1,4.06280E-1
2.16491E-1,3.95629E-1
2.43713E-1,3.84918E-1
2.67944E-1,3.72497E-1
2.60376E-1,3.59314E-1
2.62817E-1,3.51257E-1
2.96508E-1,3.31756E-1
3.16070E-1,3.04992E-1
3.26019E-1,2.94616E-1
3.40667E-1,2.75146E-1
3.51379E-1,2.61077E-1
3.70056E-1,2.40387E-1
3.79638E-1,2.1698E-1
3.85192E-1,2.11486E-1
3.96270E-1,1.96624E-1
4.01550E-1,1.66381E-1
4.08721E-1,1.48132E-1
4.15954E-1,1.23840E-1
4.16870E-1,1.03271E-1
4.25689E-1,0.83343E-1
4.27032E-1,0.51879E-1
4.26239E-1,0.29937E-1
4.28100E-1,0.24932E-1
4.24408E-1,0.14892E-1
4.24346E-1,-3.60412E-2
4.17938E-1,-7.32269E-2
4.15054E-1,-8.18481E-2
4.18426E-1,-8.91571E-2
4.12414E-1,-1.16104E-1
4.02298E-1,-1.41403E-1
3.93478E-1,-1.62399E-1
3.82324E-1,-1.79229E-1
3.72314E-1,-1.96548E-1
3.61251E-1,-2.27172E-1
3.46130E-1,-2.61978E-1
3.38302E-1,-2.67196E-1
3.10134E-1,-2.75482E-1
3.06564E-1,-2.91580E-1
3.08181E-1,-3.22219E-1
2.84225E-1,-3.38913E-1
2.63061E-1,-3.43948E-1
2.46597E-1,-3.56460E-1
2.28653E-1,-3.86520E-1
2.08267E-1,-4.07592E-1
1.90124E-1,-4.09500E-1
1.75888E-1,-4.15542E-1
1.52114E-1,-4.28802E-1
1.25030E-1,-4.40734E-1
1.02432E-1,-4.48425E-1
0.75271E-1,-4.52941E-1
0.53207E-1,-4.59137E-1
0.29434E-1,-4.69833E-1
0.05722E-1,-4.71786E-1
-1.51672E-2,-4.76898E-1
-3.37524E-2,-4.75036E-1
END

