CITIFILE A.01.00
#NA VERSION HP8722ES.07.74: Oct 30, 2002
NAME FORMATTED
VAR FREQ MAG 201
DATA S[1,1] RI
DATA S[2,1] RI
DATA S[1,2] RI
DATA S[2,2] RI
SEG_LIST_BEGIN
SEG 50000000 4500000000 201
SEG_LIST_END
BEGIN
-4.29179E1,0E0
-4.37656E1,0E0
-4.38261E1,0E0
-4.34824E1,0E0
-4.27929E1,0E0
-4.28476E1,0E0
-4.18378E1,0E0
-4.09902E1,0E0
-3.92597E1,0E0
-3.82656E1,0E0
-3.74863E1,0E0
-3.67734E1,0E0
-3.59453E1,0E0
-3.48066E1,0E0
-3.39335E1,0E0
-3.30136E1,0E0
-3.22793E1,0E0
-3.13457E1,0E0
-3.06543E1,0E0
-2.98906E1,0E0
-2.91162E1,0E0
-2.84384E1,0E0
-2.77714E1,0E0
-2.69394E1,0E0
-2.63623E1,0E0
-2.575E1,0E0
-2.51914E1,0E0
-2.47480E1,0E0
-2.42734E1,0E0
-2.37988E1,0E0
-2.32246E1,0E0
-2.27148E1,0E0
-2.225E1,0E0
-2.18447E1,0E0
-2.13935E1,0E0
-2.09111E1,0E0
-2.04287E1,0E0
-2.00146E1,0E0
-1.96523E1,0E0
-1.92656E1,0E0
-1.89023E1,0E0
-1.85419E1,0E0
-1.82001E1,0E0
-1.7875E1,0E0
-1.75556E1,0E0
-1.72314E1,0E0
-1.69296E1,0E0
-1.66953E1,0E0
-1.64433E1,0E0
-1.61884E1,0E0
-1.59277E1,0E0
-1.57055E1,0E0
-1.54863E1,0E0
-1.52334E1,0E0
-1.49209E1,0E0
-1.46772E1,0E0
-1.44697E1,0E0
-1.42827E1,0E0
-1.40654E1,0E0
-1.38349E1,0E0
-1.36552E1,0E0
-1.34814E1,0E0
-1.32963E1,0E0
-1.31259E1,0E0
-1.29516E1,0E0
-1.28242E1,0E0
-1.27045E1,0E0
-1.25561E1,0E0
-1.23774E1,0E0
-1.22211E1,0E0
-1.20664E1,0E0
-1.19184E1,0E0
-1.17446E1,0E0
-1.16015E1,0E0
-1.14882E1,0E0
-1.14213E1,0E0
-1.13657E1,0E0
-1.12602E1,0E0
-1.11562E1,0E0
-1.10805E1,0E0
-1.09897E1,0E0
-1.09306E1,0E0
-1.08378E1,0E0
-1.07060E1,0E0
-1.06274E1,0E0
-1.05600E1,0E0
-1.04731E1,0E0
-1.03720E1,0E0
-1.02368E1,0E0
-1.01870E1,0E0
-1.01704E1,0E0
-1.01123E1,0E0
-1.00322E1,0E0
-9.98144E0,0E0
-9.99462E0,0E0
-9.99218E0,0E0
-9.88378E0,0E0
-9.77636E0,0E0
-9.74267E0,0E0
-9.73535E0,0E0
-9.70654E0,0E0
-9.59814E0,0E0
-9.55029E0,0E0
-9.59521E0,0E0
-9.59619E0,0E0
-9.49560E0,0E0
-9.44628E0,0E0
-9.45556E0,0E0
-9.52441E0,0E0
-9.51562E0,0E0
-9.44677E0,0E0
-9.44287E0,0E0
-9.49267E0,0E0
-9.51025E0,0E0
-9.44677E0,0E0
-9.38085E0,0E0
-9.43066E0,0E0
-9.52343E0,0E0
-9.54931E0,0E0
-9.58203E0,0E0
-9.60546E0,0E0
-9.68408E0,0E0
-9.74462E0,0E0
-9.68652E0,0E0
-9.66308E0,0E0
-9.69335E0,0E0
-9.75927E0,0E0
-9.80029E0,0E0
-9.79150E0,0E0
-9.81933E0,0E0
-9.91113E0,0E0
-9.96044E0,0E0
-9.99609E0,0E0
-1.00185E1,0E0
-1.00727E1,0E0
-1.01689E1,0E0
-1.02168E1,0E0
-1.02539E1,0E0
-1.02695E1,0E0
-1.02807E1,0E0
-1.02919E1,0E0
-1.02968E1,0E0
-1.02832E1,0E0
-1.03051E1,0E0
-1.03144E1,0E0
-1.03442E1,0E0
-1.03520E1,0E0
-1.03393E1,0E0
-1.03496E1,0E0
-1.03354E1,0E0
-1.03286E1,0E0
-1.03032E1,0E0
-1.02822E1,0E0
-1.02612E1,0E0
-1.02255E1,0E0
-1.01435E1,0E0
-1.00913E1,0E0
-9.99609E0,0E0
-9.92480E0,0E0
-9.85986E0,0E0
-9.78418E0,0E0
-9.70898E0,0E0
-9.62744E0,0E0
-9.54394E0,0E0
-9.46435E0,0E0
-9.38330E0,0E0
-9.29394E0,0E0
-9.21728E0,0E0
-9.15673E0,0E0
-9.10449E0,0E0
-9.00830E0,0E0
-8.90771E0,0E0
-8.8125E0,0E0
-8.71630E0,0E0
-8.61084E0,0E0
-8.50488E0,0E0
-8.41015E0,0E0
-8.35302E0,0E0
-8.29199E0,0E0
-8.24023E0,0E0
-8.16210E0,0E0
-8.02392E0,0E0
-7.90234E0,0E0
-7.82080E0,0E0
-7.75122E0,0E0
-7.6604E0,0E0
-7.54711E0,0E0
-7.45556E0,0E0
-7.41918E0,0E0
-7.35620E0,0E0
-7.28637E0,0E0
-7.20043E0,0E0
-7.13940E0,0E0
-7.09350E0,0E0
-7.03759E0,0E0
-6.99877E0,0E0
-6.96044E0,0E0
-6.87695E0,0E0
-6.80639E0,0E0
-6.75195E0,0E0
-6.69311E0,0E0
END
BEGIN
-1.52734E1,0E0
-1.52460E1,0E0
-1.51953E1,0E0
-1.51601E1,0E0
-1.51289E1,0E0
-1.50937E1,0E0
-1.50766E1,0E0
-1.51093E1,0E0
-1.51235E1,0E0
-1.51279E1,0E0
-1.51318E1,0E0
-1.51171E1,0E0
-1.51225E1,0E0
-1.51030E1,0E0
-1.51118E1,0E0
-1.50898E1,0E0
-1.50747E1,0E0
-1.50766E1,0E0
-1.50913E1,0E0
-1.50913E1,0E0
-1.50717E1,0E0
-1.50600E1,0E0
-1.50214E1,0E0
-1.50234E1,0E0
-1.49887E1,0E0
-1.49467E1,0E0
-1.49052E1,0E0
-1.48730E1,0E0
-1.48505E1,0E0
-1.48481E1,0E0
-1.48134E1,0E0
-1.47578E1,0E0
-1.47021E1,0E0
-1.46679E1,0E0
-1.46416E1,0E0
-1.45844E1,0E0
-1.45322E1,0E0
-1.44907E1,0E0
-1.44799E1,0E0
-1.44775E1,0E0
-1.44355E1,0E0
-1.43896E1,0E0
-1.43452E1,0E0
-1.43139E1,0E0
-1.42802E1,0E0
-1.42153E1,0E0
-1.41557E1,0E0
-1.41484E1,0E0
-1.41328E1,0E0
-1.41171E1,0E0
-1.40571E1,0E0
-1.40136E1,0E0
-1.40185E1,0E0
-1.40004E1,0E0
-1.39355E1,0E0
-1.38696E1,0E0
-1.38134E1,0E0
-1.38071E1,0E0
-1.37812E1,0E0
-1.37011E1,0E0
-1.36347E1,0E0
-1.36030E1,0E0
-1.36088E1,0E0
-1.36293E1,0E0
-1.35737E1,0E0
-1.35351E1,0E0
-1.35346E1,0E0
-1.35405E1,0E0
-1.34926E1,0E0
-1.34282E1,0E0
-1.33559E1,0E0
-1.33427E1,0E0
-1.33095E1,0E0
-1.32543E1,0E0
-1.31943E1,0E0
-1.31772E1,0E0
-1.31875E1,0E0
-1.31713E1,0E0
-1.31254E1,0E0
-1.30942E1,0E0
-1.30835E1,0E0
-1.30942E1,0E0
-1.30376E1,0E0
-1.29121E1,0E0
-1.28476E1,0E0
-1.28422E1,0E0
-1.28168E1,0E0
-1.27338E1,0E0
-1.26093E1,0E0
-1.26059E1,0E0
-1.26528E1,0E0
-1.26074E1,0E0
-1.24638E1,0E0
-1.23554E1,0E0
-1.23720E1,0E0
-1.24301E1,0E0
-1.23510E1,0E0
-1.22172E1,0E0
-1.21591E1,0E0
-1.21899E1,0E0
-1.22099E1,0E0
-1.20810E1,0E0
-1.19267E1,0E0
-1.19140E1,0E0
-1.19633E1,0E0
-1.19155E1,0E0
-1.18212E1,0E0
-1.17475E1,0E0
-1.17988E1,0E0
-1.18222E1,0E0
-1.17080E1,0E0
-1.15717E1,0E0
-1.15239E1,0E0
-1.15551E1,0E0
-1.15429E1,0E0
-1.14555E1,0E0
-1.14243E1,0E0
-1.14643E1,0E0
-1.14614E1,0E0
-1.14423E1,0E0
-1.13437E1,0E0
-1.12812E1,0E0
-1.12729E1,0E0
-1.12148E1,0E0
-1.11596E1,0E0
-1.11103E1,0E0
-1.10483E1,0E0
-1.10058E1,0E0
-1.09267E1,0E0
-1.08369E1,0E0
-1.07934E1,0E0
-1.07573E1,0E0
-1.07504E1,0E0
-1.07436E1,0E0
-1.07168E1,0E0
-1.06831E1,0E0
-1.06210E1,0E0
-1.05678E1,0E0
-1.04995E1,0E0
-1.04140E1,0E0
-1.03452E1,0E0
-1.03061E1,0E0
-1.03012E1,0E0
-1.0271E1,0E0
-1.01469E1,0E0
-1.00351E1,0E0
-9.97851E0,0E0
-9.97998E0,0E0
-9.96826E0,0E0
-9.88916E0,0E0
-9.85498E0,0E0
-9.90039E0,0E0
-9.92236E0,0E0
-9.86425E0,0E0
-9.73095E0,0E0
-9.65234E0,0E0
-9.68310E0,0E0
-9.68408E0,0E0
-9.62158E0,0E0
-9.54101E0,0E0
-9.50048E0,0E0
-9.50390E0,0E0
-9.44970E0,0E0
-9.37548E0,0E0
-9.34960E0,0E0
-9.37597E0,0E0
-9.38769E0,0E0
-9.33496E0,0E0
-9.28466E0,0E0
-9.30517E0,0E0
-9.30078E0,0E0
-9.24316E0,0E0
-9.17480E0,0E0
-9.17382E0,0E0
-9.26318E0,0E0
-9.29980E0,0E0
-9.22753E0,0E0
-9.16357E0,0E0
-9.17187E0,0E0
-9.20703E0,0E0
-9.23681E0,0E0
-9.18164E0,0E0
-9.13330E0,0E0
-9.15625E0,0E0
-9.20214E0,0E0
-9.18212E0,0E0
-9.09814E0,0E0
-9.01953E0,0E0
-9.05419E0,0E0
-9.14794E0,0E0
-9.22168E0,0E0
-9.20068E0,0E0
-9.15918E0,0E0
-9.17919E0,0E0
-9.21289E0,0E0
-9.22460E0,0E0
-9.21191E0,0E0
-9.19873E0,0E0
-9.24511E0,0E0
-9.33398E0,0E0
-9.40625E0,0E0
END
BEGIN
-1.53056E1,0E0
-1.53168E1,0E0
-1.53095E1,0E0
-1.53042E1,0E0
-1.52919E1,0E0
-1.52490E1,0E0
-1.52197E1,0E0
-1.52280E1,0E0
-1.52246E1,0E0
-1.52187E1,0E0
-1.52202E1,0E0
-1.52153E1,0E0
-1.52138E1,0E0
-1.51928E1,0E0
-1.51904E1,0E0
-1.51743E1,0E0
-1.51543E1,0E0
-1.51377E1,0E0
-1.51245E1,0E0
-1.51088E1,0E0
-1.50918E1,0E0
-1.50688E1,0E0
-1.50087E1,0E0
-1.49887E1,0E0
-1.49594E1,0E0
-1.49521E1,0E0
-1.49145E1,0E0
-1.48671E1,0E0
-1.48491E1,0E0
-1.48564E1,0E0
-1.48291E1,0E0
-1.47866E1,0E0
-1.47270E1,0E0
-1.47114E1,0E0
-1.47050E1,0E0
-1.46508E1,0E0
-1.46044E1,0E0
-1.45747E1,0E0
-1.45429E1,0E0
-1.45131E1,0E0
-1.44638E1,0E0
-1.44155E1,0E0
-1.43686E1,0E0
-1.43071E1,0E0
-1.42641E1,0E0
-1.42583E1,0E0
-1.42255E1,0E0
-1.41865E1,0E0
-1.41337E1,0E0
-1.4104E1,0E0
-1.40932E1,0E0
-1.40576E1,0E0
-1.3979E1,0E0
-1.39233E1,0E0
-1.38676E1,0E0
-1.38393E1,0E0
-1.38227E1,0E0
-1.37749E1,0E0
-1.37299E1,0E0
-1.36977E1,0E0
-1.36772E1,0E0
-1.36748E1,0E0
-1.36416E1,0E0
-1.35937E1,0E0
-1.35571E1,0E0
-1.34838E1,0E0
-1.34462E1,0E0
-1.33974E1,0E0
-1.32934E1,0E0
-1.32646E1,0E0
-1.32451E1,0E0
-1.32348E1,0E0
-1.32514E1,0E0
-1.32246E1,0E0
-1.32128E1,0E0
-1.32392E1,0E0
-1.32099E1,0E0
-1.31601E1,0E0
-1.31196E1,0E0
-1.30874E1,0E0
-1.30459E1,0E0
-1.29633E1,0E0
-1.29194E1,0E0
-1.29106E1,0E0
-1.28955E1,0E0
-1.28491E1,0E0
-1.27807E1,0E0
-1.27685E1,0E0
-1.28203E1,0E0
-1.27832E1,0E0
-1.26694E1,0E0
-1.25883E1,0E0
-1.25673E1,0E0
-1.25786E1,0E0
-1.24970E1,0E0
-1.23501E1,0E0
-1.23364E1,0E0
-1.23911E1,0E0
-1.23994E1,0E0
-1.23271E1,0E0
-1.22158E1,0E0
-1.22241E1,0E0
-1.22553E1,0E0
-1.21347E1,0E0
-1.19799E1,0E0
-1.18710E1,0E0
-1.18784E1,0E0
-1.19106E1,0E0
-1.17998E1,0E0
-1.17036E1,0E0
-1.17543E1,0E0
-1.18007E1,0E0
-1.18051E1,0E0
-1.16992E1,0E0
-1.16333E1,0E0
-1.16845E1,0E0
-1.16855E1,0E0
-1.15756E1,0E0
-1.14536E1,0E0
-1.13725E1,0E0
-1.13813E1,0E0
-1.13701E1,0E0
-1.1271E1,0E0
-1.12216E1,0E0
-1.12334E1,0E0
-1.12558E1,0E0
-1.1229E1,0E0
-1.11074E1,0E0
-1.09931E1,0E0
-1.09643E1,0E0
-1.08881E1,0E0
-1.07783E1,0E0
-1.06767E1,0E0
-1.06396E1,0E0
-1.06372E1,0E0
-1.05527E1,0E0
-1.04326E1,0E0
-1.03862E1,0E0
-1.03808E1,0E0
-1.03481E1,0E0
-1.02377E1,0E0
-1.01279E1,0E0
-1.01196E1,0E0
-1.01289E1,0E0
-1.00737E1,0E0
-9.94580E0,0E0
-9.83593E0,0E0
-9.84619E0,0E0
-9.87646E0,0E0
-9.80761E0,0E0
-9.73095E0,0E0
-9.70361E0,0E0
-9.73779E0,0E0
-9.76025E0,0E0
-9.67627E0,0E0
-9.60156E0,0E0
-9.60839E0,0E0
-9.61572E0,0E0
-9.58642E0,0E0
-9.51757E0,0E0
-9.48925E0,0E0
-9.51269E0,0E0
-9.48388E0,0E0
-9.42968E0,0E0
-9.41357E0,0E0
-9.44824E0,0E0
-9.48486E0,0E0
-9.45556E0,0E0
-9.40429E0,0E0
-9.41601E0,0E0
-9.43945E0,0E0
-9.40576E0,0E0
-9.33544E0,0E0
-9.30859E0,0E0
-9.37988E0,0E0
-9.45459E0,0E0
-9.43798E0,0E0
-9.40820E0,0E0
-9.38281E0,0E0
-9.41943E0,0E0
-9.45459E0,0E0
-9.35888E0,0E0
-9.24560E0,0E0
-9.23730E0,0E0
-9.26367E0,0E0
-9.27343E0,0E0
-9.19677E0,0E0
-9.08984E0,0E0
-9.08789E0,0E0
-9.12548E0,0E0
-9.12988E0,0E0
-9.08593E0,0E0
-9.06689E0,0E0
-9.09619E0,0E0
-9.11181E0,0E0
-9.07421E0,0E0
-9.03564E0,0E0
-9.01416E0,0E0
-9.01562E0,0E0
-9.01806E0,0E0
-9.00341E0,0E0
END
BEGIN
-5.41542E1,0E0
-5.22246E1,0E0
-5.03769E1,0E0
-4.83242E1,0E0
-4.58808E1,0E0
-4.35585E1,0E0
-4.00332E1,0E0
-3.91093E1,0E0
-3.81035E1,0E0
-3.68613E1,0E0
-3.56523E1,0E0
-3.47109E1,0E0
-3.39218E1,0E0
-3.30234E1,0E0
-3.20820E1,0E0
-3.12382E1,0E0
-3.04404E1,0E0
-2.97089E1,0E0
-2.90351E1,0E0
-2.83632E1,0E0
-2.77050E1,0E0
-2.70937E1,0E0
-2.64550E1,0E0
-2.58691E1,0E0
-2.53076E1,0E0
-2.47363E1,0E0
-2.41962E1,0E0
-2.36826E1,0E0
-2.31992E1,0E0
-2.27041E1,0E0
-2.21972E1,0E0
-2.17519E1,0E0
-2.13310E1,0E0
-2.09052E1,0E0
-2.04980E1,0E0
-2.00712E1,0E0
-1.97080E1,0E0
-1.93584E1,0E0
-1.89648E1,0E0
-1.85917E1,0E0
-1.82470E1,0E0
-1.79189E1,0E0
-1.75751E1,0E0
-1.72246E1,0E0
-1.69130E1,0E0
-1.66425E1,0E0
-1.63378E1,0E0
-1.60302E1,0E0
-1.57304E1,0E0
-1.54775E1,0E0
-1.52392E1,0E0
-1.49643E1,0E0
-1.46674E1,0E0
-1.44199E1,0E0
-1.41772E1,0E0
-1.39345E1,0E0
-1.36855E1,0E0
-1.34418E1,0E0
-1.32421E1,0E0
-1.30600E1,0E0
-1.28408E1,0E0
-1.26328E1,0E0
-1.24311E1,0E0
-1.22563E1,0E0
-1.20693E1,0E0
-1.18129E1,0E0
-1.15903E1,0E0
-1.14155E1,0E0
-1.12133E1,0E0
-1.10571E1,0E0
-1.08725E1,0E0
-1.07177E1,0E0
-1.06259E1,0E0
-1.04990E1,0E0
-1.03715E1,0E0
-1.02661E1,0E0
-1.01079E1,0E0
-9.98730E0,0E0
-9.84082E0,0E0
-9.68554E0,0E0
-9.55419E0,0E0
-9.40185E0,0E0
-9.28710E0,0E0
-9.20800E0,0E0
-9.09179E0,0E0
-8.99804E0,0E0
-8.91015E0,0E0
-8.82763E0,0E0
-8.76757E0,0E0
-8.65185E0,0E0
-8.51806E0,0E0
-8.42578E0,0E0
-8.33544E0,0E0
-8.24658E0,0E0
-8.12695E0,0E0
-8.00878E0,0E0
-7.97827E0,0E0
-7.93920E0,0E0
-7.86206E0,0E0
-7.79565E0,0E0
-7.73584E0,0E0
-7.72973E0,0E0
-7.68481E0,0E0
-7.54003E0,0E0
-7.43579E0,0E0
-7.35205E0,0E0
-7.29321E0,0E0
-7.23754E0,0E0
-7.13159E0,0E0
-7.09570E0,0E0
-7.13916E0,0E0
-7.12353E0,0E0
-7.11010E0,0E0
-7.07006E0,0E0
-7.06445E0,0E0
-7.08374E0,0E0
-7.01782E0,0E0
-6.93286E0,0E0
-6.90356E0,0E0
-6.86962E0,0E0
-6.84936E0,0E0
-6.81835E0,0E0
-6.76464E0,0E0
-6.77832E0,0E0
-6.78564E0,0E0
-6.76928E0,0E0
-6.77026E0,0E0
-6.74951E0,0E0
-6.71899E0,0E0
-6.71557E0,0E0
-6.67211E0,0E0
-6.66430E0,0E0
-6.66284E0,0E0
-6.66088E0,0E0
-6.67041E0,0E0
-6.66943E0,0E0
-6.68627E0,0E0
-6.73974E0,0E0
-6.75219E0,0E0
-6.76660E0,0E0
-6.78637E0,0E0
-6.80444E0,0E0
-6.84326E0,0E0
-6.85376E0,0E0
-6.85839E0,0E0
-6.86523E0,0E0
-6.86206E0,0E0
-6.89379E0,0E0
-6.94043E0,0E0
-6.95239E0,0E0
-6.98681E0,0E0
-7.01904E0,0E0
-7.06811E0,0E0
-7.12646E0,0E0
-7.13330E0,0E0
-7.13745E0,0E0
-7.15283E0,0E0
-7.14404E0,0E0
-7.15747E0,0E0
-7.16650E0,0E0
-7.17724E0,0E0
-7.21093E0,0E0
-7.22094E0,0E0
-7.24731E0,0E0
-7.29052E0,0E0
-7.30712E0,0E0
-7.33618E0,0E0
-7.35961E0,0E0
-7.37475E0,0E0
-7.40576E0,0E0
-7.41259E0,0E0
-7.40918E0,0E0
-7.41601E0,0E0
-7.41308E0,0E0
-7.42382E0,0E0
-7.43359E0,0E0
-7.42260E0,0E0
-7.40454E0,0E0
-7.39697E0,0E0
-7.43115E0,0E0
-7.43872E0,0E0
-7.37133E0,0E0
-7.31005E0,0E0
-7.29199E0,0E0
-7.29370E0,0E0
-7.24292E0,0E0
-7.12085E0,0E0
-7.04028E0,0E0
-7.02539E0,0E0
-6.99047E0,0E0
-6.92041E0,0E0
-6.84668E0,0E0
-6.81933E0,0E0
-6.80712E0,0E0
-6.75537E0,0E0
-6.69995E0,0E0
-6.64086E0,0E0
-6.59277E0,0E0
-6.54980E0,0E0
-6.50439E0,0E0
-6.46728E0,0E0
END

