! Network Analyzer HP8722ES.07.74: Oct 30, 2002 Serial No. US39175660
! Hewlett-Packard
! 30 May 2012  16:40:10
! Frequency       S11                S21                S12                S22
# HZ  S  DB R  50 
50000000  -43.147    124.25   -15.349   -2.8304   -15.247   -2.4005   -55.54    30.182   
72250000  -37.959   -.8844   -15.304    6.3432   -15.473    4.227   -52.954    164.43   
94500000  -46.794    35.406   -15.394   -3.2341   -15.552   -4.0237   -61.34    72.003   
116750000  -43.074    105.4   -14.817   -1.8594   -15.124   -3.0281   -42.623    82.24   
139000000  -49.081    61.083   -15.159   -5.154   -15.325   -6.4751   -42.035    76.867   
161250000  -43.579    5.2913   -14.994   -7.3416   -15.197   -8.6586   -42.606    51.064   
183500000  -40.73    1.946   -15.104   -8.6586   -15.208   -10.434   -41.166    42.606   
205750000  -38.32    30.372   -15.129   -12.843   -15.161   -13.541   -38.44    44.595   
228000000  -38.35    49.077   -15.057   -12.49   -15.172   -13.425   -36.7    40.265   
250250000  -39.725    21.765   -15.274   -17.597   -15.346   -17.781   -36.655    31.946   
272500000  -37.137    17.247   -15.046   -16.992   -15.184   -17.525   -36.153    25.774   
294750000  -36.974    1.3156   -15.258   -20.323   -15.302   -20.875   -34.992    24.868   
317000000  -36.623    9.2848   -15.024   -20.709   -15.154   -21.156   -33.913    23.431   
339250000  -35.269   -3.7807   -15.133   -23.102   -15.217   -23.459   -32.711    18.026   
361500000  -33.326   -9.9426   -15.028   -24.883   -15.129   -25.502   -31.847    12.862   
383750000  -32.556   -11.702   -15.093   -26.238   -15.161   -27.07   -31.169    9.315   
406000000  -31.755   -13.038   -15.137   -28.97   -15.2   -29.419   -30.374    6.0686   
428250000  -31.023   -14.797   -15.107   -29.792   -15.168   -30.455   -29.559    4.3726   
450500000  -30.533   -16.407   -15.104   -32.662   -15.191   -33.043   -29.09   -1.8416   
472750000  -31.481   -16.184   -14.92   -33.845   -15.012   -34.224   -28.327   -5.132   
495000000  -28.743   -31.185   -15.146   -35.658   -15.102   -35.891   -27.596   -7.6657   
517250000  -28.482   -31.77   -15.132   -38.238   -15.035   -38.219   -27.13   -8.156   
539500000  -27.212   -32.189   -15.092   -39.717   -15.054   -39.716   -26.465   -12.007   
561750000  -26.336   -28.508   -15   -41.037   -15.079   -40.276   -25.766   -15.87   
584000000  -26.277   -35.421   -15.025   -42.996   -15.007   -42.413   -25.277   -19.141   
606250000  -25.863   -31.932   -14.834   -44.302   -14.769   -44.385   -24.621   -21.532   
628500000  -25.663   -42.498   -14.933   -46.64   -14.874   -46.864   -24.226   -24.111   
650750000  -24.7   -47.162   -14.903   -48.295   -14.897   -48.12   -23.667   -27.97   
673000000  -24.197   -46.173   -14.839   -49.988   -14.985   -50.503   -23.131   -31.193   
695250000  -23.301   -52.554   -14.802   -51.482   -14.79   -51.566   -22.682   -33.311   
717500000  -23.229   -54.435   -14.774   -53.167   -14.746   -52.619   -22.17   -35.431   
739750000  -22.959   -57.037   -14.866   -55.268   -14.88   -55.147   -21.896   -38.414   
762000000  -22.541   -58.836   -14.818   -57.04   -14.824   -56.687   -21.156   -41.51   
784250000  -21.645   -61.442   -14.691   -58.716   -14.681   -58.456   -20.676   -44.186   
806500000  -21.126   -63.214   -14.511   -60.797   -14.6   -61.044   -20.549   -47.126   
828750000  -20.944   -66.724   -14.449   -63.272   -14.566   -63.116   -20.183   -49.401   
851000000  -20.464   -68.669   -14.563   -64.087   -14.68   -64.671   -19.705   -51.533   
873250000  -20.076   -70.792   -14.59   -65.226   -14.703   -66.304   -19.322   -54.141   
895500000  -19.58   -73.538   -14.465   -67.516   -14.501   -67.71   -18.904   -55.94   
917750000  -19.165   -76.576   -14.452   -69.421   -14.497   -69.935   -18.613   -58.299   
940000000  -18.745   -77.422   -14.401   -71.411   -14.473   -71.496   -18.23   -60.882   
962250000  -18.592   -80.184   -14.436   -73.823   -14.377   -73.262   -17.793   -63.64   
984500000  -18.236   -82.808   -14.431   -75.521   -14.36   -75.245   -17.574   -66.293   
1006750000  -17.922   -84.372   -14.272   -76.995   -14.334   -76.922   -17.29   -67.952   
1029000000  -17.551   -87.196   -14.268   -78.959   -14.364   -78.891   -17.027   -70.085   
1051250000  -17.186   -90.136   -14.153   -80.132   -14.174   -80.17   -16.497   -71.712   
1073500000  -16.893   -92.822   -14.234   -82.314   -14.066   -81.825   -16.16   -74.46   
1095750000  -16.505   -93.301   -14.165   -83.78   -14.172   -84.147   -16.045   -77.395   
1118000000  -16.327   -94.541   -13.983   -85.557   -14.336   -85.892   -15.901   -79.103   
1140250000  -16.12   -97.199   -14.016   -88.635   -14.132   -87.746   -15.442   -81.113   
1162500000  -16.28   -100.88   -14.219   -90.269   -14.061   -89.919   -15.134   -83.699   
1184750000  -15.793   -103.08   -14.16   -91.383   -13.992   -91.592   -14.93   -85.798   
1207000000  -15.397   -105.14   -14.043   -92.729   -13.966   -93.933   -14.728   -88.141   
1229250000  -15.073   -107.43   -13.813   -94.61   -13.99   -95.865   -14.49   -89.951   
1251500000  -14.948   -109.59   -13.858   -97.502   -13.924   -97.31   -14.124   -92.092   
1273750000  -14.793   -110.93   -14.019   -99.23   -13.788   -99.014   -13.822   -94.833   
1296000000  -14.348   -113   -13.888   -100.8   -13.74   -100.52   -13.709   -96.235   
1318250000  -14.091   -115.91   -13.764   -102.9   -13.672   -103.3   -13.436   -98.107   
1340500000  -14.088   -117.19   -13.7   -104.81   -13.794   -105.67   -13.231   -100.84   
1362750000  -13.945   -119.25   -13.65   -107.1   -13.852   -106.42   -12.986   -102.37   
1385000000  -13.764   -122.4   -13.767   -108.94   -13.655   -107.65   -12.783   -104.92   
1407250000  -13.427   -125.14   -13.68   -109.6   -13.609   -110.19   -12.727   -107.42   
1429500000  -13.179   -127.51   -13.455   -111.56   -13.562   -113.13   -12.546   -109.19   
1451750000  -13.091   -129.18   -13.425   -114.67   -13.598   -114.89   -12.175   -111.06   
1474000000  -12.875   -130.93   -13.541   -117.58   -13.652   -115.19   -11.98   -113.23   
1496250000  -12.792   -132.54   -13.743   -118.84   -13.564   -117.51   -11.82   -115.97   
1518500000  -12.753   -133.6   -13.794   -117.98   -13.515   -120.85   -11.76   -119.32   
1540750000  -12.542   -136.84   -13.377   -120.01   -13.399   -123.05   -11.473   -120.13   
1563000000  -12.537   -141.96   -13.41   -126.02   -13.098   -124.97   -10.936   -121.92   
1585250000  -12.339   -143.23   -13.452   -128.1   -13.297   -125.78   -10.985   -124.39   
1607500000  -12.054   -144.61   -13.464   -128.25   -13.256   -127.58   -10.952   -126.09   
1629750000  -11.623   -147.83   -13.206   -128.35   -12.924   -130.44   -10.565   -128.01   
1652000000  -11.698   -148.97   -13.291   -131.14   -13.363   -131.01   -10.725   -129.13   
1674250000  -11.671   -151.64   -13.288   -134.33   -13.378   -130.85   -10.469   -129.75   
1696500000  -11.507   -152.45   -13.285   -135.27   -13.328   -134.91   -10.391   -135.03   
1718750000  -11.318   -153.79   -13.178   -136.57   -13.212   -136.81   -10.291   -136.71   
1741000000  -11.338   -157.28   -13.066   -138.79   -13.109   -139.97   -10.098   -139.18   
1763250000  -11.261   -159.34   -13.044   -141.8   -13.175   -141.65   -10.06   -140.72   
1785500000  -11.154   -162.21   -13.086   -144.03   -13.109   -142.85   -9.8269   -142.76   
1807750000  -11.31   -162.47   -13.364   -144.45   -13.157   -147.71   -9.6165   -147.12   
1830000000  -10.931   -165.46   -13.174   -145.32   -13.031   -149.38   -9.6236   -148.86   
1852250000  -10.779   -168.75   -12.964   -148.55   -13.043   -149.02   -9.3685   -149.02   
1874500000  -10.79   -170.15   -12.961   -150.43   -12.986   -150.29   -9.2049   -151.14   
1896750000  -10.701   -172.52   -12.99   -152.63   -12.819   -151.87   -9.1763   -153.54   
1919000000  -10.848   -175.27   -13.12   -154.02   -12.596   -155.15   -8.9932   -155.92   
1941250000  -10.506   -177.02   -12.687   -155.83   -12.803   -158.03   -9.0257   -157.68   
1963500000  -10.387   -179.55   -12.488   -160.06   -13.096   -158.62   -9.0623   -159.29   
1985750000  -10.381    177.64   -12.721   -162.27   -12.924   -159.56   -8.8108   -161.93   
2008000000  -10.307    175.43   -12.929   -163.09   -12.717   -163.48   -8.7126   -165.37   
2030250000  -10.18    173.31   -12.783   -163.48   -12.509   -165.92   -8.5873   -166.46   
2052500000  -9.994    171.79   -12.407   -164.98   -12.733   -167.34   -8.6002   -167.71   
2074750000  -9.9005    169.36   -12.25   -168.66   -12.96   -167.76   -8.5728   -169.19   
2097000000  -10.157    166.53   -12.662   -171.29   -12.543   -169.47   -8.2146   -172.5   
2119250000  -10.273    165.16   -12.817   -171.07   -12.301   -173.13   -8.1278   -175.67   
2141500000  -9.9734    162.02   -12.401   -172.98   -12.356   -175.49   -8.1647   -176.58   
2163750000  -9.7472    158.63   -11.926   -177.09   -12.569   -177.01   -8.0791   -178.67   
2186000000  -9.8222    156.76   -12.022   -179.98   -12.589   -177.81   -7.964    179.03   
2208250000  -10.088    155.67   -12.525    179.19   -12.161   -179.45   -7.765    177.24   
2230500000  -9.8838    153.3   -12.658    178.43   -11.93    176.73   -7.7444    174.64   
2252750000  -9.3958    149.2   -12.105    175.76   -12.448    174.59   -8.0021    174.62   
2275000000  -9.5218    146.06   -11.882    172.93   -12.682    173.99   -7.8541    172.97   
2297250000  -9.738    146.03   -11.995    171.58   -12.417    171.42   -7.6255    168.18   
2319500000  -9.6974    143.59   -12.139    169.08   -12.061    169.98   -7.6131    166.18   
2341750000  -9.6185    140.41   -12.163    167.52   -11.812    167.29   -7.5454    164.13   
2364000000  -9.3297    137.04   -11.624    165.61   -12.217    162.95   -7.7232    160.51   
2386250000  -9.5483    135.06   -11.576    163.27   -12.15    162.85   -7.4292    160.12   
2408500000  -9.7119    134.05   -12.017    159.5   -11.602    161.35   -6.9891    157.59   
2430750000  -9.5282    131.35   -12.227    158.39   -11.6    158.68   -7.1242    155.67   
2453000000  -9.0328    128.4   -11.661    158.55   -11.654    156.42   -7.0395    155.11   
2475250000  -9.3538    125.88   -11.481    156.71   -12.112    154.34   -7.2014    152.18   
2497500000  -9.6814    122.38   -11.645    152.51   -12.037    155.15   -7.1555    150.27   
2519750000  -9.8114    119.95   -11.981    149.83   -11.444    153.56   -6.9813    147.91   
2542000000  -9.4896    117.59   -11.741    148.09   -11.476    148.28   -7.1787    144.71   
2564250000  -9.2282    113.4   -11.219    145.53   -11.959    146.09   -7.2927    142.98   
2586500000  -9.5008    112.11   -11.272    145.06   -11.922    144.36   -7.0153    140.9   
2608750000  -9.3822    110.98   -11.328    141.32   -11.683    143.94   -6.9445    138.83   
2631000000  -9.4772    107.7   -11.698    138.41   -11.372    141.63   -6.9225    136.71   
2653250000  -9.2376    106.22   -11.56    139.4   -11.576    136.68   -7.1149    133.18   
2675500000  -9.3476    102.65   -11.371    137.96   -11.803    135.05   -7.116    131.66   
2697750000  -9.8393    98.955   -11.523    135.98   -11.484    135.06   -6.7178    129.77   
2720000000  -9.8775    96.611   -11.499    132.79   -11.187    132.71   -6.6985    126.43   
2742250000  -9.6827    92.795   -11.252    129.63   -11.07    130.6   -6.8106    125.15   
2764500000  -9.6091    89.657   -11.192    128.41   -11.116    127.32   -6.7055    122.73   
2786750000  -9.6416    87.117   -11.009    126.45   -11.432    125.15   -6.7821    120.8   
2809000000  -9.7898    85.023   -11.121    121.84   -11.497    126.93   -6.8979    120.21   
2831250000  -9.7702    82.605   -11.312    119.83   -11.109    123.5   -6.7389    116.61   
2853500000  -9.4313    80.964   -11.118    120.06   -11.141    119.48   -6.813    113.37   
2875750000  -9.7142    77.099   -11.111    120.02   -11.267    117.75   -6.7512    111.67   
2898000000  -9.8954    72.422   -10.908    116.68   -11.227    115.61   -6.6957    108.61   
2920250000  -10.069    68.674   -10.758    112.52   -10.928    114.83   -6.7115    106.61   
2942500000  -9.9316    65.631   -10.712    110.98   -10.583    111.56   -6.6371    103.36   
2964750000  -9.7271    61.952   -10.566    109.2   -10.696    107.03   -6.685    99.621   
2987000000  -9.9658    59.289   -10.683    107.03   -10.906    107.26   -6.7137    99.635   
3009250000  -10.074    57.978   -10.813    104.32   -10.609    107.95   -6.5097    99.15   
3031500000  -10.058    53.697   -10.859    101.3   -10.495    103.88   -6.6961    94.738   
3053750000  -10.146    52.379   -10.86    101.78   -10.518    101.31   -6.6861    92.947   
3076000000  -10.226    47.177   -10.711    101.3   -10.668    98.963   -6.6973    90.001   
3098250000  -10.31    42.808   -10.522    97.631   -10.566    98.969   -6.704    88.389   
3120500000  -10.401    39.037   -10.331    93.465   -10.106    96.821   -6.6781    85.707   
3142750000  -10.302    35.333   -10.25    89.69   -10.064    91.203   -6.8324    81.731   
3165000000  -10.335    31.345   -10.441    88.005   -10.283    87.472   -6.8843    79.356   
3187250000  -10.165    28.626   -10.38    87.424   -10.459    86.527   -6.7814    77.081   
3209500000  -10.226    25.525   -10.263    84.455   -10.287    85.632   -6.7881    74.386   
3231750000  -10.305    21.945   -10.228    81.141   -9.8957    84.386   -6.835    72.069   
3254000000  -10.342    18.796   -10.251    79.222   -9.7976    79.342   -6.8313    67.53   
3276250000  -10.308    13.998   -10.296    79.021   -10.049    76.082   -6.9495    65.805   
3298500000  -10.454    10.291   -10.037    78.315   -10.128    75.3   -6.906    64.126   
3320750000  -10.401    6.2073   -9.5718    74.463   -9.8971    74.28   -6.9167    61.312   
3343000000  -10.371    2.8111   -9.5973    70.487   -9.565    71.213   -6.8286    57.66   
3365250000  -10.283   -.6001   -9.866    68.47   -9.5183    66.533   -6.7665    54.272   
3387500000  -10.214   -4.7145   -10.237    65.565   -9.9675    65.06   -7.0575    54.072   
3409750000  -10.416   -7.6437   -10.171    65.421   -10.01    65.989   -7.1568    53.196   
3432000000  -10.21   -11.273   -9.7409    62.383   -9.5658    62.643   -7.0338    48.212   
3454250000  -10.403   -16.576   -9.7985    58.832   -9.5918    58.3   -7.1462    43.978   
3476500000  -10.225   -20.196   -9.8903    57.533   -9.7054    54.882   -7.1425    42.102   
3498750000  -10.225   -24.582   -9.749    54.886   -9.8057    52.533   -7.1724    38.926   
3521000000  -10.136   -28.555   -9.4594    52.167   -9.6734    51.828   -7.1754    36.612   
3543250000  -9.9618   -32.205   -9.3047    48.288   -9.3821    49.346   -7.1058    33.007   
3565500000  -9.8428   -36.03   -9.6211    44.675   -9.4853    45.115   -7.185    29.75   
3587750000  -9.8438   -37.781   -9.9582    44.854   -9.6124    43.025   -7.1422    28.768   
3610000000  -9.7356   -40.956   -9.8024    45.444   -9.6438    42.09   -7.0843    26.389   
3632250000  -9.7262   -45.302   -9.4532    42.616   -9.5007    39.919   -7.2372    22.505   
3654500000  -9.7708   -49.254   -9.1853    40.137   -9.3229    37.461   -7.2355    19.921   
3676750000  -9.6074   -53.267   -9.1776    35.89   -9.4768    34.188   -7.2503    16.58   
3699000000  -9.435   -57.469   -9.329    32.531   -9.5451    32.658   -7.3414    13.913   
3721250000  -9.2712   -60.248   -9.241    29.765   -9.2839    30.425   -7.2548    11.077   
3743500000  -9.2596   -64.845   -9.4381    26.226   -9.2326    25.637   -7.3272    6.9269   
3765750000  -9.1787   -67.51   -9.6211    25.23   -9.5313    21.949   -7.3856    4.0169   
3788000000  -9.1572   -69.922   -9.6375    25.539   -9.7427    21.747   -7.3544    3.333   
3810250000  -9.1472   -72.734   -9.2689    23.717   -9.5783    22.534   -7.4391    2.0091   
3832500000  -9.0703   -77.183   -8.8069    18.932   -9.2732    20.208   -7.4144   -4.8546   
3854750000  -9.0108   -81.906   -8.9777    14.025   -9.1848    14.454   -7.4465   -9.9371   
3877000000  -8.9076   -84.183   -9.3844    11.639   -9.3679    11.684   -7.4723   -11.155   
3899250000  -8.5843   -86.891   -9.4076    11.206   -9.3955    11.011   -7.3748   -12.027   
3921500000  -8.475   -90.179   -9.2173    9.6611   -9.2963    9.7751   -7.362   -15.724   
3943750000  -8.4898   -91.861   -9.1595    7.2194   -9.2495    6.7484   -7.4032   -19.365   
3966000000  -8.4752   -95.017   -9.2628    3.7834   -9.3919    2.5626   -7.4185   -22.426   
3988250000  -8.3317   -98.253   -9.4296    1.7084   -9.7714    .7814   -7.4886   -25.117   
4010500000  -8.2683   -100.32   -9.2363    1.192   -9.7077    2.1863   -7.5142   -27.83   
4032750000  -8.2468   -104.81   -8.8774   -1.8993   -9.2503    .6770   -7.3967   -32.162   
4055000000  -8.1843   -108.45   -8.96   -8.1752   -9.1868   -3.9935   -7.2484   -37.12   
4077250000  -8.0461   -111.38   -9.2748   -11.797   -9.1202   -10.257   -7.3086   -38.301   
4099500000  -8.1273   -114.15   -9.4052   -14.503   -9.5065   -13.376   -7.6429   -41.613   
4121750000  -7.9294   -116.31   -9.4725   -11.419   -9.6373   -11.556   -7.4715   -43.565   
4144000000  -7.3637   -119.16   -9.0423   -12.03   -9.1018   -11.924   -7.0158   -46.276   
4166250000  -7.4186   -122.21   -8.8989   -16.986   -8.9158   -16.517   -7.0853   -50.017   
4188500000  -7.6757   -123.71   -9.0379   -20.341   -9.1915   -19.758   -7.2699   -52.59   
4210750000  -7.6972   -126.55   -9.2833   -21.782   -9.3715   -20.945   -7.2614   -55.326   
4233000000  -7.411   -130.17   -9.1323   -23.368   -9.1878   -22.227   -6.9534   -59.393   
4255250000  -7.3341   -132.79   -8.8166   -26.855   -8.9715   -25.568   -6.7881   -62.935   
4277500000  -7.2876   -136.09   -8.9234   -31.362   -8.8881   -29.967   -6.9072   -65.097   
4299750000  -7.1085   -137.88   -9.2858   -33.323   -9.0858   -31.658   -6.912   -67.059   
4322000000  -6.9792   -140.94   -9.5563   -33.97   -9.1806   -33.195   -6.8401   -70.469   
4344250000  -7.1864   -143.85   -9.5538   -34.766   -9.2228   -35.397   -6.7803   -74.162   
4366500000  -7.0952   -145.79   -9.1362   -36.711   -9.062   -38.753   -6.7453   -77.134   
4388750000  -6.9836   -147.88   -8.8396   -40.824   -9.0562   -42.025   -6.7609   -80.565   
4411000000  -7.0136   -150.78   -8.957   -44.889   -9.1761   -43.59   -6.7033   -83.39   
4433250000  -6.8961   -153.33   -9.1593   -47.225   -8.9965   -44.626   -6.5442   -86.416   
4455500000  -6.8359   -155.93   -9.368   -49.206   -8.825   -48.965   -6.5244   -89.305   
4477750000  -6.7108   -158.29   -9.4665   -50.762   -8.9087   -53.028   -6.4271   -91.821   
4500000000  -6.602   -161.53   -9.4617   -52.44   -9.0729   -54.447   -6.4436   -94.064   

