CITIFILE A.01.00
#NA VERSION HP8722ES.07.74: Oct 30, 2002
NAME DATA
VAR FREQ MAG 201
DATA S[1,1] RI
DATA S[2,1] RI
DATA S[1,2] RI
DATA S[2,2] RI
SEG_LIST_BEGIN
SEG 1000000000 3000000000 201
SEG_LIST_END
BEGIN
-5.74340E-1,-5.14160E-1
-5.88134E-1,-4.96887E-1
-5.97839E-1,-4.76684E-1
-5.91674E-1,-4.58862E-1
-5.93811E-1,-4.50378E-1
-6.05163E-1,-4.19616E-1
-5.88653E-1,-3.78051E-1
-5.78796E-1,-3.62793E-1
-5.71991E-1,-3.56384E-1
-5.81787E-1,-3.66333E-1
-6.09527E-1,-3.88183E-1
-6.31195E-1,-3.85101E-1
-6.3974E-1,-3.67340E-1
-6.41784E-1,-3.29101E-1
-6.14685E-1,-3.11401E-1
-5.85632E-1,-3.03405E-1
-5.78674E-1,-2.88635E-1
-5.76995E-1,-2.80761E-1
-5.96984E-1,-2.79144E-1
-6.13769E-1,-2.61993E-1
-6.23657E-1,-2.56591E-1
-6.24176E-1,-2.50701E-1
-6.34307E-1,-2.38830E-1
-6.34918E-1,-2.29370E-1
-6.37329E-1,-2.16430E-1
-6.23718E-1,-1.94519E-1
-6.10931E-1,-1.91314E-1
-6.13616E-1,-1.89178E-1
-6.19171E-1,-1.80786E-1
-6.31958E-1,-1.69158E-1
-6.43463E-1,-1.44683E-1
-6.36352E-1,-1.22741E-1
-6.31927E-1,-1.16821E-1
-6.32415E-1,-1.07086E-1
-6.34307E-1,-1.04095E-1
-6.52648E-1,-9.46655E-2
-6.56616E-1,-6.60400E-2
-6.48132E-1,-4.78210E-2
-6.46484E-1,-3.91540E-2
-6.46179E-1,-3.14941E-2
-6.55700E-1,-2.76184E-2
-6.71844E-1,-1.09558E-2
-6.65893E-1,0.11901E-1
-6.55395E-1,0.22155E-1
-6.43920E-1,0.24902E-1
-6.38000E-1,0.26062E-1
-6.41265E-1,0.33294E-1
-6.42883E-1,0.52673E-1
-6.36444E-1,0.64819E-1
-6.29211E-1,0.76721E-1
-6.27227E-1,0.78674E-1
-6.29913E-1,0.76934E-1
-6.38793E-1,0.91308E-1
-6.27990E-1,1.15509E-1
-6.09100E-1,1.29608E-1
-5.88775E-1,1.48468E-1
-5.70434E-1,1.53167E-1
-5.68573E-1,1.55120E-1
-5.75439E-1,1.67785E-1
-5.87066E-1,1.75903E-1
-5.89782E-1,1.92718E-1
-5.78125E-1,2.04956E-1
-5.78033E-1,2.03582E-1
-6.00921E-1,2.17346E-1
-5.78247E-1,2.27874E-1
-5.76568E-1,2.40600E-1
-5.71411E-1,2.62664E-1
-5.61462E-1,2.69226E-1
-5.68512E-1,2.74902E-1
-5.77575E-1,2.85369E-1
-5.77209E-1,2.91900E-1
-5.84655E-1,3.06793E-1
-5.72601E-1,3.32885E-1
-5.62194E-1,3.48602E-1
-5.57983E-1,3.69628E-1
-5.51696E-1,3.91357E-1
-5.50109E-1,4.16015E-1
-5.39245E-1,4.44641E-1
-5.20690E-1,4.60144E-1
-5.14984E-1,4.72045E-1
-5.13488E-1,4.56939E-1
-5.14923E-1,4.52392E-1
-5.34301E-1,4.97680E-1
-5.10101E-1,5.41107E-1
-4.60144E-1,5.76202E-1
-4.33166E-1,5.97015E-1
-4.18029E-1,6.12274E-1
-4.01123E-1,6.47338E-1
-3.72070E-1,6.8573E-1
-3.26507E-1,7.23938E-1
-2.90466E-1,7.27905E-1
-2.63214E-1,7.28851E-1
-2.20184E-1,7.70355E-1
-1.44073E-1,8.05908E-1
-6.31713E-2,7.91992E-1
-7.78198E-3,7.61688E-1
0.17700E-1,7.06237E-1
0.17150E-1,6.70410E-1
0.16998E-1,6.50543E-1
0.18646E-1,6.51031E-1
0.34606E-1,6.47857E-1
0.59143E-1,6.42150E-1
0.78796E-1,6.29211E-1
0.90454E-1,6.21612E-1
1.08795E-1,6.15509E-1
1.39770E-1,6.09558E-1
1.69311E-1,5.93200E-1
1.88842E-1,5.72143E-1
1.96289E-1,5.55725E-1
2.01416E-1,5.49377E-1
2.11120E-1,5.40710E-1
2.35046E-1,5.34729E-1
2.68005E-1,5.23925E-1
2.96447E-1,4.96978E-1
3.04992E-1,4.65362E-1
3.16833E-1,4.35028E-1
3.26934E-1,4.14581E-1
3.36059E-1,4.02740E-1
3.51135E-1,3.92730E-1
3.59832E-1,3.81103E-1
3.55529E-1,3.64440E-1
3.61206E-1,3.50860E-1
3.73077E-1,3.29956E-1
3.87023E-1,3.01910E-1
3.94714E-1,2.68005E-1
3.90960E-1,2.37548E-1
3.82110E-1,2.21832E-1
3.82324E-1,2.10052E-1
3.87115E-1,1.96655E-1
3.97766E-1,1.81121E-1
4.02404E-1,1.56463E-1
3.97430E-1,1.35711E-1
3.94439E-1,1.22528E-1
3.92944E-1,1.09771E-1
3.94195E-1,0.98693E-1
3.96392E-1,0.75958E-1
3.92044E-1,0.52536E-1
3.79959E-1,0.40130E-1
3.83285E-1,0.38742E-1
3.83148E-1,0.36361E-1
3.78631E-1,0.32074E-1
3.78356E-1,0.21072E-1
3.71887E-1,0.01342E-1
3.65158E-1,-1.44958E-2
3.56460E-1,-2.94647E-2
3.56994E-1,-3.36151E-2
3.49639E-1,-5.34057E-2
3.39050E-1,-7.31201E-2
3.26553E-1,-8.30535E-2
3.22998E-1,-9.05151E-2
3.21914E-1,-9.77172E-2
3.20816E-1,-1.08184E-1
3.15429E-1,-1.21139E-1
3.07357E-1,-1.35818E-1
2.94403E-1,-1.44714E-1
2.84240E-1,-1.57363E-1
2.75131E-1,-1.61560E-1
2.73544E-1,-1.66000E-1
2.72735E-1,-1.75308E-1
2.68493E-1,-1.85577E-1
2.57766E-1,-1.89666E-1
2.46917E-1,-1.96502E-1
2.39273E-1,-2.05917E-1
2.34764E-1,-2.17681E-1
2.30232E-1,-2.30468E-1
2.23869E-1,-2.37823E-1
2.15011E-1,-2.47985E-1
2.01324E-1,-2.59826E-1
1.85089E-1,-2.67028E-1
1.79107E-1,-2.70904E-1
1.72424E-1,-2.82775E-1
1.62902E-1,-2.95120E-1
1.55136E-1,-3.03634E-1
1.50573E-1,-3.08349E-1
1.47338E-1,-3.12637E-1
1.40350E-1,-3.22860E-1
1.27059E-1,-3.32000E-1
1.15188E-1,-3.39126E-1
1.04721E-1,-3.38378E-1
0.93719E-1,-3.38546E-1
0.82336E-1,-3.38882E-1
0.71060E-1,-3.44436E-1
0.54397E-1,-3.55606E-1
0.37048E-1,-3.65280E-1
0.21148E-1,-3.69461E-1
0.06424E-1,-3.71566E-1
-8.59069E-3,-3.75534E-1
-2.57873E-2,-3.81286E-1
-4.47845E-2,-3.83132E-1
-5.83648E-2,-3.76968E-1
-6.37512E-2,-3.73382E-1
-7.45544E-2,-3.77014E-1
-8.84399E-2,-3.79196E-1
-1.00006E-1,-3.79135E-1
-1.16165E-1,-3.77471E-1
-1.35711E-1,-3.74511E-1
-1.49017E-1,-3.71704E-1
-1.5802E-1,-3.69659E-1
-1.65313E-1,-3.71215E-1
-1.78009E-1,-3.74023E-1
-1.93939E-1,-3.70880E-1
END
BEGIN
7.65228E-2,0.11863E-2
1.07185E-1,1.43966E-2
1.00624E-1,4.13589E-2
1.35330E-1,1.05239E-1
1.65496E-1,0.82519E-1
1.64169E-1,0.98907E-1
2.26165E-1,1.44714E-1
2.52105E-1,0.92559E-1
2.62710E-1,1.01455E-1
3.20358E-1,1.13861E-1
3.38958E-1,0.94390E-1
3.78097E-1,1.16821E-1
4.45373E-1,0.68389E-1
4.09088E-1,0.16876E-1
4.19982E-1,0.13763E-1
4.39422E-1,-2.62451E-2
4.21920E-1,-5.23071E-2
4.60083E-1,-7.49359E-2
4.66201E-1,-1.47949E-1
4.43618E-1,-1.81243E-1
4.69986E-1,-2.13714E-1
4.28146E-1,-2.74215E-1
3.98330E-1,-2.83172E-1
3.89175E-1,-3.08273E-1
3.56536E-1,-3.20083E-1
3.47381E-1,-3.10211E-1
3.59542E-1,-3.45977E-1
3.38363E-1,-3.70132E-1
3.39126E-1,-3.85955E-1
3.28002E-1,-4.39147E-1
2.67715E-1,-4.58114E-1
2.33001E-1,-4.54940E-1
1.92352E-1,-4.67422E-1
1.68289E-1,-4.5047E-1
1.65847E-1,-4.7229E-1
1.33117E-1,-5.13244E-1
1.03057E-1,-5.07415E-1
0.87493E-1,-5.17700E-1
0.51361E-1,-5.27984E-1
0.35675E-1,-5.18371E-1
0.01312E-1,-5.41229E-1
-6.57959E-2,-5.40100E-1
-9.05456E-2,-4.99023E-1
-1.09497E-1,-4.76135E-1
-1.14440E-1,-4.35424E-1
-9.21020E-2,-4.14184E-1
-1.02539E-1,-4.20959E-1
-1.15966E-1,-4.11010E-1
-1.13525E-1,-4.17816E-1
-1.56005E-1,-4.35394E-1
-1.96777E-1,-4.20593E-1
-2.21069E-1,-4.13635E-1
-2.83783E-1,-3.82507E-1
-2.75177E-1,-3.09661E-1
-2.46032E-1,-2.73590E-1
-2.29995E-1,-2.33291E-1
-1.65649E-1,-2.13592E-1
-1.44928E-1,-2.30697E-1
-1.63024E-1,-2.09945E-1
-1.38671E-1,-2.02255E-1
-1.63543E-1,-2.01156E-1
-1.63818E-1,-1.45813E-1
-1.08779E-1,-1.67694E-1
-1.22665E-1,-1.73141E-1
-9.32998E-2,-1.37504E-1
-4.81491E-2,-1.75094E-1
-4.83551E-2,-1.89605E-1
-1.88446E-3,-2.10876E-1
-1.28936E-2,-2.73651E-1
-2.20489E-2,-2.71286E-1
0.04272E-1,-2.95822E-1
-3.50189E-2,-3.44635E-1
-5.59845E-2,-3.35845E-1
-6.73522E-2,-3.66027E-1
-1.12640E-1,-3.77838E-1
-1.26281E-1,-3.81958E-1
-1.61438E-1,-4.22363E-1
-2.21923E-1,-4.23278E-1
-2.49725E-1,-4.10919E-1
-2.84973E-1,-4.10278E-1
-3.08227E-1,-3.95446E-1
-3.32702E-1,-3.89221E-1
-3.82507E-1,-3.80127E-1
-4.32800E-1,-3.41583E-1
-4.78454E-1,-2.95562E-1
-5.1474E-1,-2.47497E-1
-5.47149E-1,-2.14294E-1
-5.94299E-1,-1.49444E-1
-6.15295E-1,-7.62939E-2
-6.32507E-1,0.14251E-1
-6.00463E-1,0.89355E-1
-5.65399E-1,1.27533E-1
-5.63018E-1,2.30255E-1
-5.05188E-1,3.20404E-1
-4.23172E-1,3.27850E-1
-3.54263E-1,3.16497E-1
-2.81951E-1,2.63397E-1
-2.53967E-1,2.07061E-1
-2.35687E-1,1.64413E-1
-2.39738E-1,1.27540E-1
-2.48687E-1,1.15165E-1
-2.50030E-1,1.17553E-1
-2.51220E-1,1.15905E-1
-2.55416E-1,1.19140E-1
-2.50488E-1,1.31454E-1
-2.38983E-1,1.40838E-1
-2.26135E-1,1.46560E-1
-2.16552E-1,1.46026E-1
-2.12905E-1,1.39572E-1
-2.16918E-1,1.35040E-1
-2.20596E-1,1.35330E-1
-2.22015E-1,1.44882E-1
-2.15850E-1,1.63604E-1
-1.97929E-1,1.79557E-1
-1.75659E-1,1.77284E-1
-1.55304E-1,1.74362E-1
-1.40625E-1,1.67678E-1
-1.37702E-1,1.60293E-1
-1.40548E-1,1.59812E-1
-1.41304E-1,1.60713E-1
-1.40586E-1,1.63673E-1
-1.41380E-1,1.75987E-1
-1.33766E-1,1.85676E-1
-1.25679E-1,1.90498E-1
-1.10435E-1,1.90200E-1
-9.12094E-2,1.76498E-1
-8.66699E-2,1.63742E-1
-8.25347E-2,1.62071E-1
-7.67593E-2,1.58889E-1
-7.59353E-2,1.60965E-1
-7.20138E-2,1.64444E-1
-6.65054E-2,1.62338E-1
-6.49871E-2,1.62941E-1
-5.97534E-2,1.65763E-1
-5.51528E-2,1.63604E-1
-4.55322E-2,1.62124E-1
-3.35998E-2,1.56387E-1
-3.05023E-2,1.45874E-1
-3.55377E-2,1.43219E-1
-3.86734E-2,1.41181E-1
-4.46929E-2,1.39007E-1
-4.79507E-2,1.44866E-1
-4.23431E-2,1.51077E-1
-3.47061E-2,1.53656E-1
-2.41775E-2,1.53297E-1
-1.90887E-2,1.47728E-1
-1.50604E-2,1.37291E-1
-1.16729E-2,1.30638E-1
-9.20486E-3,1.23760E-1
-1.05285E-2,1.20796E-1
-1.49116E-2,1.21769E-1
-1.63002E-2,1.23611E-1
-1.46255E-2,1.26739E-1
-7.91168E-3,1.29264E-1
-1.60217E-4,1.25221E-1
0.00984E-1,1.26121E-1
0.48370E-2,1.20243E-1
0.44670E-2,1.14200E-1
0.22316E-2,1.12194E-1
0.05493E-2,1.11030E-1
-3.12423E-3,1.10595E-1
-4.99343E-3,1.13548E-1
-2.71225E-3,1.17481E-1
0.18768E-2,1.20304E-1
0.70419E-2,1.20056E-1
1.07879E-2,1.15478E-1
1.31721E-2,1.09661E-1
1.50680E-2,1.05552E-1
1.65023E-2,1.02195E-1
1.68991E-2,1.02470E-1
1.81655E-2,1.05445E-1
1.94053E-2,1.06544E-1
1.94664E-2,1.06029E-1
1.94397E-2,1.05056E-1
2.01149E-2,1.02916E-1
2.21786E-2,1.01066E-1
2.35595E-2,9.89456E-2
2.41775E-2,9.65156E-2
2.34336E-2,9.47456E-2
2.15835E-2,9.45472E-2
1.91421E-2,9.69085E-2
1.91421E-2,1.00399E-1
2.27279E-2,1.03393E-1
2.91900E-2,1.03981E-1
3.47213E-2,1.01402E-1
3.66363E-2,9.59854E-2
3.83453E-2,8.97598E-2
4.03442E-2,8.44268E-2
4.19921E-2,8.07724E-2
4.05082E-2,8.01162E-2
3.89022E-2,8.23669E-2
3.93524E-2,8.37249E-2
4.00581E-2,8.4198E-2
4.12445E-2,8.46252E-2
4.43000E-2,8.34541E-2
4.76303E-2,8.12072E-2
4.88052E-2,7.83157E-2
4.90875E-2,7.64083E-2
4.90188E-2,7.60192E-2
4.92706E-2,7.70950E-2
5.04837E-2,7.93380E-2
END
BEGIN
2.27928E-2,1.19342E-2
2.22435E-2,1.28994E-2
2.21061E-2,1.33876E-2
2.21042E-2,1.42555E-2
2.28767E-2,1.50165E-2
2.42958E-2,1.53579E-2
2.53849E-2,1.51901E-2
2.62107E-2,1.51348E-2
2.71663E-2,1.61876E-2
2.88543E-2,1.84269E-2
3.10573E-2,2.10132E-2
3.40557E-2,2.27489E-2
3.79581E-2,2.22644E-2
4.00581E-2,1.96342E-2
3.97758E-2,1.76315E-2
3.87916E-2,1.76620E-2
3.97300E-2,1.86367E-2
4.27627E-2,1.90143E-2
4.59518E-2,1.74026E-2
4.67205E-2,1.41010E-2
4.66480E-2,1.35364E-2
4.60205E-2,1.33914E-2
4.70676E-2,1.42402E-2
4.84123E-2,1.45530E-2
4.96559E-2,1.44996E-2
5.07011E-2,1.48506E-2
5.22232E-2,1.57203E-2
5.49240E-2,1.59492E-2
5.87806E-2,1.51557E-2
6.33010E-2,1.27296E-2
6.60133E-2,0.88691E-2
6.64787E-2,0.59394E-2
6.67152E-2,0.45471E-2
6.78939E-2,0.44860E-2
7.09533E-2,0.41427E-2
7.58285E-2,0.3479E-2
8.20007E-2,-9.91821E-4
8.08639E-2,-9.89151E-3
7.76710E-2,-9.06372E-3
8.07914E-2,-8.49533E-3
8.60252E-2,-1.00631E-2
9.06677E-2,-1.41792E-2
9.07745E-2,-2.05116E-2
8.69827E-2,-2.40936E-2
8.19320E-2,-2.54974E-2
8.09478E-2,-2.47497E-2
8.36830E-2,-2.21672E-2
8.80508E-2,-2.22778E-2
9.10377E-2,-2.47650E-2
9.22164E-2,-2.89573E-2
9.38606E-2,-3.35960E-2
9.50431E-2,-3.88755E-2
9.44175E-2,-4.50706E-2
9.12399E-2,-4.99458E-2
8.63494E-2,-5.12237E-2
8.09631E-2,-4.86106E-2
7.9319E-2,-4.64439E-2
8.12263E-2,-4.68788E-2
8.61282E-2,-5.26275E-2
8.85696E-2,-6.23512E-2
8.61358E-2,-6.44455E-2
8.49990E-2,-6.62918E-2
8.37554E-2,-6.80198E-2
8.60710E-2,-6.88056E-2
8.43963E-2,-6.78367E-2
8.47244E-2,-6.8367E-2
8.61549E-2,-6.73675E-2
9.15260E-2,-6.56623E-2
9.91668E-2,-6.62460E-2
1.07685E-1,-6.99806E-2
1.13327E-1,-7.69271E-2
1.16142E-1,-8.58306E-2
1.16806E-1,-9.36584E-2
1.17698E-1,-9.96933E-2
1.21223E-1,-1.06025E-1
1.25999E-1,-1.15425E-1
1.30722E-1,-1.26113E-1
1.34521E-1,-1.37481E-1
1.37107E-1,-1.48300E-1
1.39205E-1,-1.58432E-1
1.36047E-1,-1.68022E-1
1.29974E-1,-1.74057E-1
1.36123E-1,-1.86554E-1
1.32049E-1,-2.03208E-1
1.23809E-1,-2.18116E-1
1.23596E-1,-2.33612E-1
1.21948E-1,-2.51846E-1
1.17828E-1,-2.76611E-1
1.05346E-1,-3.04046E-1
0.82595E-1,-3.31787E-1
0.51971E-1,-3.47595E-1
0.19104E-1,-3.54980E-1
-1.26037E-2,-3.54934E-1
-4.06951E-2,-3.52905E-1
-6.30493E-2,-3.51654E-1
-7.94067E-2,-3.58032E-1
-1.01913E-1,-3.68804E-1
-1.31652E-1,-3.74267E-1
-1.62353E-1,-3.71063E-1
-1.87835E-1,-3.60748E-1
-2.14355E-1,-3.30047E-1
-2.36938E-1,-3.00384E-1
-2.55188E-1,-2.7005E-1
-2.68676E-1,-2.47253E-1
-2.80181E-1,-2.35473E-1
-2.86010E-1,-2.35900E-1
-2.98400E-1,-2.36145E-1
-3.15673E-1,-2.28210E-1
-3.30871E-1,-2.04895E-1
-3.32611E-1,-1.73767E-1
-3.35693E-1,-1.36810E-1
-3.28399E-1,-1.09619E-1
-3.24920E-1,-9.00878E-2
-3.24264E-1,-7.25097E-2
-3.24829E-1,-5.13000E-2
-3.27377E-1,-3.84674E-2
-3.27301E-1,-2.61688E-2
-3.26675E-1,-1.48010E-2
-3.27423E-1,-1.96838E-3
-3.25866E-1,0.12847E-1
-3.14102E-1,0.4039E-1
-2.96783E-1,0.59509E-1
-2.80609E-1,0.68832E-1
-2.69393E-1,0.75714E-1
-2.65060E-1,0.85479E-1
-2.68554E-1,0.93917E-1
-2.65396E-1,1.07818E-1
-2.57736E-1,1.14044E-1
-2.49969E-1,1.14776E-1
-2.44522E-1,1.14395E-1
-2.34741E-1,1.23748E-1
-2.22168E-1,1.35696E-1
-2.06390E-1,1.46453E-1
-1.90002E-1,1.49940E-1
-1.79336E-1,1.49673E-1
-1.77520E-1,1.49940E-1
-1.7453E-1,1.52748E-1
-1.68121E-1,1.57089E-1
-1.60087E-1,1.57989E-1
-1.49154E-1,1.54434E-1
-1.35574E-1,1.48376E-1
-1.26396E-1,1.44744E-1
-1.19125E-1,1.45889E-1
-1.12960E-1,1.52336E-1
-1.06460E-1,1.58287E-1
-1.05400E-1,1.59065E-1
-1.00471E-1,1.56791E-1
-9.69924E-2,1.56761E-1
-9.22088E-2,1.58866E-1
-8.44879E-2,1.61514E-1
-7.15332E-2,1.61377E-1
-6.19354E-2,1.57180E-1
-5.60989E-2,1.51557E-1
-5.33981E-2,1.49551E-1
-5.11856E-2,1.50611E-1
-4.95910E-2,1.55456E-1
-4.55627E-2,1.57463E-1
-4.21295E-2,1.54724E-1
-4.11682E-2,1.50428E-1
-4.03671E-2,1.46865E-1
-3.52630E-2,1.44554E-1
-2.97546E-2,1.42784E-1
-2.37121E-2,1.39953E-1
-1.91345E-2,1.37161E-1
-1.68762E-2,1.36451E-1
-1.82952E-2,1.39816E-1
-1.6716E-2,1.43341E-1
-1.19781E-2,1.41662E-1
-9.10949E-3,1.35421E-1
-8.80432E-3,1.29318E-1
-5.52368E-3,1.27365E-1
-2.78472E-3,1.26274E-1
0.01152E-1,1.25434E-1
0.55160E-2,1.22703E-1
0.85907E-2,1.19239E-1
0.91857E-2,1.17088E-1
0.84304E-2,1.15631E-1
0.74501E-2,1.15955E-1
0.91400E-2,1.17439E-1
1.40228E-2,1.17752E-1
1.97296E-2,1.15898E-1
2.34222E-2,1.11816E-1
2.51007E-2,1.0849E-1
2.59857E-2,1.07124E-1
2.68325E-2,1.07414E-1
2.78472E-2,1.07414E-1
2.99453E-2,1.06628E-1
3.17382E-2,1.04713E-1
3.24249E-2,1.02706E-1
3.30200E-2,1.01699E-1
3.65142E-2,1.01486E-1
4.15039E-2,9.82055E-2
4.38385E-2,9.33685E-2
4.34951E-2,9.00192E-2
4.17556E-2,8.94317E-2
4.00619E-2,9.10568E-2
4.12063E-2,9.26055E-2
4.45861E-2,9.23004E-2
4.70962E-2,8.86917E-2
4.7966E-2,8.29925E-2
4.80270E-2,7.80029E-2
END
BEGIN
-8.79821E-1,2.64984E-1
-8.74054E-1,2.99102E-1
-8.62182E-1,3.24585E-1
-8.4375E-1,3.43963E-1
-8.35845E-1,3.64318E-1
-8.16223E-1,4.02740E-1
-7.60955E-1,4.47326E-1
-7.18933E-1,4.64660E-1
-7.08252E-1,4.70062E-1
-7.32940E-1,4.83398E-1
-7.73468E-1,5.03082E-1
-8.00567E-1,5.36590E-1
-7.84820E-1,5.90911E-1
-7.33337E-1,6.18164E-1
-6.84997E-1,6.06201E-1
-6.54541E-1,5.90698E-1
-6.38610E-1,5.91339E-1
-6.28784E-1,6.08734E-1
-6.16363E-1,6.39221E-1
-5.88256E-1,6.66076E-1
-5.74310E-1,6.87591E-1
-5.41809E-1,6.95678E-1
-5.30426E-1,7.16827E-1
-5.04425E-1,7.38006E-1
-4.75006E-1,7.48992E-1
-4.38995E-1,7.45117E-1
-4.11224E-1,7.34649E-1
-3.95294E-1,7.34375E-1
-3.81286E-1,7.56134E-1
-3.50982E-1,7.92938E-1
-3.11767E-1,8.15002E-1
-2.78656E-1,8.16101E-1
-2.51007E-1,8.10272E-1
-2.35015E-1,8.10607E-1
-2.13378E-1,8.24218E-1
-1.84936E-1,8.40698E-1
-1.54083E-1,8.46130E-1
-1.26922E-1,8.41369E-1
-1.03942E-1,8.40789E-1
-8.29162E-2,8.45336E-1
-7.50732E-2,8.63525E-1
-5.49316E-2,8.89984E-1
-1.44348E-2,8.94744E-1
0.27587E-1,8.71643E-1
0.57800E-1,8.35754E-1
0.76660E-1,8.17932E-1
0.98571E-1,8.14788E-1
1.30371E-1,8.12164E-1
1.61834E-1,8.06671E-1
1.93817E-1,7.97729E-1
2.09625E-1,7.90863E-1
2.32543E-1,7.91503E-1
2.70568E-1,7.88085E-1
3.12683E-1,7.65502E-1
3.31176E-1,7.25952E-1
3.34594E-1,6.59606E-1
3.39050E-1,6.12426E-1
3.51318E-1,5.89050E-1
3.81469E-1,5.89904E-1
4.25537E-1,6.04064E-1
4.60388E-1,5.92346E-1
4.83337E-1,5.57495E-1
4.96521E-1,5.30944E-1
5.13977E-1,5.19653E-1
5.21362E-1,4.77722E-1
5.32836E-1,4.26116E-1
5.37078E-1,3.83850E-1
5.38330E-1,3.49639E-1
5.38360E-1,3.28796E-1
5.46783E-1,3.15338E-1
5.45684E-1,2.87841E-1
5.44006E-1,2.54486E-1
5.32928E-1,2.18231E-1
5.14801E-1,1.88690E-1
5.00274E-1,1.68640E-1
4.89715E-1,1.42334E-1
4.77905E-1,1.18408E-1
4.58862E-1,0.94848E-1
4.30984E-1,0.77179E-1
4.03823E-1,0.69915E-1
3.72848E-1,0.69397E-1
3.50708E-1,0.81207E-1
3.51318E-1,0.75683E-1
3.33801E-1,0.53299E-1
3.09967E-1,0.39840E-1
2.86712E-1,0.33783E-1
2.61352E-1,0.31906E-1
2.36236E-1,0.31692E-1
2.09732E-1,0.35568E-1
1.80610E-1,0.46577E-1
1.48315E-1,0.61874E-1
1.20498E-1,8.62426E-2
9.84497E-2,1.17881E-1
0.85571E-1,1.56127E-1
0.83999E-1,1.97814E-1
0.95825E-1,2.35885E-1
1.09024E-1,2.70507E-1
1.24481E-1,3.01879E-1
1.42639E-1,3.29544E-1
1.58355E-1,3.56231E-1
1.84997E-1,3.83575E-1
2.14721E-1,4.08081E-1
2.53387E-1,4.25293E-1
2.96356E-1,4.27520E-1
3.29620E-1,4.22790E-1
3.53759E-1,4.34509E-1
3.85009E-1,4.44702E-1
4.26513E-1,4.47082E-1
4.67468E-1,4.31945E-1
4.94384E-1,4.07287E-1
5.19287E-1,3.80371E-1
5.36743E-1,3.65295E-1
5.65002E-1,3.58398E-1
6.04705E-1,3.47137E-1
6.48040E-1,3.18115E-1
6.89575E-1,2.85949E-1
7.13623E-1,2.50579E-1
7.25494E-1,2.2229E-1
7.39196E-1,2.01690E-1
7.54058E-1,1.84051E-1
7.60650E-1,1.42791E-1
7.60894E-1,1.09375E-1
7.66204E-1,0.87982E-1
7.88482E-1,0.61859E-1
8.22082E-1,0.21850E-1
8.7323E-1,-2.71911E-2
8.90350E-1,-8.91418E-2
8.74115E-1,-1.30737E-1
8.49212E-1,-1.44073E-1
8.39325E-1,-1.39587E-1
8.46649E-1,-1.63787E-1
8.56414E-1,-1.99646E-1
8.52142E-1,-2.49084E-1
8.31237E-1,-2.84454E-1
8.17291E-1,-3.08136E-1
8.30291E-1,-3.41613E-1
8.32489E-1,-3.81225E-1
8.13324E-1,-4.25903E-1
7.90100E-1,-4.47662E-1
7.50549E-1,-4.51263E-1
7.09045E-1,-4.45251E-1
6.92749E-1,-4.47326E-1
6.87164E-1,-4.74731E-1
6.90704E-1,-5.30273E-1
6.81366E-1,-5.89172E-1
6.80908E-1,-6.21002E-1
6.51031E-1,-6.36383E-1
6.27502E-1,-6.50024E-1
6.02630E-1,-6.72668E-1
5.70617E-1,-6.99401E-1
5.26916E-1,-7.14691E-1
4.96093E-1,-7.18414E-1
4.80743E-1,-7.20855E-1
4.77233E-1,-7.49725E-1
4.59960E-1,-7.90863E-1
4.35913E-1,-8.42468E-1
3.96698E-1,-8.73046E-1
3.57147E-1,-8.71582E-1
3.41003E-1,-8.54248E-1
3.36608E-1,-8.44818E-1
3.17230E-1,-8.47534E-1
2.93335E-1,-8.59008E-1
2.66632E-1,-8.67950E-1
2.35321E-1,-8.79730E-1
2.14294E-1,-9.01611E-1
2.11578E-1,-9.45465E-1
1.82464E-1,-9.79309E-1
1.35437E-1,-9.83093E-1
0.96313E-1,-9.47143E-1
0.78186E-1,-9.03747E-1
0.63598E-1,-8.88488E-1
0.53985E-1,-8.95385E-1
0.29876E-1,-9.13177E-1
-1.02844E-2,-9.24408E-1
-5.29174E-2,-9.17358E-1
-8.05969E-2,-9.05151E-1
-9.46350E-2,-8.94409E-1
-1.07727E-1,-8.94958E-1
-1.35437E-1,-9.03381E-1
-1.76391E-1,-9.03564E-1
-2.10876E-1,-8.88671E-1
-2.32360E-1,-8.69995E-1
-2.43469E-1,-8.60046E-1
-2.58972E-1,-8.68286E-1
-2.8125E-1,-8.81042E-1
-3.05847E-1,-8.84887E-1
-3.37158E-1,-8.75549E-1
-3.61206E-1,-8.56811E-1
-3.76281E-1,-8.41064E-1
-3.96484E-1,-8.32824E-1
-4.27368E-1,-8.24829E-1
-4.60693E-1,-8.07495E-1
-4.79248E-1,-7.89489E-1
-4.83276E-1,-7.80334E-1
-4.83459E-1,-7.82836E-1
-4.90478E-1,-7.93090E-1
-5.18066E-1,-8.00170E-1
-5.56030E-1,-7.82348E-1
-5.75805E-1,-7.41394E-1
-5.79956E-1,-6.9104E-1
-5.82153E-1,-6.55334E-1
END

