CITIFILE A.01.00
#NA VERSION HP8722ES.07.74: Oct 30, 2002
NAME 
VAR FREQ MAG 201
DATA  RI
SEG_LIST_BEGIN
SEG 1800000000 2100000000 201
SEG_LIST_END
BEGIN
1.72912E0,7.80029E-1
1.43872E0,1.21740E0
8.89038E-1,1.65393E0
-1.46484E-1,1.86267E0
-1.18310E0,1.43396E0
-1.76293E0,5.96923E-1
-1.82495E0,-3.94653E-1
-1.27172E0,-1.36950E0
1.30737E-1,-1.86267E0
1.40148E0,-1.24475E0
1.78967E0,-5.69335E-1
1.80761E0,5.19897E-1
1.35119E0,1.30712E0
1.41101E0,1.25097E0
2.54394E-1,1.86938E0
-1.24975E0,1.40832E0
-1.79382E0,5.69091E-1
-1.63757E0,-9.21508E-1
-6.20117E-1,-1.76367E0
-2.62268E-1,-1.86084E0
9.66430E-1,-1.62292E0
1.61914E0,-9.77050E-1
1.89465E0,-9.20410E-2
1.7771E0,6.86767E-1
1.39184E0,1.30578E0
6.58935E-1,1.7948E0
-3.03588E-1,1.88623E0
-1.16296E0,1.51782E0
-1.69641E0,8.63769E-1
-1.9021E0,-8.83789E-2
-1.35546E0,-1.32653E0
-2.37060E-1,-1.87756E0
8.44238E-1,-1.67370E0
1.69677E0,-7.82836E-1
1.86731E0,-7.73925E-2
1.71521E0,7.21374E-1
8.03344E-1,1.67431E0
-4.06494E-1,1.80688E0
-1.27972E0,1.33123E0
-1.76513E0,5.12695E-1
-1.75329E0,-5.48950E-1
-1.08813E0,-1.47729E0
-1.31713E-1,-1.82629E0
6.69189E-1,-1.70825E0
1.66406E0,-7.83447E-1
1.84643E0,0.05371E-1
1.52929E0,1.04797E0
4.12475E-1,1.82153E0
-5.57373E-1,1.79333E0
-1.48535E0,8.82446E-1
-1.89984E0,-1.27563E-1
-1.73498E0,-8.05053E-1
-1.85034E0,-4.71801E-1
-1.57006E0,-1.12939E0
-9.86328E-1,-1.67163E0
-1.23046E-1,-1.93566E0
7.00622E-1,-1.79657E0
1.49243E0,-1.20385E0
1.90045E0,-3.91662E-1
1.79516E0,6.85913E-1
1.40795E0,1.24353E0
8.11767E-1,1.72876E0
-2.03735E-1,1.90380E0
-1.12805E0,1.53418E0
-1.65246E0,9.36645E-1
-1.03680E0,1.98120E-1
-1.31616E0,-1.37060E0
-4.10400E-1,-1.86743E0
4.57519E-1,-1.70910E0
1.70147E0,-8.63586E-1
1.87915E0,2.74169E-1
1.30456E0,1.36499E0
4.80957E-1,1.81347E0
-2.57080E-1,1.81030E0
-1.18884E0,1.43005E0
-1.76599E0,5.54199E-1
-1.74816E0,-5.75317E-1
-9.64599E-1,-1.55969E0
-2.79174E-1,-1.79162E0
8.45703E-1,-1.60888E0
1.72717E0,-5.70312E-1
1.72717E0,5.85449E-1
1.23840E0,1.34765E0
4.12597E-1,1.79638E0
-4.84619E-2,1.85632E0
-1.06909E0,1.53784E0
-1.51904E0,1.03186E0
-1.87890E0,1.56982E-1
-1.83380E0,-5.67810E-1
-1.06799E0,-1.61169E0
-3.52294E-1,-1.91626E0
6.90795E-1,-1.83801E0
1.56713E0,-1.20397E0
1.93286E0,-4.52270E-1
1.95825E0,3.61572E-1
1.32812E0,1.49670E0
3.29956E-1,1.98486E0
-7.34863E-1,1.88537E0
-1.62085E0,1.23168E0
-2.03527E0,2.18383E-1
-1.87585E0,-7.97363E-1
-1.08349E0,-1.75305E0
-2.42797E-1,-2.04675E0
5.10498E-1,-1.98498E0
1.43847E0,-1.44934E0
2.00085E0,-2.96386E-1
1.84399E0,7.96875E-1
1.05871E0,1.66711E0
-1.83471E-1,1.96875E0
-1.12744E0,1.60498E0
-1.66650E0,1.00769E0
-1.87561E0,3.66577E-1
-1.82519E0,-5.95214E-1
1.33569E0,1.35546E0
5.88867E-1,1.78747E0
0.19409E-1,1.86242E0
-9.46533E-1,1.57897E0
-1.56304E0,9.47021E-1
-1.78064E0,-3.22509E-1
-1.33239E0,-1.12634E0
-3.35876E-1,-8.04931E-1
1.74682E-1,-8.67981E-1
1.22534E0,-1.16638E0
1.64221E0,-3.66088E-1
1.68219E0,5.83557E-1
1.04925E0,1.42309E0
3.06152E-1,1.74145E0
-8.02917E-1,1.55810E0
-1.55627E0,8.33252E-1
-1.63281E0,-5.79895E-1
-1.41503E0,-1.04699E0
-8.00231E-1,-1.46563E0
0.87646E-1,-1.73974E0
9.91455E-1,-1.45886E0
1.65527E0,-6.26403E-1
1.65661E0,5.61645E-1
1.29565E0,1.20568E0
6.88598E-1,1.63220E0
1.31591E-1,1.76171E0
-9.21752E-1,1.43908E0
-1.71362E0,4.65942E-1
-1.74853E0,-3.08105E-1
-1.56616E0,-8.25927E-1
-1.00207E0,-1.43078E0
-1.79870E-1,-1.74786E0
7.03369E-1,-1.59643E0
1.44171E0,-9.72595E-1
1.71398E0,-3.96728E-2
1.51940E0,8.03039E-1
9.54223E-1,1.41748E0
3.08715E-1,1.67486E0
-1.21093E-1,1.67797E0
-1.10583E0,1.27185E0
-1.60913E0,4.69238E-1
-1.60668E0,-4.52026E-1
-1.07812E0,-1.26428E0
-4.09423E-1,-1.60778E0
1.03271E-1,-1.65722E0
1.27368E0,-1.07080E0
1.66577E0,-4.57763E-2
1.52966E0,6.85058E-1
1.17431E0,1.20507E0
1.21093E-1,1.69043E0
-9.43908E-1,1.42157E0
-1.56811E0,6.89697E-1
-1.71228E0,-2.85034E-1
-1.29614E0,-1.17382E0
-6.96289E-1,-1.62475E0
4.35180E-1,-1.72778E0
1.36425E0,-1.16894E0
1.80102E0,-1.34277E-1
1.57592E0,8.92456E-1
7.54394E-1,1.66137E0
-4.45678E-1,1.77423E0
-1.37487E0,1.21496E0
-1.83496E0,-1.12182E-1
-1.60839E0,-8.93188E-1
-1.00927E0,-1.53546E0
-5.20019E-2,-1.83386E0
9.57885E-1,-1.53649E0
1.52807E0,-9.13330E-1
1.79296E0,-1.66748E-1
1.62878E0,6.09130E-1
7.57446E-1,1.59118E0
-5.91674E-1,1.64843E0
-1.17431E0,1.27966E0
-1.63659E0,5.10131E-1
-1.37951E0,-4.65881E-1
-1.24316E0,-1.13159E0
-4.90478E-1,-1.59118E0
7.02819E-1,-8.60778E-1
1.59411E0,-2.30896E-1
1.58081E0,2.63916E-1
1.19140E0,1.04418E0
5.94360E-1,1.45349E0
-3.58276E-1,1.42321E0
-9.73510E-1,1.19726E0
-1.38147E0,6.69067E-1
-1.36871E0,0.39184E-1
-1.11267E0,-1.03759E0
-5.82885E-1,-1.39196E0
END

