! Network Analyzer HP8722ES.07.74: Oct 30, 2002 Serial No. US39175660
! Hewlett-Packard
! 30 May 2012  20:36:14
! Frequency       S11                S21                S12                S22
# HZ  S  DB R  50 
1000000000  -2.2605   -138.17   -22.323    .8885   -31.792    27.636   -.7350    163.24   
1010000000  -2.271   -139.81   -19.32    7.6492   -31.797    30.109   -.6883    161.11   
1020000000  -2.3312   -141.43   -19.268    22.343   -31.753    31.198   -.7124    159.37   
1030000000  -2.5133   -142.21   -15.318    37.87   -31.6    32.818   -.8080    157.82   
1040000000  -2.5536   -142.82   -14.66    26.5   -31.256    33.282   -.8021    156.45   
1050000000  -2.6577   -145.26   -14.349    31.068   -30.829    32.297   -.8174    153.74   
1060000000  -3.103   -147.29   -11.421    32.613   -30.579    30.895   -1.0838    149.55   
1070000000  -3.3104   -147.92   -11.419    20.159   -30.381    30.004   -1.3503    147.13   
1080000000  -3.4277   -148.08   -11.007    21.114   -30    30.789   -1.4112    146.43   
1090000000  -3.2543   -147.8   -9.3707    19.565   -29.31    32.562   -1.1302    146.59   
1100000000  -2.8216   -147.51   -9.0727    15.561   -28.52    34.081   -.6989    146.96   
1110000000  -2.6224   -148.61   -8.052    17.169   -27.754    33.742   -.3206    146.17   
1120000000  -2.6425   -150.14   -6.9243    8.73   -27.13    30.392   -.1542    143.02   
1130000000  -2.8385   -152.85   -7.7563    2.3621   -27.011    26.11   -.3625    139.87   
1140000000  -3.2348   -153.13   -7.5308    1.8773   -27.229    23.905   -.7743    138.49   
1150000000  -3.6149   -152.61   -7.1269   -3.4167   -27.407    24.479   -1.0939    137.93   
1160000000  -3.7864   -153.49   -7.4292   -7.067   -27.154    25.13   -1.2061    137.2   
1170000000  -3.8537   -154.05   -6.6296   -9.2505   -26.595    23.971   -1.1581    135.93   
1180000000  -3.622   -154.94   -6.2118   -17.607   -26.172    20.741   -1.0319    133.96   
1190000000  -3.513   -156.88   -6.3894   -22.223   -26.231    16.794   -1.0254    131.45   
1200000000  -3.422   -157.64   -5.7421   -24.451   -26.272    16.18   -.9549    129.87   
1210000000  -3.4443   -158.12   -5.8754   -32.638   -26.388    16.223   -1.0929    127.91   
1220000000  -3.3783   -159.37   -6.2187   -35.408   -26.165    16.832   -.9952    126.5   
1230000000  -3.413   -160.14   -6.082   -38.383   -25.925    16.731   -.9740    124.35   
1240000000  -3.4387   -161.24   -6.3909   -41.916   -25.725    16.278   -1.0424    122.38   
1250000000  -3.6971   -162.68   -6.6373   -41.765   -25.542    16.324   -1.2615    120.5   
1260000000  -3.8739   -162.61   -6.0386   -43.897   -25.266    16.753   -1.4947    119.24   
1270000000  -3.8478   -162.87   -5.995   -47.568   -24.853    16.192   -1.5766    118.29   
1280000000  -3.8085   -163.72   -5.7846   -48.696   -24.336    14.458   -1.4442    116.76   
1290000000  -3.6858   -165.02   -5.2225   -53.244   -23.8    11.369   -1.2382    113.87   
1300000000  -3.6153   -167.33   -5.5046   -59.7   -23.53    7.652   -1.1838    110.93   
1310000000  -3.7675   -169.08   -5.8293   -62.882   -23.512    5.1045   -1.2862    108.85   
1320000000  -3.8407   -169.53   -5.9265   -67.633   -23.495    3.8988   -1.4295    107.21   
1330000000  -3.8572   -170.39   -6.3593   -69.516   -23.345    3.7793   -1.4733    106.17   
1340000000  -3.8386   -170.68   -6.0109   -70.652   -22.966    3.3412   -1.3975    104.51   
1350000000  -3.616   -171.75   -5.5108   -75.461   -22.394    2.6271   -1.302    102.41   
1360000000  -3.6101   -174.26   -5.7173   -78.519   -21.723   -.6935   -1.3096    100.32   
1370000000  -3.7432   -175.78   -5.5962   -80.408   -21.78   -6.9736   -1.4026    98.578   
1380000000  -3.773   -176.54   -5.5067   -84.444   -22.136   -6.655   -1.4404    97.046   
1390000000  -3.7827   -177.21   -5.6867   -86.064   -21.805   -6.0027   -1.4179    95.602   
1400000000  -3.6582   -177.59   -5.3323   -89.861   -21.248   -6.6714   -1.2418    94.969   
1410000000  -3.4535   -179.06   -5.2866   -96.945   -20.746   -8.8893   -.9958    93.532   
1420000000  -3.5306    178.98   -5.897   -100.28   -20.624   -12.732   -.9649    90.924   
1430000000  -3.665    178.07   -6.2216   -102.95   -20.89   -15.482   -1.1889    88.187   
1440000000  -3.8169    177.79   -6.9317   -104.73   -21.329   -17.286   -1.5378    86.045   
1450000000  -3.8964    177.66   -7.4466   -102.54   -21.448   -17   -1.7077    84.646   
1460000000  -3.8476    177.03   -7.2649   -103.69   -21.253   -14.836   -1.716    83.103   
1470000000  -3.8084    175.32   -7.3903   -105.76   -20.836   -14.198   -1.6967    80.881   
1480000000  -3.88    174.19   -7.271   -105.2   -20.506   -15.217   -1.6948    78.657   
1490000000  -3.96    173.05   -6.6978   -109.71   -20.296   -17.433   -1.7138    76.344   
1500000000  -3.9837    172.85   -6.6632   -115.07   -20.027   -19.694   -1.7431    75.155   
1510000000  -3.9501    173.04   -6.5765   -118.12   -19.77   -22.246   -1.6714    73.629   
1520000000  -3.805    171.86   -6.4427   -126.57   -19.608   -25.516   -1.5846    71.051   
1530000000  -3.8965    169.58   -7.6545   -131.63   -19.658   -28.696   -1.651    67.782   
1540000000  -4.1139    167.99   -8.6844   -131.96   -19.965   -30.677   -1.9609    65.479   
1550000000  -4.3333    165.85   -9.6931   -134.59   -20.497   -30.98   -2.6199    63.104   
1560000000  -4.5736    164.97   -11.363   -127.79   -20.732   -30.35   -3.0979    61.032   
1570000000  -4.5925    164.74   -11.294   -122.14   -20.558   -29.991   -3.2753    59.187   
1580000000  -4.4456    163.75   -11.509   -127.83   -19.919   -31.426   -3.0671    57.111   
1590000000  -4.2529    163.32   -12.209   -124.43   -19.306   -35.145   -2.6283    54.837   
1600000000  -4.1456    161.9   -11.726   -129.11   -19.366   -36.803   -2.4963    52.145   
1610000000  -4.2455    160.48   -13.179   -138.33   -19.348   -37.951   -2.6408    49.076   
1620000000  -4.2531    160.6   -13.984   -122.97   -19.34   -39.08   -2.7702    46.918   
1630000000  -3.8897    160.12   -13.466   -125.32   -19.157   -38.639   -2.723    45.316   
1640000000  -4.1308    158.49   -15.589   -124.16   -19.309   -38.791   -3.01    42.498   
1650000000  -4.0858    157.35   -14.818   -105.38   -19.262   -38.9   -3.3209    38.65   
1660000000  -4.0285    155.32   -14.169   -104.31   -19.222   -38.024   -3.6072    35.553   
1670000000  -4.1148    154.38   -13.519   -90.512   -18.966   -35.656   -3.8506    33.002   
1680000000  -3.9927    154.19   -11.246   -92.697   -18.47   -33.743   -4.0019    31.414   
1690000000  -3.8192    153.71   -11.303   -94.646   -17.827   -33.017   -3.9967    29.973   
1700000000  -3.7843    153.18   -10.579   -89.172   -17.268   -34.167   -4.1951    27.811   
1710000000  -3.6057    152.31   -9.2082   -95.801   -16.808   -36.464   -4.4285    25.069   
1720000000  -3.5785    149.83   -9.3582   -99.463   -16.495   -38.723   -4.7934    22.269   
1730000000  -3.5893    148.2   -8.5851   -100.43   -16.236   -40.265   -5.2198    20.128   
1740000000  -3.4876    146.48   -8.0842   -106.6   -15.861   -41.174   -5.5485    18.627   
1750000000  -3.3958    144.65   -7.9092   -108.29   -15.346   -42.491   -5.849    16.206   
1760000000  -3.2268    142.9   -6.8941   -110.92   -14.816   -43.971   -6.1545    13.916   
1770000000  -3.1114    140.49   -6.4128   -117.67   -14.318   -45.625   -6.5847    11.678   
1780000000  -3.1619    138.53   -6.3598   -121.29   -13.894   -47.247   -7.1738    10.15   
1790000000  -3.1155    137.49   -6.0287   -124.78   -13.518   -48.697   -7.7479    9.8218   
1800000000  -3.2563    138.34   -5.9968   -127.93   -13.303   -51.004   -8.4215    10.543   
1810000000  -3.2808    138.7   -5.814   -130.52   -13.262   -53.251   -8.8744    13.037   
1820000000  -2.7315    137.03   -5.364   -135.18   -12.73   -53.884   -8.8891    12.156   
1830000000  -2.5728    133.31   -5.1714   -141.72   -12.311   -56.985   -9.4209    9.072   
1840000000  -2.6462    128.61   -4.9994   -148.29   -12.013   -60.421   -10.103    7.3238   
1850000000  -2.6436    125.96   -4.8651   -154.32   -11.558   -62.118   -10.791    6.7195   
1860000000  -2.5994    124.32   -4.6182   -158.61   -11.063   -64.163   -11.591    6.9598   
1870000000  -2.3662    121.78   -4.2536   -165.89   -10.439   -66.929   -12.456    7.641   
1880000000  -2.1563    118.48   -4.1521   -172.93   -9.8488   -70.891   -13.444    9.624   
1890000000  -2.0019    114.28   -3.9765    178.71   -9.3217   -76.021   -14.586    14.459   
1900000000  -2.1168    111.75   -4.3352    171.54   -9.0825   -81.497   -15.88    22.644   
1910000000  -2.2149    109.86   -4.7374    167.29   -8.9835   -86.92   -16.584    35.592   
1920000000  -1.9252    105.95   -4.3179    157.76   -8.9917   -92.032   -16.273    50.133   
1930000000  -1.7377    100.13   -4.4628    147.62   -8.9896   -96.577   -14.99    61.275   
1940000000  -1.9981    94.561   -5.4279    142.23   -8.9404   -100.16   -13.355    66.993   
1950000000  -2.3641    90.586   -6.4652    138.22   -8.7131   -102.5   -11.883    67.891   
1960000000  -3.0183    88.564   -8.2718    136.95   -8.3445   -105.45   -10.703    68.049   
1970000000  -3.4704    88.535   -9.691    140.81   -8.0298   -109.38   -9.7213    67.592   
1980000000  -3.7315    88.504   -10.831    145.1   -7.8503   -113.63   -8.896    66.596   
1990000000  -3.7244    88.36   -11.323    151.99   -7.8141   -117.5   -8.1823    66.035   
2000000000  -3.7581    86.943   -11.243    155.15   -8.1001   -123   -7.4148    64.254   
2010000000  -3.8106    84.738   -11.173    154.82   -8.3455   -128.27   -6.7237    62.249   
2020000000  -3.9565    82.863   -11.161    155.23   -8.5998   -133.38   -6.107    59.214   
2030000000  -4.0386    81.722   -11    154.99   -8.7511   -137.38   -5.6768    55.272   
2040000000  -4.0817    79.976   -10.968    152.31   -8.7307   -139.95   -5.4152    52.059   
2050000000  -4.0772    77.087   -11.138    149.49   -8.6186   -140.48   -5.0316    50.849   
2060000000  -4.1959    74.071   -11.39    147.05   -8.3921   -141.64   -4.6094    49.116   
2070000000  -4.4008    71.734   -11.661    146.01   -8.1894   -144.14   -4.1817    46.349   
2080000000  -4.5922    70.547   -11.884    146.75   -8.1972   -148.23   -3.9244    42.738   
2090000000  -4.655    69.868   -11.852    148.1   -8.5132   -152.42   -3.869    39.482   
2100000000  -4.7245    68.671   -11.741    148.47   -8.8139   -157.83   -3.8264    36.221   
2110000000  -4.6702    66.272   -11.532    146.87   -9.2132   -161.54   -3.7517    34.236   
2120000000  -4.6052    62.91   -11.346    142.84   -9.4428   -164.5   -3.4904    32.388   
2130000000  -4.7513    59.185   -11.462    137.79   -9.5701   -167.4   -3.1321    29.858   
2140000000  -5.0923    56.761   -12.056    134.73   -9.66   -171.03   -2.8305    26.145   
2150000000  -5.3816    53.936   -12.634    131.69   -9.6395   -173.3   -2.5393    22.522   
2160000000  -5.5477    51.741   -13.197    129.98   -9.6734   -175.43   -2.4258    19.347   
2170000000  -5.6046    50.158   -13.501    130.67   -9.7088   -177.41   -2.3977    17.034   
2180000000  -5.5669    48.201   -13.44    131.33   -9.6977   -179.66   -2.313    15.261   
2190000000  -5.6112    46.645   -13.392    131.32   -9.7324    177.74   -2.2006    13.716   
2200000000  -5.8635    45.71   -13.321    130.66   -9.9874    172.67   -2.226    10.632   
2210000000  -5.959    44.168   -12.928    128.78   -10.38    168.66   -2.2848    8.1793   
2220000000  -6.0545    41.49   -12.809    125.77   -10.784    166.22   -2.2563    6.5492   
2230000000  -6.181    37.956   -12.833    123.41   -11.062    164.3   -2.0375    4.4865   
2240000000  -6.4278    34.174   -13.154    120.14   -11.103    162.13   -1.6987    1.5216   
2250000000  -6.7927    31.284   -14.037    117.33   -10.918    160.73   -1.1732   -1.7839   
2260000000  -7.0948    30.137   -14.644    117.89   -10.859    157.89   -.9655   -5.717   
2270000000  -7.2058    28.784   -14.805    116.99   -11    156.13   -1.0725   -8.5062   
2280000000  -7.2462    26.929   -15.067    115.78   -11.212    155.34   -1.2964   -9.6281   
2290000000  -7.1892    24.482   -14.993    115.25   -11.374    154.93   -1.403   -9.4414   
2300000000  -7.2953    21.246   -14.918    113.65   -11.523    152.2   -1.2864   -10.948   
2310000000  -7.5359    18.854   -15.118    112.28   -11.69    148.58   -1.1165   -13.122   
2320000000  -7.6804    17.257   -15.118    111.74   -11.935    144.64   -1.0337   -16.293   
2330000000  -7.7871    15.607   -15.08    109.82   -12.322    141.72   -1.1246   -18.891   
2340000000  -7.8218    14.056   -15.257    108.63   -12.631    140.15   -1.1753   -20.656   
2350000000  -7.881    10.848   -15.473    105.69   -12.676    139.81   -.9362   -22.364   
2360000000  -8.0561    7.6314   -15.92    102.12   -12.693    138.81   -.7656   -24.603   
2370000000  -8.3571    6.0287   -16.535    101.81   -12.762    136.94   -.7423   -27.637   
2380000000  -8.2854    5.7706   -16.621    103.94   -12.96    135.38   -.8372   -29.535   
2390000000  -8.2938    5.4218   -16.69    105.32   -13.363    134   -1.1523   -31.016   
2400000000  -8.4046    4.8422   -16.712    107.82   -13.937    132.42   -1.5429   -32.127   
2410000000  -8.4286    3.1874   -16.329    108.31   -14.327    131.13   -1.6749   -32.85   
2420000000  -8.5918    .2073   -16.088    105.66   -14.501    129.23   -1.5642   -34.639   
2430000000  -8.7437   -2.2728   -16.053    102.73   -14.441    126.56   -1.2018   -37.514   
2440000000  -8.9304   -4.7255   -16.183    98.962   -14.39    123.92   -.9077   -40.85   
2450000000  -8.9085   -5.3792   -16.539    97.362   -14.388    123.53   -.7095   -42.365   
2460000000  -9.0275   -8.6847   -17.195    96.259   -14.599    122.65   -.8153   -44.346   
2470000000  -9.1973   -12.17   -17.644    95.106   -14.688    121.75   -.8816   -46.011   
2480000000  -9.4487   -14.268   -18.124    94.253   -14.718    120.13   -.8850   -48.145   
2490000000  -9.4877   -15.654   -18.326    94.981   -14.785    117.61   -.8896   -50.791   
2500000000  -9.4624   -16.885   -18.225    96.98   -15.064    113.9   -1.0324   -53.601   
2510000000  -9.4072   -18.634   -18.084    97.512   -15.445    111.51   -1.1792   -55.374   
2520000000  -9.4245   -21.009   -17.884    96.582   -15.831    110.31   -1.2451   -56.302   
2530000000  -9.4725   -23.839   -17.754    93.502   -15.983    109.65   -1.0246   -57.522   
2540000000  -9.6813   -26.175   -18.047    90.073   -15.968    108.77   -.7726   -59.818   
2550000000  -9.7652   -28.97   -17.984    89.554   -15.747    107.69   -.4586   -62.643   
2560000000  -9.9226   -30.421   -18.392    87.697   -15.707    106.14   -.3641   -65.565   
2570000000  -9.8978   -31.252   -18.84    87.762   -15.898    105.23   -.5197   -67.718   
2580000000  -9.7833   -32.731   -18.999    88.86   -16.14    105.3   -.7262   -68.24   
2590000000  -9.7254   -34.651   -19.091    89.717   -16.345    105.37   -.8248   -68.276   
2600000000  -9.8963   -36.346   -19.122    91.618   -16.548    103.71   -.8674   -69.48   
2610000000  -10.018   -38.514   -18.888    92.517   -16.722    101.77   -.8410   -71.146   
2620000000  -10.015   -40.715   -18.598    91.322   -16.957    99.616   -.8385   -72.925   
2630000000  -9.8928   -42.837   -18.393    89.106   -17.172    97.942   -.8128   -75.026   
2640000000  -9.742   -45.03   -18.397    86.644   -17.235    97.049   -.6609   -76.63   
2650000000  -9.7193   -46.732   -18.712    84.663   -17.015    97.454   -.2748   -77.386   
2660000000  -9.6768   -49.075   -19.137    83.151   -16.814    96.651   -.0334   -79.446   
2670000000  -9.6641   -52.23   -19.443    81.876   -16.944    94.833   -.0664   -82.156   
2680000000  -9.7649   -55.274   -19.7    80.828   -17.347    93.848   -.427   -84.194   
2690000000  -9.7688   -56.53   -19.672    80.636   -17.747    93.895   -.8466   -85.055   
2700000000  -9.5983   -58.626   -19.412    80.226   -17.891    92.483   -1.0048   -85.906   
2710000000  -9.445   -61.103   -19.308    79.678   -17.972    91.263   -.9440   -86.55   
2720000000  -9.3456   -62.938   -19.348    79.597   -18.031    89.474   -.7842   -88.127   
2730000000  -9.2903   -63.973   -19.425    79.516   -18.214    87.426   -.6822   -90.637   
2740000000  -9.2281   -64.767   -19.587    78.941   -18.449    85.879   -.7348   -93.3   
2750000000  -9.068   -66.506   -19.704    77.623   -18.603    85.515   -.8313   -95.088   
2760000000  -8.9837   -69.059   -19.853    76.608   -18.716    85.831   -.9209   -96.04   
2770000000  -8.9187   -71.239   -20.044    75.936   -18.696    86.324   -.9014   -96.864   
2780000000  -9.0148   -72.804   -20.211    76.108   -18.578    85.549   -.7860   -98.525   
2790000000  -9.087   -74.527   -20.266    77.142   -18.519    83.209   -.7184   -101.05   
2800000000  -9.15   -76.344   -20.107    78.827   -18.594    80.34   -.7873   -103.35   
2810000000  -9.0768   -78.344   -19.81    79.206   -18.843    78.169   -.9104   -104.95   
2820000000  -8.8803   -81.303   -19.505    77.603   -19.066    76.973   -.9748   -105.81   
2830000000  -8.7031   -84.209   -19.332    74.318   -19.154    76.366   -.8566   -106.61   
2840000000  -8.6344   -86.725   -19.398    71.098   -19.116    75.975   -.6786   -107.7   
2850000000  -8.598   -89.01   -19.765    69.111   -19.096    75.466   -.5721   -109.07   
2860000000  -8.5048   -91.31   -20.21    66.87   -19.113    74.313   -.5539   -111.06   
2870000000  -8.3552   -93.869   -20.577    64.46   -19.218    73.139   -.6319   -112.86   
2880000000  -8.2741   -96.667   -20.816    62.531   -19.355    72.48   -.7111   -114.1   
2890000000  -8.3711   -98.801   -20.937    63.18   -19.418    72.013   -.7017   -115.46   
2900000000  -8.4322   -99.689   -20.81    64.719   -19.343    70.211   -.6399   -117.39   
2910000000  -8.3063   -101.19   -20.676    64.826   -19.444    67.091   -.6334   -119.71   
2920000000  -8.1928   -103.13   -20.608    64.558   -19.731    64.85   -.6906   -121.26   
2930000000  -8.1321   -104.78   -20.525    64.017   -20.002    64.212   -.7444   -121.77   
2940000000  -8.0694   -107.1   -20.493    62.038   -20.114    64.973   -.7234   -121.7   
2950000000  -7.995   -109.92   -20.524    59.608   -20.045    66.253   -.6070   -121.73   
2960000000  -7.9488   -111.85   -20.698    58.07   -19.883    66.014   -.4159   -122.92   
2970000000  -7.9151   -113.14   -20.837    57.283   -19.785    64.218   -.3563   -125.4   
2980000000  -7.8218   -114   -20.872    57.187   -19.964    62.032   -.5492   -127.83   
2990000000  -7.6554   -115.45   -20.772    57.419   -20.368    59.973   -.8944   -130   
3000000000  -7.5656   -117.6   -20.534    57.533   -20.762    58.38   -1.1443   -131.61   

