CITIFILE A.01.00
#NA VERSION HP8722ES.07.74: Oct 30, 2002
NAME FORMATTED
VAR FREQ MAG 201
DATA S[1,1] RI
DATA S[2,1] RI
DATA S[1,2] RI
DATA S[2,2] RI
SEG_LIST_BEGIN
SEG 1000000000 3000000000 201
SEG_LIST_END
BEGIN
-2.26049E0,0E0
-2.27099E0,0E0
-2.33117E0,0E0
-2.51330E0,0E0
-2.55358E0,0E0
-2.65771E0,0E0
-3.10314E0,0E0
-3.31042E0,0E0
-3.42773E0,0E0
-3.25439E0,0E0
-2.82165E0,0E0
-2.62255E0,0E0
-2.64257E0,0E0
-2.83850E0,0E0
-3.23486E0,0E0
-3.61499E0,0E0
-3.78649E0,0E0
-3.85376E0,0E0
-3.62207E0,0E0
-3.51306E0,0E0
-3.42199E0,0E0
-3.44433E0,0E0
-3.37829E0,0E0
-3.41296E0,0E0
-3.43884E0,0E0
-3.69726E0,0E0
-3.87390E0,0E0
-3.84777E0,0E0
-3.80859E0,0E0
-3.68579E0,0E0
-3.61535E0,0E0
-3.76757E0,0E0
-3.84082E0,0E0
-3.8573E0,0E0
-3.83862E0,0E0
-3.61608E0,0E0
-3.61010E0,0E0
-3.74328E0,0E0
-3.77307E0,0E0
-3.78271E0,0E0
-3.65832E0,0E0
-3.45361E0,0E0
-3.53064E0,0E0
-3.66503E0,0E0
-3.81689E0,0E0
-3.89648E0,0E0
-3.84765E0,0E0
-3.80835E0,0E0
-3.88012E0,0E0
-3.96008E0,0E0
-3.98376E0,0E0
-3.95007E0,0E0
-3.80505E0,0E0
-3.89660E0,0E0
-4.11401E0,0E0
-4.33349E0,0E0
-4.57373E0,0E0
-4.59252E0,0E0
-4.44580E0,0E0
-4.25293E0,0E0
-4.14575E0,0E0
-4.24560E0,0E0
-4.25317E0,0E0
-3.88977E0,0E0
-4.13085E0,0E0
-4.08593E0,0E0
-4.02856E0,0E0
-4.11499E0,0E0
-3.99279E0,0E0
-3.81933E0,0E0
-3.78442E0,0E0
-3.60583E0,0E0
-3.57861E0,0E0
-3.58935E0,0E0
-3.48767E0,0E0
-3.39587E0,0E0
-3.22680E0,0E0
-3.11145E0,0E0
-3.16198E0,0E0
-3.11560E0,0E0
-3.25634E0,0E0
-3.28088E0,0E0
-2.73156E0,0E0
-2.57287E0,0E0
-2.64624E0,0E0
-2.64367E0,0E0
-2.59948E0,0E0
-2.36621E0,0E0
-2.15637E0,0E0
-2.00195E0,0E0
-2.11694E0,0E0
-2.21496E0,0E0
-1.92517E0,0E0
-1.73773E0,0E0
-1.99816E0,0E0
-2.36413E0,0E0
-3.01831E0,0E0
-3.47045E0,0E0
-3.73156E0,0E0
-3.72448E0,0E0
-3.75817E0,0E0
-3.81066E0,0E0
-3.95654E0,0E0
-4.03857E0,0E0
-4.08178E0,0E0
-4.07739E0,0E0
-4.19604E0,0E0
-4.40087E0,0E0
-4.59228E0,0E0
-4.65502E0,0E0
-4.72460E0,0E0
-4.67041E0,0E0
-4.60522E0,0E0
-4.75146E0,0E0
-5.09228E0,0E0
-5.38159E0,0E0
-5.54785E0,0E0
-5.60473E0,0E0
-5.56689E0,0E0
-5.61132E0,0E0
-5.86352E0,0E0
-5.95922E0,0E0
-6.05468E0,0E0
-6.18115E0,0E0
-6.42797E0,0E0
-6.79296E0,0E0
-7.09497E0,0E0
-7.20581E0,0E0
-7.24633E0,0E0
-7.18920E0,0E0
-7.29541E0,0E0
-7.53588E0,0E0
-7.68042E0,0E0
-7.78710E0,0E0
-7.82202E0,0E0
-7.88110E0,0E0
-8.05615E0,0E0
-8.35742E0,0E0
-8.28564E0,0E0
-8.29394E0,0E0
-8.40478E0,0E0
-8.42871E0,0E0
-8.59179E0,0E0
-8.74414E0,0E0
-8.93066E0,0E0
-8.90869E0,0E0
-9.02783E0,0E0
-9.19775E0,0E0
-9.44873E0,0E0
-9.48779E0,0E0
-9.46240E0,0E0
-9.40722E0,0E0
-9.42480E0,0E0
-9.47265E0,0E0
-9.68164E0,0E0
-9.76562E0,0E0
-9.92285E0,0E0
-9.89794E0,0E0
-9.78369E0,0E0
-9.72558E0,0E0
-9.89648E0,0E0
-1.00185E1,0E0
-1.00151E1,0E0
-9.89306E0,0E0
-9.74218E0,0E0
-9.71972E0,0E0
-9.67724E0,0E0
-9.66455E0,0E0
-9.76513E0,0E0
-9.76904E0,0E0
-9.59863E0,0E0
-9.44531E0,0E0
-9.34570E0,0E0
-9.29052E0,0E0
-9.22851E0,0E0
-9.06835E0,0E0
-8.98388E0,0E0
-8.91894E0,0E0
-9.01513E0,0E0
-9.08740E0,0E0
-9.15039E0,0E0
-9.07714E0,0E0
-8.88037E0,0E0
-8.70312E0,0E0
-8.63476E0,0E0
-8.59814E0,0E0
-8.50488E0,0E0
-8.35546E0,0E0
-8.27441E0,0E0
-8.37158E0,0E0
-8.43261E0,0E0
-8.30664E0,0E0
-8.19287E0,0E0
-8.13232E0,0E0
-8.06982E0,0E0
-7.99511E0,0E0
-7.94897E0,0E0
-7.91528E0,0E0
-7.82202E0,0E0
-7.65551E0,0E0
-7.56567E0,0E0
END
BEGIN
-2.23232E1,0E0
-1.93203E1,0E0
-1.92685E1,0E0
-1.53183E1,0E0
-1.46601E1,0E0
-1.43496E1,0E0
-1.14213E1,0E0
-1.14194E1,0E0
-1.10068E1,0E0
-9.37109E0,0E0
-9.07275E0,0E0
-8.05224E0,0E0
-6.92431E0,0E0
-7.75634E0,0E0
-7.53076E0,0E0
-7.12695E0,0E0
-7.42919E0,0E0
-6.62963E0,0E0
-6.21191E0,0E0
-6.38964E0,0E0
-5.74218E0,0E0
-5.87548E0,0E0
-6.21875E0,0E0
-6.08203E0,0E0
-6.39111E0,0E0
-6.63745E0,0E0
-6.03857E0,0E0
-5.99511E0,0E0
-5.78466E0,0E0
-5.22265E0,0E0
-5.50463E0,0E0
-5.82934E0,0E0
-5.92651E0,0E0
-6.35937E0,0E0
-6.01098E0,0E0
-5.51098E0,0E0
-5.71752E0,0E0
-5.59643E0,0E0
-5.50683E0,0E0
-5.68676E0,0E0
-5.33252E0,0E0
-5.28686E0,0E0
-5.89721E0,0E0
-6.22168E0,0E0
-6.93188E0,0E0
-7.44677E0,0E0
-7.26513E0,0E0
-7.39038E0,0E0
-7.27099E0,0E0
-6.69799E0,0E0
-6.66333E0,0E0
-6.57666E0,0E0
-6.44287E0,0E0
-7.65478E0,0E0
-8.68457E0,0E0
-9.69335E0,0E0
-1.13632E1,0E0
-1.12949E1,0E0
-1.15087E1,0E0
-1.22089E1,0E0
-1.17260E1,0E0
-1.31792E1,0E0
-1.39843E1,0E0
-1.34658E1,0E0
-1.55893E1,0E0
-1.48183E1,0E0
-1.41694E1,0E0
-1.35195E1,0E0
-1.12465E1,0E0
-1.13032E1,0E0
-1.05786E1,0E0
-9.20849E0,0E0
-9.35839E0,0E0
-8.58544E0,0E0
-8.08447E0,0E0
-7.90942E0,0E0
-6.89428E0,0E0
-6.41284E0,0E0
-6.35986E0,0E0
-6.02880E0,0E0
-5.99682E0,0E0
-5.81420E0,0E0
-5.36425E0,0E0
-5.17138E0,0E0
-4.99951E0,0E0
-4.86523E0,0E0
-4.61816E0,0E0
-4.25366E0,0E0
-4.15234E0,0E0
-3.97656E0,0E0
-4.33520E0,0E0
-4.73754E0,0E0
-4.31811E0,0E0
-4.46289E0,0E0
-5.42797E0,0E0
-6.46533E0,0E0
-8.27197E0,0E0
-9.69140E0,0E0
-1.08315E1,0E0
-1.13232E1,0E0
-1.12431E1,0E0
-1.11733E1,0E0
-1.11611E1,0E0
-1.10004E1,0E0
-1.09682E1,0E0
-1.11381E1,0E0
-1.13901E1,0E0
-1.16611E1,0E0
-1.18837E1,0E0
-1.18520E1,0E0
-1.17412E1,0E0
-1.15317E1,0E0
-1.13457E1,0E0
-1.14624E1,0E0
-1.20561E1,0E0
-1.26347E1,0E0
-1.31977E1,0E0
-1.35014E1,0E0
-1.34399E1,0E0
-1.33920E1,0E0
-1.33208E1,0E0
-1.29282E1,0E0
-1.28095E1,0E0
-1.28330E1,0E0
-1.31543E1,0E0
-1.40376E1,0E0
-1.46445E1,0E0
-1.48046E1,0E0
-1.50673E1,0E0
-1.49931E1,0E0
-1.49179E1,0E0
-1.51181E1,0E0
-1.51186E1,0E0
-1.50800E1,0E0
-1.52568E1,0E0
-1.54736E1,0E0
-1.59204E1,0E0
-1.65351E1,0E0
-1.66210E1,0E0
-1.66904E1,0E0
-1.67128E1,0E0
-1.63300E1,0E0
-1.60878E1,0E0
-1.60537E1,0E0
-1.61826E1,0E0
-1.65390E1,0E0
-1.71953E1,0E0
-1.76445E1,0E0
-1.8125E1,0E0
-1.83261E1,0E0
-1.82255E1,0E0
-1.80849E1,0E0
-1.78847E1,0E0
-1.77548E1,0E0
-1.80468E1,0E0
-1.79843E1,0E0
-1.83925E1,0E0
-1.88408E1,0E0
-1.89990E1,0E0
-1.90918E1,0E0
-1.91220E1,0E0
-1.88886E1,0E0
-1.85986E1,0E0
-1.83935E1,0E0
-1.83974E1,0E0
-1.87128E1,0E0
-1.91376E1,0E0
-1.94433E1,0E0
-1.97001E1,0E0
-1.96718E1,0E0
-1.94130E1,0E0
-1.93085E1,0E0
-1.93476E1,0E0
-1.94257E1,0E0
-1.95878E1,0E0
-1.97041E1,0E0
-1.98535E1,0E0
-2.00439E1,0E0
-2.02119E1,0E0
-2.02666E1,0E0
-2.01074E1,0E0
-1.98105E1,0E0
-1.95058E1,0E0
-1.93320E1,0E0
-1.93984E1,0E0
-1.97656E1,0E0
-2.02109E1,0E0
-2.05781E1,0E0
-2.08164E1,0E0
-2.09375E1,0E0
-2.08105E1,0E0
-2.06767E1,0E0
-2.06084E1,0E0
-2.05253E1,0E0
-2.04931E1,0E0
-2.05244E1,0E0
-2.06982E1,0E0
-2.08369E1,0E0
-2.08720E1,0E0
-2.07724E1,0E0
-2.05341E1,0E0
END
BEGIN
-3.17919E1,0E0
-3.17978E1,0E0
-3.17529E1,0E0
-3.16005E1,0E0
-3.12568E1,0E0
-3.08300E1,0E0
-3.05800E1,0E0
-3.03808E1,0E0
-3E1,0E0
-2.93105E1,0E0
-2.85205E1,0E0
-2.77548E1,0E0
-2.71298E1,0E0
-2.70117E1,0E0
-2.72294E1,0E0
-2.74072E1,0E0
-2.71542E1,0E0
-2.65957E1,0E0
-2.61718E1,0E0
-2.62314E1,0E0
-2.62724E1,0E0
-2.63886E1,0E0
-2.61660E1,0E0
-2.59257E1,0E0
-2.57255E1,0E0
-2.55429E1,0E0
-2.52666E1,0E0
-2.48535E1,0E0
-2.43359E1,0E0
-2.37998E1,0E0
-2.35302E1,0E0
-2.35126E1,0E0
-2.34960E1,0E0
-2.33447E1,0E0
-2.29658E1,0E0
-2.23945E1,0E0
-2.17236E1,0E0
-2.17812E1,0E0
-2.21367E1,0E0
-2.18056E1,0E0
-2.12490E1,0E0
-2.07460E1,0E0
-2.0625E1,0E0
-2.08906E1,0E0
-2.13300E1,0E0
-2.14482E1,0E0
-2.12529E1,0E0
-2.08369E1,0E0
-2.05058E1,0E0
-2.02959E1,0E0
-2.00273E1,0E0
-1.97705E1,0E0
-1.96084E1,0E0
-1.96582E1,0E0
-1.99658E1,0E0
-2.04980E1,0E0
-2.07324E1,0E0
-2.05576E1,0E0
-1.99199E1,0E0
-1.93066E1,0E0
-1.93662E1,0E0
-1.93486E1,0E0
-1.93408E1,0E0
-1.91572E1,0E0
-1.93095E1,0E0
-1.92627E1,0E0
-1.92226E1,0E0
-1.89668E1,0E0
-1.84707E1,0E0
-1.78271E1,0E0
-1.72675E1,0E0
-1.68085E1,0E0
-1.64951E1,0E0
-1.62363E1,0E0
-1.58613E1,0E0
-1.53466E1,0E0
-1.48159E1,0E0
-1.43188E1,0E0
-1.38945E1,0E0
-1.35185E1,0E0
-1.33032E1,0E0
-1.32617E1,0E0
-1.27304E1,0E0
-1.23115E1,0E0
-1.20136E1,0E0
-1.15585E1,0E0
-1.10629E1,0E0
-1.04389E1,0E0
-9.84912E0,0E0
-9.32177E0,0E0
-9.08300E0,0E0
-8.98388E0,0E0
-8.99169E0,0E0
-8.98974E0,0E0
-8.94043E0,0E0
-8.71337E0,0E0
-8.34472E0,0E0
-8.03027E0,0E0
-7.85034E0,0E0
-7.81420E0,0E0
-8.10058E0,0E0
-8.34570E0,0E0
-8.60009E0,0E0
-8.75146E0,0E0
-8.73095E0,0E0
-8.61865E0,0E0
-8.39257E0,0E0
-8.18945E0,0E0
-8.19726E0,0E0
-8.51367E0,0E0
-8.81396E0,0E0
-9.21337E0,0E0
-9.44287E0,0E0
-9.57031E0,0E0
-9.66015E0,0E0
-9.63964E0,0E0
-9.67382E0,0E0
-9.70898E0,0E0
-9.69775E0,0E0
-9.73291E0,0E0
-9.98779E0,0E0
-1.03803E1,0E0
-1.07846E1,0E0
-1.10625E1,0E0
-1.11035E1,0E0
-1.09184E1,0E0
-1.08588E1,0E0
-1.10004E1,0E0
-1.12119E1,0E0
-1.13745E1,0E0
-1.15234E1,0E0
-1.16899E1,0E0
-1.19355E1,0E0
-1.23227E1,0E0
-1.26313E1,0E0
-1.26767E1,0E0
-1.26928E1,0E0
-1.27622E1,0E0
-1.29599E1,0E0
-1.33637E1,0E0
-1.39370E1,0E0
-1.43266E1,0E0
-1.45009E1,0E0
-1.44414E1,0E0
-1.43906E1,0E0
-1.43881E1,0E0
-1.45996E1,0E0
-1.46879E1,0E0
-1.47187E1,0E0
-1.47856E1,0E0
-1.50644E1,0E0
-1.54453E1,0E0
-1.58310E1,0E0
-1.59834E1,0E0
-1.59682E1,0E0
-1.57470E1,0E0
-1.57075E1,0E0
-1.58984E1,0E0
-1.61406E1,0E0
-1.63457E1,0E0
-1.65488E1,0E0
-1.67226E1,0E0
-1.69580E1,0E0
-1.71718E1,0E0
-1.72353E1,0E0
-1.70156E1,0E0
-1.68144E1,0E0
-1.69443E1,0E0
-1.73476E1,0E0
-1.77470E1,0E0
-1.78916E1,0E0
-1.79726E1,0E0
-1.80322E1,0E0
-1.82148E1,0E0
-1.84492E1,0E0
-1.86035E1,0E0
-1.87158E1,0E0
-1.86972E1,0E0
-1.85781E1,0E0
-1.85195E1,0E0
-1.85947E1,0E0
-1.88437E1,0E0
-1.90664E1,0E0
-1.91543E1,0E0
-1.91162E1,0E0
-1.90966E1,0E0
-1.91132E1,0E0
-1.92187E1,0E0
-1.93554E1,0E0
-1.94189E1,0E0
-1.93437E1,0E0
-1.94443E1,0E0
-1.97314E1,0E0
-2.00029E1,0E0
-2.01142E1,0E0
-2.00459E1,0E0
-1.98828E1,0E0
-1.97851E1,0E0
-1.99638E1,0E0
-2.03681E1,0E0
-2.07627E1,0E0
END
BEGIN
-7.35046E-1,0E0
-6.88324E-1,0E0
-7.12432E-1,0E0
-8.08075E-1,0E0
-8.02154E-1,0E0
-8.17504E-1,0E0
-1.08386E0,0E0
-1.35034E0,0E0
-1.41125E0,0E0
-1.13024E0,0E0
-6.98944E-1,0E0
-3.20617E-1,0E0
-1.54205E-1,0E0
-3.62564E-1,0E0
-7.74322E-1,0E0
-1.09387E0,0E0
-1.20617E0,0E0
-1.15814E0,0E0
-1.03198E0,0E0
-1.02539E0,0E0
-9.54986E-1,0E0
-1.09295E0,0E0
-9.95300E-1,0E0
-9.74029E-1,0E0
-1.04241E0,0E0
-1.26153E0,0E0
-1.49475E0,0E0
-1.57666E0,0E0
-1.44415E0,0E0
-1.23828E0,0E0
-1.18377E0,0E0
-1.28625E0,0E0
-1.42950E0,0E0
-1.47332E0,0E0
-1.39752E0,0E0
-1.30200E0,0E0
-1.30963E0,0E0
-1.40264E0,0E0
-1.44043E0,0E0
-1.41790E0,0E0
-1.24182E0,0E0
-9.95910E-1,0E0
-9.64935E-1,0E0
-1.18890E0,0E0
-1.53778E0,0E0
-1.70776E0,0E0
-1.71606E0,0E0
-1.69671E0,0E0
-1.69482E0,0E0
-1.71386E0,0E0
-1.74316E0,0E0
-1.67138E0,0E0
-1.58465E0,0E0
-1.65100E0,0E0
-1.96087E0,0E0
-2.61987E0,0E0
-3.0979E0,0E0
-3.27539E0,0E0
-3.06713E0,0E0
-2.62841E0,0E0
-2.49633E0,0E0
-2.64086E0,0E0
-2.77026E0,0E0
-2.72302E0,0E0
-3.01001E0,0E0
-3.32092E0,0E0
-3.6073E0,0E0
-3.85058E0,0E0
-4.00195E0,0E0
-3.99670E0,0E0
-4.19506E0,0E0
-4.42871E0,0E0
-4.79345E0,0E0
-5.21997E0,0E0
-5.54858E0,0E0
-5.84912E0,0E0
-6.15454E0,0E0
-6.58471E0,0E0
-7.17382E0,0E0
-7.74804E0,0E0
-8.42187E0,0E0
-8.87451E0,0E0
-8.88916E0,0E0
-9.42138E0,0E0
-1.01025E1,0E0
-1.07915E1,0E0
-1.15913E1,0E0
-1.24560E1,0E0
-1.34438E1,0E0
-1.45859E1,0E0
-1.58798E1,0E0
-1.65849E1,0E0
-1.62734E1,0E0
-1.49897E1,0E0
-1.33549E1,0E0
-1.18828E1,0E0
-1.07031E1,0E0
-9.72168E0,0E0
-8.89599E0,0E0
-8.18261E0,0E0
-7.41479E0,0E0
-6.72387E0,0E0
-6.10717E0,0E0
-5.67700E0,0E0
-5.41528E0,0E0
-5.03173E0,0E0
-4.60961E0,0E0
-4.18188E0,0E0
-3.92443E0,0E0
-3.86901E0,0E0
-3.82653E0,0E0
-3.75183E0,0E0
-3.49047E0,0E0
-3.13220E0,0E0
-2.83056E0,0E0
-2.53942E0,0E0
-2.42578E0,0E0
-2.39770E0,0E0
-2.31298E0,0E0
-2.20068E0,0E0
-2.22607E0,0E0
-2.28479E0,0E0
-2.25634E0,0E0
-2.03759E0,0E0
-1.69866E0,0E0
-1.17327E0,0E0
-9.65545E-1,0E0
-1.07257E0,0E0
-1.29644E0,0E0
-1.40301E0,0E0
-1.28643E0,0E0
-1.11651E0,0E0
-1.03369E0,0E0
-1.12463E0,0E0
-1.17535E0,0E0
-9.36218E-1,0E0
-7.65686E-1,0E0
-7.42340E-1,0E0
-8.37280E-1,0E0
-1.15234E0,0E0
-1.54290E0,0E0
-1.67492E0,0E0
-1.56427E0,0E0
-1.20184E0,0E0
-9.07745E-1,0E0
-7.09564E-1,0E0
-8.15368E-1,0E0
-8.81622E-1,0E0
-8.85070E-1,0E0
-8.89709E-1,0E0
-1.03241E0,0E0
-1.17926E0,0E0
-1.24511E0,0E0
-1.02459E0,0E0
-7.72613E-1,0E0
-4.58694E-1,0E0
-3.64120E-1,0E0
-5.19805E-1,0E0
-7.26226E-1,0E0
-8.24829E-1,0E0
-8.67462E-1,0E0
-8.41095E-1,0E0
-8.38531E-1,0E0
-8.12896E-1,0E0
-6.61010E-1,0E0
-2.74871E-1,0E0
-3.34396E-2,0E0
-6.64672E-2,0E0
-4.27002E-1,0E0
-8.46710E-1,0E0
-1.00482E0,0E0
-9.44030E-1,0E0
-7.84271E-1,0E0
-6.82251E-1,0E0
-7.34802E-1,0E0
-8.31329E-1,0E0
-9.2099E-1,0E0
-9.01519E-1,0E0
-7.86071E-1,0E0
-7.18475E-1,0E0
-7.87323E-1,0E0
-9.10461E-1,0E0
-9.74823E-1,0E0
-8.56689E-1,0E0
-6.78680E-1,0E0
-5.72174E-1,0E0
-5.53924E-1,0E0
-6.31927E-1,0E0
-7.11120E-1,0E0
-7.01751E-1,0E0
-6.40014E-1,0E0
-6.33483E-1,0E0
-6.90673E-1,0E0
-7.44445E-1,0E0
-7.23480E-1,0E0
-6.07025E-1,0E0
-4.15985E-1,0E0
-3.56308E-1,0E0
-5.49255E-1,0E0
-8.94439E-1,0E0
-1.14434E0,0E0
END

