! Network Analyzer HP8722ES.07.74: Oct 30, 2002 Serial No. US39175660
! Hewlett-Packard
! 31 May 2012  17:15:56
! Frequency       S11                S21                S12                S22
# HZ  S  DB R  50 
50000000  -3.8261   -18.697    31.31    164.11   -36.327    37.503   -7.3911   -15.233   
72250000  -10.532   -69.802    17.749    100.5   -48.879   -64.096   -22.605   -81.212   
94500000  -14.627   -28.26    14.757    49.301   -51.367   -132.97   -25.746   -173.57   
116750000  -8.6223   -3.9166    15.958   -18.347   -48.684    102.93   -19.7    103.16   
139000000  -9.7386   -22.845    17.499   -79.327   -45.492    26.413   -20.028    37.413   
161250000  -18.876    67.302    19.117   -150.32   -42.515   -87.33   -21.869   -52.289   
183500000  -6.832    65.544    20.085    142.87   -40.951    161.79   -19.851   -130.69   
205750000  -6.9127    35.169    20.685    80.045   -39.462    65.517   -16.111    150.55   
228000000  -13.844    53.726    21.748    10.427   -37.255   -39.154   -15.054    68.836   
250250000  -7.3381    60.984    22.162   -55.657   -35.239   -145.44   -16.629   -12.748   
272500000  -8.2094    21.962    23.271   -120.56   -33.959    110.6   -15.033   -97.358   
294750000  -24.155    15.057    23.5    170.27   -33.301    4.7049   -12.892   -167.83   
317000000  -7.0192    108.87    23.538    106.2   -32.57   -103.58   -12.622    111.37   
339250000  -1.6748    65.766    23.906    45.733   -31.605    156.83   -12.781    29.579   
361500000  -4.6757    19.524    23.562   -20.461   -30.725    52.173   -15.643   -45.689   
383750000  -14.448    63.114    23.703   -83.947   -29.418   -53.03   -17.42   -122.69   
406000000  -9.3602    77.623    24.136   -142.67   -28.401   -156.28   -10.866    177.07   
428250000  -10.532    56.738    24.59    147.37   -27.919    100.34   -8.5598    86.973   
450500000  -14.573    152.96    24.508    80.979   -26.116   -6.5437   -14.123   -10.713   
472750000  -1.2905    99.484    25.416    24.888   -25.217   -112.3   -12.304   -80.217   
495000000  -.3896    44.881    25.578   -38.758   -24.864    148.2   -8.8803   -126.84   
517250000  -4.2369   -3.918    25.887   -113.15   -23.684    41.383   -12.672   -173.15   
539500000  -28.134   -94.356    24.617   -177.88   -23.84   -65.437   -13.975    102.19   
561750000  -7.7852    105.51    22.91    126.29   -24.48   -158.42   -11.802   -59.164   
584000000  -5.2183    62.534    22.874    65.094   -24.05    94.953   -12.8   -156.07   
606250000  -10.483    92.148    22.992    5.9711   -23.619   -8.1834   -14.346   -150.79   
628500000  -2.6907    80.538    22.793   -51.64   -23.302   -105.71   -7.7694    153.02   
650750000  -1.9171    33.802    22.685   -114.51   -22.739    146.94   -11.542    39.007   
673000000  -3.1336    2.4486    23.407   -178.93   -22.49    42.049   -22.661   -13.442   
695250000  -9.5173   -107.87    22.915    117.46   -22.389   -56.725   -16.173   -58.766   
717500000  -1.7695    98.038    22.076    54.261   -21.558   -165.76   -13.464    179.06   
739750000  -3.4992    29.842    22.795   -8.3057   -21.299    86.542   -13.33    106.15   
762000000  -5.0734    63.171    22.487   -73.934   -20.959   -17.114   -15.58    53.19   
784250000  -4.5572    26.588    21.128   -136.13   -21.555   -124.06   -17.061   -51.751   
806500000  -4.9566    39.992    21.499    167.7   -21.287    135.54   -12.237   -124.48   
828750000  -1.3431   -24.684    21.512    103.25   -21.805    34.243   -24.221   -123.64   
851000000  -7.7635    154.41    21.071    29.968   -20.925   -68.551   -13.711    113.41   
873250000  -1.947    56.699    19.011   -27.338   -21.066   -172.71   -11.312    13.031   
895500000  -3.243    53.899    18.565   -83.488   -20.916    87.056   -19.062   -21.046   
917750000  -.4753    16.471    19.29   -139.32   -20.683   -15.948   -19.508   -60.73   
940000000  -14.468    35.364    19.779    148.16   -19.949   -123.21   -19.345    123   
962250000  -1.1603    23.681    18.543    88.349   -19.617    130.95   -14.931    72.831   
984500000  -9.4055   -47.241    18.493    24.788   -20.98    27.977   -15.07    20.52   
1006750000  -9.7336    65.253    17.724   -40.474   -20.877   -72.966   -17.404    27.647   
1029000000  -5.0395    45.339    16.001   -95.666   -20.723   -174.82   -27.49    118.99   
1051250000  -1.0111    29.8    16.328   -146.84   -21.118    85.132   -13.524    115.75   
1073500000  -1.4065   -15.531    17.612    153.19   -20.577   -17.941   -15.587    82.484   
1095750000  -13.505    64.725    17.729    82.424   -20.08   -121.35   -29.764   -47.685   
1118000000  -5.8396    14.476    16.571    21.27   -19.872    133.74   -21.276   -34.029   
1140250000  -14.574    59.455    17.992   -41.03   -18.995    31.463   -15.615   -139.5   
1162500000  -8.8849    19.775    16.998   -113.64   -19.282   -78.409   -16.249    57.651   
1184750000  -6.3683    48.615    16.106   -173.08   -19.224    175.52   -17.27    56.337   
1207000000   .0556   -3.3028    15.712    131.21   -19.434    73.558   -17.111    31.049   
1229250000  -3.469   -58.138    16.734    70.775   -19.701   -31.16   -25.088   -45.168   
1251500000  -9.8026    7.0573    16.767    .6001   -19.448   -133.07   -14.136    158.44   
1273750000  -10.794    20.218    15.1   -59.47   -19.371    125.4   -17.367    51.92   
1296000000  -3.1853    28.375    15.078   -121.24   -19.214    18.817   -18.712    55.639   
1318250000  -9.4058   -13.921    15.679   -175.75   -18.805   -77.154   -13.332   -5.4492   
1340500000  -2.2635    37.038    16.456    118.3   -17.999    175.74   -19.152   -95.452   
1362750000  -1.8722   -42.106    16.476    51.676   -17.77    66.433   -14.558    140.09   
1385000000  -8.8164   -43.366    16.926   -6.1263   -17.331   -37.772   -21.214    98.186   
1407250000  -13.528   -82.421    17.078   -75.619   -17.97   -141.84   -15.986    3.9619   
1429500000  -3.5536    27.897    15.051   -144.77   -18.488    107.31   -14.457   -81.634   
1451750000  -1.6287   -14.365    14.359    165.59   -19.282    11.063   -13.349   -64.243   
1474000000  -9.6559   -11.05    15.019    100.84   -17.898   -91.619   -18.928    130.37   
1496250000  -3.5205   -17.677    13.515    39.632   -18.229    162.56   -8.3484    37.833   
1518500000  -12.796   -57.732    14.348   -15.318   -17.835    64.282   -11.912    12.513   
1540750000  -11.178   -47.307    15.579   -73.779   -17.215   -37.072   -19.777    40.008   
1563000000  -6.5389    118.91    18.288   -147.39   -16.021   -146.28   -9.3801   -99.912   
1585250000  -.3524    3.2602    14.976    140.94   -18.671    110.32   -9.1264    117.51   
1607500000  -1.0116   -42.626    13.956    91.674   -17.341    15.801   -12.746   -16.5   
1629750000  -4.876   -36.227    14.102    38.404   -17.013   -91.033   -11.127    7.9253   
1652000000  -5.3232   -56.416    14.807   -19.902   -17.449    165.93   -7.8885   -40.198   
1674250000  -11.676    8.1491    15.47   -88.272   -16.896    62.21   -16.255   -135.97   
1696500000  -7.5589   -28.835    14.504   -149.14   -16.647   -34.987   -13.3    92.321   
1718750000  -6.3911    53.554    15.555    150.34   -16.645   -140.39   -17.341    105.4   
1741000000   .3225   -13.873    14.683    92.678   -16.952    119.09   -8.5956    2.2275   
1763250000  -4.0826   -63.166    14.329    30.981   -14.763    20.606   -9.2778   -87.461   
1785500000  -5.1375   -57.96    14.738   -23.058   -14.884   -80.419   -21.071   -47.708   
1807750000  -17.197   -171.64    15.215   -92.663   -15.301    165.03   -16.463    93.017   
1830000000  -2.4182   -.3515    14.53   -155.36   -14.845    63.581   -5.9952    50.696   
1852250000  -7.6237   -51.965    14.959    148.62   -15.218   -39.135   -5.8685   -16.506   
1874500000  -3.1533   -10.521    14.898    78.342   -16.716   -146.58   -18.017   -68.184   
1896750000  -2.4122   -58.199    14.171    14.05   -16.096    120.19   -12.958   -108.4   
1919000000  -7.4457   -68.74    12.903   -42.042   -15.562    20.798   -12.786    107.97   
1941250000  -9.6857   -104.34    12.646   -89.849   -15.084   -84.706   -6.5138    34.106   
1963500000  -5.9454    85.788    14.776   -143.99   -13.963    172.55   -3.92    5.5467   
1985750000  -.824   -4.102    15.256    150.92   -14.602    68.161   -8.5099   -34.998   
2008000000  -5.0959   -42.529    15.357    76.516   -14.62   -41.556   -9.1724   -147.29   
2030250000  -2.3095   -54.157    13.545    10.795   -15.615   -144.77   -9.4742    129   
2052500000  -6.0448   -103.84    13.737   -45.25   -14.496    118.44   -14.719    95.294   
2074750000  -6.2965   -64.388    13.931   -100.58   -14.312    7.137   -6.0724   -13.417   
2097000000  -16.449   -151.49    14.892   -161.55   -14.296   -102.2   -4.5786   -71.127   
2119250000  -1.9219    18.98    14.594    134.7   -15.76    157.17   -13.48   -116.85   
2141500000  -1.711   -24.075    13.7    71.719   -16.819    62.901   -20.814    23.188   
2163750000  -5.1363   -58.443    11.34    8.053   -16.17   -36.093   -7.3816    58.019   
2186000000  -7.0429   -89.352    11.717   -42.393   -14.427   -136.5   -2.8546   -3.0762   
2208250000  -16.706   -161.8    11.915   -99.369   -15.003    115.92   -6.3785   -53.571   
2230500000  -11.999   -33.346    12.854   -159.56   -14.551    11.519   -8.8372   -68.099   
2252750000  -15.486    24.099    12.882    131.32   -15.045   -97.913   -14.569    148.07   
2275000000  -.5631   -26.315    11.846    78.89   -17.367    168.45   -4.0504    55.165   
2297250000  -2.8794   -60.428    13.015    10.537   -16.177    67.529   -6.5212   -.6193   
2319500000  -3.7247   -68.317    12.507   -53.304   -14.852   -40.008   -9.1891   -23.277   
2341750000  -12.665    173.15    11.865   -119.46   -14.611   -153.08   -4.7591   -126.84   
2364000000  -9.3596    63.107    10.326   -174.11   -15.782    107.66   -10.294    170.29   
2386250000  -13.424    21.834    10.378    132.82   -15.846    9.7504   -12.518    36.071   
2408500000  -7.8748   -5.5797    11.511    80.636   -16.404   -85.563   -5.7054    3.1448   
2430750000  -4.1828   -67.142    12.552    21.507   -15.678    179.8   -2.6935   -14.325   
2453000000  -7.9517   -63.136    13.479   -55.349   -13.419    64.586   -10.178   -84.374   
2475250000  -4.1275   -113.56    11.05   -116.01   -13.571   -49.084   -11.14    106.64   
2497500000  -10.666    74.843    10.406   -169.86   -15.714   -153.31   -7.3435    72.389   
2519750000  -6.8792    11.043    10.414    132.68   -16.395    113.34   -5.6998    15.975   
2542000000  -7.5502    4.8642    11.639    67.668   -15.49    11.026   -4.1999   -42.284   
2564250000  -8.092   -57.03    11.885   -.3721   -13.741   -88.805   -8.0194   -99.135   
2586500000  -9.7285   -143.72    10.206   -66.367   -14.079    163.17   -12.631   -165.07   
2608750000  -11.555   -169.42    9.694   -125.32   -14.393    62.397   -5.4497    89.83   
2631000000  -11.006   -168.62    11.395   -175.06   -14.07   -36.9   -5.6163    12.697   
2653250000  -12.056    68.549    11.661    129.7   -14.633   -134.93   -9.6432   -26.981   
2675500000  -4.5229   -16.14    13.121    65.433   -13.396    125.53   -1.5572   -70.862   
2697750000  -2.5167   -28.25    12.124    .6275   -12.578    14.965   -4.6167   -165.95   
2720000000  -2.0222   -95.787    11.637   -57.464   -12.842   -89.043   -6.8836    43.149   
2742250000  -10.009    154.69    9.6038   -129.83   -15.222    155.91   -7.1376    21.644   
2764500000  -17.529    92.372    10.537    174.59   -14.877    58.954   -3.1936   -15.171   
2786750000  -25.4    8.2205    10.309    109.52   -15.359   -35.865   -5.1674   -104.31   
2809000000  -14.916   -48.414    9.1144    52.42   -14.816   -131.79   -9.5891   -143.59   
2831250000  -9.7217   -74.019    9.6922   -5.5124   -12.913    126.53   -9.6175   -164.67   
2853500000  -3.4548   -66.899    10.26   -53.745   -13.326    21.82   -6.2773    16.485   
2875750000  -2.9909   -133.94    11.418   -124.86   -14.438   -88.476   -1.3933   -47.683   
2898000000  -7.3998    109.4    12.257    163.25   -14.529    167.31   -5.9438   -70.065   
2920250000  -5.753    15.4    11.056    101.74   -13.792    75.921   -7.0196   -116.19   
2942500000  -4.4674   -40.211    9.0105    50.096   -12.476   -34.047   -4.8556    104.52   
2964750000  -3.9117   -96.482    10.737    .7237   -12.203   -138.53   -.7609    19.681   
2987000000  -17.593   -113.18    10.486   -62.978   -14.973    121.64   -3.1565   -33.876   
3009250000  -5.3096   -73.092    9.2343   -123.85   -15.747    32.629   -4.2987   -52.579   
3031500000  -3.6419   -145.57    10.467    174.47   -13.236   -65.756   -4.0427   -108.91   
3053750000  -5.674    82.571    8.7954    111.42   -14.851   -170.96   -7.4552    125.86   
3076000000  -1.6163    10.614    8.5902    58.17   -12.942    96.461   -7.0502    33.084   
3098250000  -.5220   -60.202    8.5375   -.9640   -13.886   -17.019   -3.417   -39.037   
3120500000  -2.3782   -120.78    9.7174   -49.813   -15.746   -119.71   -.3743   -74.033   
3142750000  -8.2061    118.67    10.342   -123.87   -16.662    133.79   -2.7756   -113.3   
3165000000  -5.6274   -45.541    9.49    170.98   -13.407    58.263   -14.401   -48.919   
3187250000  -9.1298   -166    9.1547    131.15   -11.034   -74.932   -3.6458    16.87   
3209500000  -11.314    42.914    11.2    55.374   -14.179   -171.46    3.6447   -19.037   
3231750000  -3.8895   -22.032    8.7578   -15.838   -14.852    109.48   -.2548   -81.002   
3254000000  -.3206   -77.841    7.0565   -60.204   -14.022    12.144   -6.081   -94.378   
3276250000  -1.3615   -155.13    6.7215   -116.7   -14.143   -101.7   -4.6157   -114.2   
3298500000  -5.5164    98.819    7.3998   -169.15   -17.375   -159.65   -5.8839    128.79   
3320750000  -2.4732   -51.423    9.3594    125.06   -1.0399    17.897    5.1758   -118.28   
3343000000  -6.5665   -81.104    8.1331    69.013   -12.588   -75.501   -7.0776   -84.063   
3365250000  -15.886   -71.314    9.5776   -16.118   -14.345   -140.87    1.6065   -124.09   
3387500000  -2.9467   -37.573    5.7925   -71.776   -10.201    137.9    1.1153   -172.9   
3409750000   .3694   -96.91    4.6752   -104.1   -12.281   -18.578   -5.1373    129.93   
3432000000  -1.1157   -178.03    7.2465   -155.84   -18.964   -102.08   -8.8997    17.018   
3454250000  -.4344    61.301    7.1076    146.94   -15.006    177.95   -2.7743   -62.639   
3476500000   2.0033   -25.091    7.5751    84.267   -15.192    74.653   -3.515   -120.33   
3498750000  -2.8896   -97.645    4.2943    9.0129   -15.69   -19.064   -2.1481   -173.58   
3521000000  -17.744   -154.34    4.0047   -36.689   -16.08   -109.96   -1.395    150.61   
3543250000  -7.8166   -14.052    4.8117   -77.794   -12.093    159.56   -4.7596    124.43   
3565500000  -1.2444   -97.809    8.5433   -144.68   -14.007    24.028   -4.1153   -71.899   
3587750000  -2.7031    153.76    5.7349    155   -15.129   -69.17   -2.1589   -106.94   
3610000000   .1502    59.208    6.1103    113.43   -14.993   -148.9   -2.8776   -143.28   
3632250000   5.7326   -93.871    6.5431    7.1672   -12.357    98.733   -1.598    141.44   
3654500000  -.7129   -147.63    1.2957   -20.451   -14.13   -6.2567   -3.1161    79.01   
3676750000  -2.1467   -168.22    6.9726   -58.019   -12.422   -107.21   -2.3001   -16.89   
3699000000  -8.0312    44.554    12.264   -135.28   -11.896    165.81   -2.0532   -86.552   
3721250000   .2050   -147.44    3.6835    119.09   -13.225    27.642    1.323   -141.39   
3743500000  -1.823    157.09   -2.2503    137.96   -20.475   -42.56   -1.4876    179.47   
3765750000   2.7358    41.019    10.732    82.083   -8.0612   -97.456   -7.2668    139.53   
3788000000  -2.8625   -52.6    9.242   -14.3   -8.7031    101.3    3.7434    44.828   
3810250000  -.6667   -144.74    3.1094   -56.953   -14.261    24.115   -3.6319   -57.57   
3832500000   1.0083    150.22    1.7851   -95.121   -14.022   -48.159   -2.4949   -107.32   
3854750000  -.0564    3.7051    4.9564   -169.83   -13.89   -175.14   -3.1092   -153.25   
3877000000  -2.0253   -78.477    4.472    132.64   -14.133    87.009   -7.6976    97.02   
3899250000  -13.909   -157.35    5.771    82.706   -12.985   -18.686   -2.5143    36.162   
3921500000  -6.3812    15.555    5.032    32.801   -12.77   -109.81   -2.5712   -7.8127   
3943750000  -2.0078   -62.529    7.8933   -22.234   -11.945    163   -3.7102   -86.984   
3966000000  -2.1658   -178.07    3.8726   -109.31   -12.63    55.893   -1.3247   -155.84   
3988250000  -1.2642    135.26    2.3049   -161.29   -11.223   -47.725   -.3337    159.2   
4010500000  -2.3658    45.085    4.2576    173.41   -13.076   -153.3   -5.3314    64.734   
4032750000   8.1709   -107.63    12.586    93.128   -8.94    117.46   -.6559   -8.8605   
4055000000   3.0303   -164.8    9.1501    22.511   -9.5555   -10.749   -8.6014   -69.256   
4077250000  -4.8927   -164.74    6.3385   -36.037   -10.746   -98.459   -3.6723   -97.425   
4099500000  -6.0686   -110.99    4.5935   -107.77   -8.1247    170.6    .2601   -169.29   
4121750000  -2.0472   -141.09    4.5352   -139.51   -10.001    68.529   -7.5656    155.41   
4144000000   2.854    135.88    6.1233    179.36   -11.787   -65.073   -6.908   -74.561   
4166250000   2.0326   -30.538    10.432    112.52   -9.1053   -135.33   -3.3207   -28.777   
4188500000   5.3116   -128.99    10.881    33.897   -8.334    113.49    2.5637   -87.602   
4210750000   2.789   -177.73    5.9419   -29.366   -9.8565    3.8123   -1.9354   -107.11   
4233000000  -1.2048    148.92    7.2928   -97.641   -15.011   -86.557    3.815   -108.3   
4255250000  -8.3112    1.9487    2.815   -86.711   -7.9954   -165.09   -1.3585    173.6   
4277500000  -.2860   -111.91    7.9184   -178.29   -9.4579    44.837   -2.3127   -61.753   
4299750000  -14.723    138.39    4.5254    126.33   -15.688   -7.023   -9.819   -148.89   
4322000000  -3.924   -16.236    2.7693    68.603   -8.8427   -84.084   -2.8676   -115.54   
4344250000  -.4310   -129.63   -4.6203   -29.156   -9.9312    134.64    5.885   -159.15   
4366500000   1.2577    155.87    1.6228   -15.031   -16.886    94.476    1.4894    166.5   
4388750000  -1.4333    124.27    4.3749   -70.959   -13.129    7.1397   -3.1897    176.2   
4411000000  -8.1705    32.15    5.4231   -131.92   -11.789   -114.75   -13.432    115   
4433250000  -1.3042   -99.656    5.7302    163.62   -13.953    119.85   -3.4849   -66.606   
4455500000  -3.5784   -150.92    7.1982    117.64   -15.077    56.577   -5.831   -134.85   
4477750000  -32.893   -20.513    6.1395    59.959   -10.95   -49.828   -7.5837   -158.84   
4500000000  -7.5563   -119.25    5.5942    16.385   -10.796   -159.75   -1.0596    149.93   

