CITIFILE A.01.00
#NA VERSION HP8722ES.07.74: Oct 30, 2002
NAME DATA
VAR FREQ MAG 201
DATA S[1,1] RI
DATA S[2,1] RI
DATA S[1,2] RI
DATA S[2,2] RI
SEG_LIST_BEGIN
SEG 50000000 4500000000 201
SEG_LIST_END
BEGIN
5.28198E-1,-1.79595E-1
5.03143E-1,-1.06048E-1
4.75738E-1,-2.31903E-1
4.51782E-1,-3.24737E-1
3.86947E-1,-3.30749E-1
3.56094E-1,-3.17596E-1
3.14453E-1,-3.21441E-1
2.76092E-1,-3.71231E-1
2.55889E-1,-3.97750E-1
1.96548E-1,-3.52020E-1
1.90765E-1,-3.25622E-1
1.52984E-1,-3.54736E-1
1.45782E-1,-3.80737E-1
1.16882E-1,-3.81469E-1
0.91827E-1,-3.47045E-1
0.81405E-1,-3.44039E-1
0.52871E-1,-3.67187E-1
0.31311E-1,-3.67553E-1
0.09796E-1,-3.55331E-1
-1.89971E-2,-3.62106E-1
-2.29492E-2,-3.60519E-1
-2.09655E-2,-4.20394E-1
-6.40564E-2,-3.87817E-1
-7.26165E-2,-3.10363E-1
-8.79669E-2,-3.18435E-1
-1.06079E-1,-3.55590E-1
-1.28906E-1,-3.58612E-1
-1.49932E-1,-3.22998E-1
-1.51184E-1,-2.98400E-1
-1.83013E-1,-3.14697E-1
-2.05810E-1,-3.00476E-1
-2.20352E-1,-2.87948E-1
-2.37854E-1,-2.82867E-1
-2.54486E-1,-2.69043E-1
-2.46398E-1,-2.58270E-1
-2.57293E-1,-2.50122E-1
-3.02032E-1,-2.33703E-1
-3.25988E-1,-2.16796E-1
-3.21411E-1,-1.95434E-1
-3.18328E-1,-1.90887E-1
-3.41796E-1,-1.62292E-1
-3.44940E-1,-1.19110E-1
-3.48388E-1,-1.05346E-1
-3.61785E-1,-9.59777E-2
-3.69720E-1,-7.70416E-2
-3.70117E-1,-4.96673E-2
-3.57299E-1,-2.53601E-2
-3.72528E-1,-1.86920E-2
-3.84155E-1,0.02319E-1
-3.68164E-1,0.31799E-1
-3.61633E-1,0.54443E-1
-3.54934E-1,0.76217E-1
-3.52264E-1,0.98434E-1
-3.45047E-1,1.21566E-1
-3.41827E-1,1.42974E-1
-3.35205E-1,1.68090E-1
-3.06213E-1,1.63818E-1
-2.79678E-1,1.60934E-1
-2.78213E-1,1.96716E-1
-2.66113E-1,2.27783E-1
-2.45964E-1,2.39189E-1
-2.18086E-1,2.49618E-1
-2.00683E-1,2.48779E-1
-1.9664E-1,2.61016E-1
-1.77917E-1,2.73864E-1
-1.48803E-1,2.72995E-1
-1.28906E-1,2.85095E-1
-1.05087E-1,2.86544E-1
-1.46713E-1,2.96051E-1
-8.97216E-2,3.03985E-1
-9.10949E-3,2.85339E-1
-5.82885E-3,2.78717E-1
-1.17034E-2,2.79525E-1
0.08789E-1,2.76046E-1
0.45837E-1,2.56317E-1
0.61508E-1,2.41638E-1
0.78918E-1,2.46841E-1
1.03027E-1,2.58132E-1
1.22345E-1,2.28393E-1
1.4534E-1,1.85714E-1
1.57180E-1,1.79306E-1
1.56326E-1,1.69799E-1
1.70150E-1,1.53640E-1
1.86645E-1,1.25930E-1
1.98028E-1,1.08520E-1
2.07901E-1,0.97610E-1
2.12616E-1,0.76171E-1
2.20474E-1,0.53253E-1
2.20169E-1,0.22911E-1
2.17681E-1,0.00991E-1
2.08786E-1,-1.53884E-2
2.06039E-1,-3.59726E-2
2.09617E-1,-6.71310E-2
2.08099E-1,-9.07211E-2
2.04803E-1,-1.01043E-1
1.94557E-1,-1.20727E-1
1.79809E-1,-1.38626E-1
1.96662E-1,-1.86561E-1
1.65901E-1,-1.90269E-1
1.17050E-1,-1.75766E-1
1.05278E-1,-1.85913E-1
1.17538E-1,-2.15805E-1
1.14303E-1,-2.40600E-1
0.77133E-1,-2.44003E-1
0.43487E-1,-2.40615E-1
0.39489E-1,-2.54150E-1
0.17730E-1,-2.62680E-1
-4.15039E-3,-2.63763E-1
-4.60815E-2,-2.47085E-1
-5.09185E-2,-2.47604E-1
-4.77447E-2,-2.75375E-1
-6.84814E-2,-2.88955E-1
-8.90197E-2,-2.78533E-1
-1.06689E-1,-2.65869E-1
-1.26922E-1,-2.65747E-1
-1.46087E-1,-2.55188E-1
-1.65252E-1,-2.51907E-1
-1.96670E-1,-2.33184E-1
-2.04040E-1,-2.30285E-1
-1.99340E-1,-2.38464E-1
-2.14325E-1,-2.36526E-1
-2.43408E-1,-2.27264E-1
-2.63275E-1,-2.02529E-1
-2.65838E-1,-1.94458E-1
-2.84194E-1,-1.8927E-1
-2.95196E-1,-1.73645E-1
-3.26873E-1,-1.41571E-1
-3.30627E-1,-1.39038E-1
-3.14453E-1,-1.49658E-1
-3.41522E-1,-1.48498E-1
-3.55194E-1,-1.05621E-1
-3.52691E-1,-7.81402E-2
-3.56552E-1,-7.35015E-2
-3.66241E-1,-5.77850E-2
-3.68804E-1,-4.41894E-2
-3.80584E-1,-3.80249E-2
-3.89282E-1,-2.91748E-2
-3.92929E-1,0.00625E-1
-3.88534E-1,0.19683E-1
-3.89526E-1,0.40008E-1
-3.85467E-1,0.61355E-1
-3.78997E-1,0.78887E-1
-3.79730E-1,0.92529E-1
-3.80462E-1,1.13281E-1
-3.80706E-1,1.23199E-1
-3.78860E-1,1.38702E-1
-3.80447E-1,1.71310E-1
-3.61846E-1,1.87820E-1
-3.63159E-1,1.99188E-1
-3.56475E-1,2.16201E-1
-3.32489E-1,2.30987E-1
-3.26690E-1,2.50183E-1
-3.14086E-1,2.64526E-1
-3.24508E-1,2.80578E-1
-3.04580E-1,2.92907E-1
-2.89520E-1,3.125E-1
-2.66479E-1,3.26004E-1
-2.47192E-1,3.36151E-1
-2.29934E-1,3.44543E-1
-2.14325E-1,3.56506E-1
-2.03277E-1,3.63571E-1
-1.84677E-1,3.85513E-1
-1.67205E-1,3.99002E-1
-1.45111E-1,4.08859E-1
-1.19308E-1,4.10598E-1
-8.94622E-2,4.16473E-1
-6.87713E-2,4.17526E-1
-4.41131E-2,4.18731E-1
-2.02331E-2,4.21325E-1
0.13092E-1,4.24484E-1
0.25985E-1,4.23797E-1
0.27069E-1,4.33532E-1
0.66162E-1,4.22012E-1
0.98938E-1,4.00085E-1
1.20880E-1,3.94165E-1
1.43188E-1,3.90289E-1
1.70013E-1,3.83483E-1
2.03064E-1,3.66516E-1
2.31506E-1,3.50830E-1
2.44628E-1,3.41674E-1
2.74169E-1,3.17810E-1
2.85705E-1,3.05267E-1
3.46008E-1,3.04412E-1
3.48632E-1,2.64099E-1
3.2901E-1,2.20123E-1
3.48114E-1,2.01629E-1
3.84216E-1,1.90063E-1
3.99780E-1,1.64672E-1
3.98468E-1,1.23901E-1
4.00634E-1,0.95718E-1
4.10095E-1,0.65643E-1
4.07043E-1,0.28488E-1
4.06631E-1,-2.34985E-3
4.15466E-1,-4.00238E-2
4.11285E-1,-7.33642E-2
4.06295E-1,-9.72900E-2
4.03060E-1,-1.25457E-1
3.88977E-1,-1.56082E-1
3.72604E-1,-1.89880E-1
3.57971E-1,-2.15499E-1
3.55835E-1,-2.35504E-1
END
BEGIN
-4.22089E1,1.27773E1
-3.97402E1,1.23203E1
-3.45957E1,2.18261E1
-3.28281E1,2.67812E1
-2.55937E1,2.77177E1
-2.11523E1,3.10908E1
-1.56455E1,3.06748E1
-1.11279E1,3.04951E1
-8.48535E0,3.01523E1
-3.62109E0,2.77236E1
-3.11132E0,2.68593E1
0.85253E0,2.50732E1
1.91308E0,2.38525E1
3.82031E0,2.23867E1
5.12304E0,2.08359E1
5.88378E0,1.94150E1
7.82519E0,1.76572E1
8.16894E0,1.62158E1
9.21289E0,1.51230E1
1.025E1,1.45185E1
9.98242E0,1.24609E1
1.01308E1,1.16328E1
1.04326E1,1.04414E1
1.06386E1,9.42382E0
1.08212E1,8.37109E0
1.08837E1,7.77929E0
1.08007E1,6.80273E0
1.06699E1,5.85546E0
1.03847E1,5.23730E0
1.06123E1,4.43261E0
1.04316E1,3.55957E0
1.00673E1,3.04882E0
1.01733E1,2.68701E0
1.01743E1,2.01855E0
9.98828E0,1.19238E0
9.55224E0,4.59472E-1
9.43261E0,5.90820E-1
9.54882E0,4.21875E-1
9.09130E0,-4.25293E-1
8.69189E0,-7.17773E-1
8.50585E0,-1.17187E0
8.03222E0,-1.50781E0
7.85717E0,-1.89672E0
7.74365E0,-2.37182E0
7.39868E0,-2.61499E0
7.14794E0,-2.80395E0
6.66748E0,-2.96264E0
6.64770E0,-3.36279E0
6.45312E0,-3.92675E0
5.99072E0,-3.92968E0
5.84716E0,-3.80810E0
5.56469E0,-4.17529E0
5.21167E0,-4.45874E0
4.88574E0,-4.64941E0
4.59960E0,-4.60742E0
4.52002E0,-4.72583E0
4.09838E0,-4.97631E0
3.73877E0,-4.98071E0
3.46435E0,-5.18188E0
3.12451E0,-5.28588E0
2.93286E0,-5.32421E0
2.60644E0,-5.52929E0
2.2146E0,-5.52856E0
1.99316E0,-5.45190E0
1.80810E0,-5.44702E0
1.61279E0,-5.56225E0
1.20043E0,-5.74365E0
8.22265E-1,-5.57885E0
7.06298E-1,-5.32714E0
5.21728E-1,-5.36547E0
1.25E-1,-5.41381E0
-1.18896E-1,-5.50073E0
-4.14794E-1,-5.24047E0
-5.85205E-1,-5.14160E0
-8.87695E-1,-5.13452E0
-1.17236E0,-4.99194E0
-1.39404E0,-4.85571E0
-1.64843E0,-4.72949E0
-1.76806E0,-4.62280E0
-1.97460E0,-4.59838E0
-2.21557E0,-4.39575E0
-2.32812E0,-4.21582E0
-2.51196E0,-4.09619E0
-2.72607E0,-3.89550E0
-2.88281E0,-3.74365E0
-2.98877E0,-3.44091E0
-3.07861E0,-3.22998E0
-3.22729E0,-3.12109E0
-3.39526E0,-2.88720E0
-3.48803E0,-2.69335E0
-3.54492E0,-2.50585E0
-3.60351E0,-2.30712E0
-3.77392E0,-2.13403E0
-3.85644E0,-1.81860E0
-3.77832E0,-1.67627E0
-3.78002E0,-1.49731E0
-3.86572E0,-1.33837E0
-3.95849E0,-1.12866E0
-3.95898E0,-8.69628E-1
-3.85839E0,-7.51464E-1
-3.88354E0,-5.86669E-1
-3.88940E0,-2.99804E-1
-3.82959E0,-9.10644E-2
-3.79870E0,1.01318E-1
-3.65051E0,2.87719E-1
-3.69152E0,3.95385E-1
-3.71679E0,6.40502E-1
-3.58984E0,8.05908E-1
-3.58068E0,8.92578E-1
-3.40991E0,1.02966E0
-3.35668E0,1.22412E0
-3.25048E0,1.44787E0
-3.05835E0,1.49511E0
-3.00671E0,1.56384E0
-2.90417E0,1.71899E0
-2.81494E0,1.83923E0
-2.68322E0,1.99755E0
-2.53613E0,2.06091E0
-2.42248E0,2.16015E0
-2.21826E0,2.33252E0
-2.04089E0,2.39526E0
-2.01538E0,2.41589E0
-1.85998E0,2.48864E0
-1.76501E0,2.52392E0
-1.71374E0,2.65002E0
-1.49255E0,2.70568E0
-1.36010E0,2.68505E0
-1.17236E0,2.71313E0
-1.00732E0,2.73877E0
-8.98925E-1,2.74585E0
-7.53173E-1,2.72338E0
-6.37573E-1,2.70532E0
-5.14160E-1,2.76916E0
-3.68408E-1,2.83862E0
-2.26562E-1,2.79126E0
-9.20410E-2,2.75390E0
0.54687E-1,2.63769E0
1.54052E-1,2.62353E0
2.56835E-1,2.63220E0
3.22143E-1,2.62231E0
5.01220E-1,2.59692E0
5.93383E-1,2.50708E0
6.73095E-1,2.45581E0
8.10546E-1,2.42187E0
9.29687E-1,2.30297E0
1.04760E0,2.22168E0
1.09338E0,2.09680E0
1.10327E0,2.09619E0
1.20813E0,2.05383E0
1.32263E0,1.96582E0
1.45092E0,1.94152E0
1.54113E0,1.85156E0
1.54589E0,1.74316E0
1.63427E0,1.66272E0
1.70800E0,1.53759E0
1.70446E0,1.42529E0
1.73498E0,1.39599E0
1.79772E0,1.33227E0
1.88549E0,1.25927E0
1.95288E0,1.12097E0
1.93151E0,9.94018E-1
1.93335E0,8.93554E-1
1.95471E0,8.19580E-1
1.98266E0,7.57568E-1
2.03234E0,6.76391E-1
2.05615E0,5.73608E-1
2.08703E0,4.90478E-1
2.11511E0,3.29711E-1
2.07727E0,1.97631E-1
2.01599E0,1.11572E-1
2.00781E0,0.91430E-1
2.02832E0,0.03173E-1
2.07360E0,-1.07299E-1
2.02514E0,-2.24609E-1
1.96801E0,-2.79602E-1
1.92474E0,-3.64074E-1
1.92822E0,-4.39147E-1
1.91583E0,-5.68237E-1
1.83721E0,-6.39587E-1
1.77612E0,-6.80542E-1
1.76422E0,-7.63122E-1
1.77624E0,-8.58703E-1
1.77758E0,-9.72900E-1
1.58618E0,-1.06994E0
1.47454E0,-1.07141E0
1.4776E0,-1.09686E0
1.46582E0,-1.15344E0
1.39099E0,-1.25012E0
1.28405E0,-1.31372E0
1.24774E0,-1.33398E0
1.20983E0,-1.39843E0
1.10571E0,-1.48565E0
1.00054E0,-1.54180E0
8.82446E-1,-1.59222E0
8.10424E-1,-1.56536E0
7.76489E-1,-1.56280E0
7.16003E-1,-1.61688E0
6.24572E-1,-1.66992E0
5.18432E-1,-1.69421E0
4.21020E-1,-1.69397E0
3.78051E-1,-1.70819E0
END
BEGIN
1.60205E-3,-2.66432E-3
1.25179E-2,8.02707E-3
6.41250E-3,8.80718E-3
1.13267E-2,1.07965E-2
1.47352E-2,1.05524E-2
1.19657E-2,6.86359E-3
1.85718E-2,1.20067E-2
1.70974E-2,1.23968E-2
1.72548E-2,1.26876E-2
1.95579E-2,1.58481E-2
1.85089E-2,1.16519E-2
2.37102E-2,1.61762E-2
2.27813E-2,1.58081E-2
2.63958E-2,1.76487E-2
2.79598E-2,1.58367E-2
3.03745E-2,1.33209E-2
3.12786E-2,1.45015E-2
3.09333E-2,1.36394E-2
3.41072E-2,1.36547E-2
3.71532E-2,1.23691E-2
3.72371E-2,1.22757E-2
3.85818E-2,1.29737E-2
4.04071E-2,1.32141E-2
4.42047E-2,0.99334E-2
4.42543E-2,0.71163E-2
4.76303E-2,0.62694E-2
4.83703E-2,0.4879E-2
5.00793E-2,0.36506E-2
5.11436E-2,0.08888E-2
5.29155E-2,-1.69754E-4
5.45101E-2,-4.76455E-3
5.43594E-2,-4.84275E-3
5.67150E-2,-7.10868E-3
5.92002E-2,-9.28688E-3
5.85193E-2,-1.26915E-2
5.78250E-2,-1.53808E-2
5.97972E-2,-1.40476E-2
6.15043E-2,-1.82113E-2
6.22482E-2,-2.15225E-2
6.08844E-2,-2.42748E-2
6.16798E-2,-2.61421E-2
6.27861E-2,-3.07960E-2
6.17027E-2,-3.30963E-2
6.30188E-2,-3.56597E-2
6.17809E-2,-3.70712E-2
6.23893E-2,-4.07695E-2
6.09760E-2,-4.58469E-2
6.07490E-2,-4.77027E-2
6.15291E-2,-5.04112E-2
5.95169E-2,-5.39894E-2
5.84373E-2,-5.75866E-2
5.71098E-2,-6.17866E-2
5.50384E-2,-6.36291E-2
5.40504E-2,-6.51245E-2
5.45272E-2,-6.86645E-2
5.04264E-2,-7.45964E-2
4.78744E-2,-7.89833E-2
4.43573E-2,-7.90443E-2
4.38957E-2,-8.08715E-2
4.42619E-2,-8.68721E-2
3.96652E-2,-9.22546E-2
3.31916E-2,-9.37042E-2
3.02734E-2,-9.38911E-2
2.87628E-2,-9.49935E-2
2.77404E-2,-1.02947E-1
2.14080E-2,-1.05548E-1
1.58157E-2,-1.04900E-1
1.13449E-2,-1.04705E-1
0.69770E-2,-1.06910E-1
0.32310E-2,-1.10607E-1
-3.52096E-3,-1.11270E-1
-6.10733E-3,-1.12655E-1
-8.19015E-3,-1.14101E-1
-1.23367E-2,-1.16462E-1
-2.03476E-2,-1.17591E-1
-2.72522E-2,-1.1689E-1
-3.14483E-2,-1.14677E-1
-3.83529E-2,-1.16851E-1
-4.21295E-2,-1.17057E-1
-4.45327E-2,-1.10847E-1
-5.02395E-2,-1.14311E-1
-5.60455E-2,-1.14753E-1
-6.38351E-2,-1.13731E-1
-7.02590E-2,-1.08558E-1
-7.26013E-2,-1.04095E-1
-7.68966E-2,-1.02745E-1
-8.53118E-2,-1.03561E-1
-9.30328E-2,-9.91668E-2
-9.36050E-2,-9.40094E-2
-9.68475E-2,-9.08203E-2
-1.02882E-1,-9.09271E-2
-1.11808E-1,-8.51135E-2
-1.13960E-1,-8.00781E-2
-1.13090E-1,-7.35931E-2
-1.17721E-1,-7.14263E-2
-1.24343E-1,-6.61010E-2
-1.29509E-1,-6.0112E-2
-1.29066E-1,-5.31539E-2
-1.30546E-1,-5.11474E-2
-1.36673E-1,-4.85229E-2
-1.41639E-1,-3.95889E-2
-1.43562E-1,-3.26156E-2
-1.38557E-1,-2.72674E-2
-1.39999E-1,-2.38494E-2
-1.45942E-1,-1.74255E-2
-1.49841E-1,-9.02557E-3
-1.47590E-1,-4.87518E-3
-1.46408E-1,-1.59454E-3
-1.53724E-1,0.05859E-1
-1.51931E-1,0.17005E-1
-1.47789E-1,0.25383E-1
-1.41540E-1,0.27694E-1
-1.44500E-1,0.29632E-1
-1.47995E-1,0.41198E-1
-1.50024E-1,0.49018E-1
-1.41029E-1,0.52299E-1
-1.39495E-1,0.53619E-1
-1.41799E-1,0.62507E-1
-1.38855E-1,0.73799E-1
-1.32286E-1,0.80459E-1
-1.25717E-1,0.80894E-1
-1.26472E-1,0.83122E-1
-1.27059E-1,0.91468E-1
-1.23359E-1,1.00479E-1
-1.15982E-1,1.01532E-1
-1.11755E-1,1.05331E-1
-1.11351E-1,1.12007E-1
-1.04644E-1,1.20651E-1
-9.50622E-2,1.23672E-1
-8.78524E-2,1.19590E-1
-8.93173E-2,1.22352E-1
-8.75473E-2,1.30928E-1
-8.11767E-2,1.34986E-1
-7.50351E-2,1.32995E-1
-6.84814E-2,1.35894E-1
-6.57806E-2,1.41998E-1
-5.53436E-2,1.45263E-1
-4.65240E-2,1.41342E-1
-4.39224E-2,1.39114E-1
-4.70275E-2,1.43463E-1
-4.42504E-2,1.54266E-1
-3.35845E-2,1.59088E-1
-2.63061E-2,1.52648E-1
-1.82495E-2,1.47140E-1
-1.64337E-2,1.53869E-1
-1.06735E-2,1.58989E-1
-1.95312E-3,1.56822E-1
0.04577E-1,1.53121E-1
0.05569E-1,1.52610E-1
0.06927E-1,1.59347E-1
0.16105E-1,1.63925E-1
0.27114E-1,1.5905E-1
0.31608E-1,1.51214E-1
0.34256E-1,1.54373E-1
0.37902E-1,1.58424E-1
0.49675E-1,1.56616E-1
0.55366E-1,1.49940E-1
0.58334E-1,1.49581E-1
0.60630E-1,1.51565E-1
0.65528E-1,1.55593E-1
0.74386E-1,1.51573E-1
0.83221E-1,1.44844E-1
0.87791E-1,1.41601E-1
0.94711E-1,1.41563E-1
1.00807E-1,1.34185E-1
0.98693E-1,1.28120E-1
1.00769E-1,1.30302E-1
1.09909E-1,1.35360E-1
1.22024E-1,1.30950E-1
1.25526E-1,1.13914E-1
1.30294E-1,1.08429E-1
1.32583E-1,1.09924E-1
1.36428E-1,1.12274E-1
1.41357E-1,1.06018E-1
1.46629E-1,0.95336E-1
1.48712E-1,0.90400E-1
1.53030E-1,0.94879E-1
1.6922E-1,0.87066E-1
1.73423E-1,0.67260E-1
1.65985E-1,0.58212E-1
1.67472E-1,0.57380E-1
1.69616E-1,0.67421E-1
1.86721E-1,0.57556E-1
1.85272E-1,0.38436E-1
1.80488E-1,0.33439E-1
1.79725E-1,0.33134E-1
1.87698E-1,0.28442E-1
1.89941E-1,0.16449E-1
1.87110E-1,0.04478E-1
1.86759E-1,0.02822E-1
1.89895E-1,0.04364E-1
1.93901E-1,-4.40216E-3
1.94648E-1,-1.68914E-2
1.94213E-1,-2.67410E-2
1.95510E-1,-2.98156E-2
1.96487E-1,-3.69033E-2
1.95678E-1,-4.86908E-2
1.88560E-1,-5.33523E-2
1.89918E-1,-5.48400E-2
1.98715E-1,-6.20880E-2
2.00065E-1,-7.33871E-2
END
BEGIN
2.57843E-1,-6.18743E-2
2.74902E-1,-4.94689E-2
2.42736E-1,-1.45401E-1
2.38525E-1,-2.43438E-1
1.77520E-1,-2.47932E-1
1.14746E-1,-2.03659E-1
0.92643E-1,-2.03643E-1
0.57067E-1,-2.49649E-1
0.28884E-1,-2.56027E-1
-2.19726E-3,-2.30125E-1
-1.15203E-2,-2.06863E-1
-4.25872E-2,-2.11853E-1
-5.76019E-2,-2.25280E-1
-7.91931E-2,-2.07809E-1
-8.96911E-2,-1.87927E-1
-9.60693E-2,-1.80252E-1
-1.17599E-1,-1.68563E-1
-1.23764E-1,-1.56127E-1
-1.34368E-1,-1.51245E-1
-1.49765E-1,-1.46560E-1
-1.48025E-1,-1.33819E-1
-1.82144E-1,-1.81823E-1
-1.77002E-1,-1.43005E-1
-1.58554E-1,-1.03485E-1
-1.63650E-1,-9.72595E-2
-1.78176E-1,-9.93499E-2
-1.85455E-1,-8.98742E-2
-1.79504E-1,-7.10754E-2
-1.76345E-1,-6.04553E-2
-1.80694E-1,-5.99517E-2
-1.85218E-1,-4.62646E-2
-1.84928E-1,-4.26483E-2
-1.72157E-1,0.18775E-1
-1.71203E-1,0.13588E-1
-1.93542E-1,-4.54483E-2
-2.11105E-1,-3.94821E-2
-1.93924E-1,-3.35693E-4
-1.82098E-1,0.14221E-1
-1.92604E-1,0.09521E-1
-1.95419E-1,0.13793E-1
-1.91635E-1,0.25039E-1
-1.86431E-1,0.35125E-1
-1.84066E-1,0.39573E-1
-1.94778E-1,0.35202E-1
-1.99028E-1,0.44418E-1
-1.77948E-1,0.64308E-1
-1.63757E-1,0.72204E-1
-1.72210E-1,0.75058E-1
-1.85852E-1,0.74379E-1
-1.69677E-1,0.88226E-1
-1.50466E-1,0.97869E-1
-1.47644E-1,0.99060E-1
-1.51290E-1,0.98640E-1
-1.52908E-1,1.10740E-1
-1.31240E-1,1.24969E-1
-1.12884E-1,1.24649E-1
-1.24244E-1,1.24603E-1
-1.28509E-1,1.24122E-1
-1.12197E-1,1.35528E-1
-9.75265E-2,1.45759E-1
-8.84628E-2,1.4151E-1
-8.30535E-2,1.45965E-1
-7.08389E-2,1.44371E-1
-5.00412E-2,1.73667E-1
-1.97296E-2,1.85836E-1
-5.11169E-2,1.39572E-1
-5.72586E-2,1.28418E-1
-3.39660E-2,1.42768E-1
0.05592E-1,1.63536E-1
0.04707E-1,1.41311E-1
-3.50189E-3,1.33941E-1
0.03257E-1,1.33514E-1
0.34431E-1,1.45919E-1
0.56076E-1,1.37344E-1
2.30865E-2,1.11061E-1
1.79748E-2,1.08840E-1
4.38461E-2,1.05712E-1
7.32421E-2,9.81445E-2
6.07910E-2,8.36563E-2
4.53224E-2,7.95021E-2
5.39779E-2,7.63473E-2
6.71081E-2,6.25152E-2
6.96411E-2,5.07698E-2
6.49757E-2,4.59175E-2
6.80084E-2,4.08859E-2
7.76825E-2,2.55203E-2
8.13674E-2,1.07803E-2
7.23838E-2,0.42076E-2
2.18296E-2,0.52862E-2
3.45172E-2,-3.42369E-3
9.06791E-2,-1.96991E-2
8.85009E-2,-3.94477E-2
4.52098E-2,-3.45134E-2
3.85856E-2,-3.24153E-2
4.70886E-2,-5.30014E-2
5.24787E-2,-6.27555E-2
2.99224E-2,-6.34498E-2
1.65977E-2,-6.34155E-2
1.44348E-2,-6.53648E-2
1.03759E-2,-7.2052E-2
0.55923E-2,-7.47184E-2
-2.20909E-2,-7.42378E-2
-4.28695E-2,-7.33947E-2
-1.49841E-2,-8.44230E-2
-2.06222E-2,-8.80622E-2
-3.06816E-2,-8.65173E-2
-5.63201E-2,-7.65762E-2
-4.96521E-2,-7.43255E-2
-3.93447E-2,-8.75244E-2
-4.97436E-2,-8.86611E-2
-5.92422E-2,-7.46383E-2
-6.15387E-2,-7.58743E-2
-5.96008E-2,-8.61206E-2
-4.74777E-2,-1.02211E-1
-7.80715E-2,-7.13882E-2
-1.01150E-1,-5.33447E-2
-8.83560E-2,-5.66558E-2
-7.86056E-2,-6.73599E-2
-8.46176E-2,-6.67495E-2
-9.11026E-2,-5.85784E-2
-9.61227E-2,-5.99746E-2
-9.32083E-2,-6.55365E-2
-8.31756E-2,-7.69043E-2
-1.0289E-1,-5.22460E-2
-9.70230E-2,-5.00106E-2
-1.01982E-1,-5.04379E-2
-9.60388E-2,-5.61676E-2
-1.04400E-1,-5.55725E-2
-1.16821E-1,-3.61175E-2
-1.29272E-1,-3.42102E-2
-1.20086E-1,-5.30242E-2
-1.22016E-1,-5.57022E-2
-1.25076E-1,-4.04739E-2
-1.28410E-1,-2.49023E-2
-1.28601E-1,-4.11987E-2
-1.34933E-1,-5.94329E-2
-1.50589E-1,-5.55419E-2
-1.57135E-1,-3.44924E-2
-1.54007E-1,-2.72674E-2
-1.55502E-1,-2.95410E-2
-1.58714E-1,-2.74429E-2
-1.62376E-1,-1.90353E-2
-1.68701E-1,0.19073E-1
-1.70242E-1,-1.67694E-2
-1.68075E-1,-4.03595E-2
-1.86927E-1,-2.85568E-2
-1.98036E-1,-1.92260E-3
-1.93374E-1,0.06683E-1
-1.87690E-1,-1.11999E-2
-1.89567E-1,-1.88598E-2
-2.04414E-1,0.18402E-1
-2.12669E-1,0.23590E-1
-2.12951E-1,0.29533E-1
-2.11448E-1,0.22300E-1
-2.22404E-1,0.38841E-1
-2.32032E-1,0.67993E-1
-2.21351E-1,0.78819E-1
-2.15431E-1,0.67810E-1
-2.17109E-1,0.71044E-1
-2.25341E-1,1.01142E-1
-2.24281E-1,1.12480E-1
-2.27233E-1,1.22169E-1
-2.28935E-1,1.25381E-1
-2.23472E-1,1.44317E-1
-2.12387E-1,1.70227E-1
-2.02758E-1,1.75605E-1
-1.94389E-1,1.80282E-1
-1.90132E-1,1.89163E-1
-1.79740E-1,2.17002E-1
-1.61781E-1,2.42179E-1
-1.69227E-1,2.14866E-1
-1.63925E-1,2.14752E-1
-1.51954E-1,2.32894E-1
-1.37786E-1,2.6091E-1
-1.24115E-1,2.60925E-1
-1.12442E-1,2.49847E-1
-1.03973E-1,2.55859E-1
-8.93096E-2,2.74383E-1
-7.45239E-2,2.80517E-1
-5.53894E-2,2.69256E-1
-3.86352E-2,2.31460E-1
-2.45666E-2,2.71896E-1
-1.29547E-2,3.17627E-1
0.10589E-1,2.97180E-1
0.23757E-1,2.71499E-1
0.30761E-1,2.71148E-1
0.43640E-1,2.77679E-1
0.62866E-1,2.76580E-1
0.84625E-1,2.54974E-1
0.98892E-1,2.31445E-1
1.16302E-1,2.42919E-1
1.30996E-1,2.41684E-1
1.49337E-1,2.28439E-1
1.62231E-1,1.99020E-1
1.72363E-1,1.88247E-1
1.81488E-1,1.89758E-1
1.97906E-1,1.72836E-1
2.02804E-1,1.50955E-1
2.11853E-1,1.32354E-1
2.18383E-1,1.14135E-1
2.27752E-1,1.10427E-1
END

