! Network Analyzer HP8722ES.07.74: Oct 30, 2002 Serial No. US39175660
! Hewlett-Packard
! 30 May 2012  17:53:32
! Frequency       S11                S21                S12                S22
# HZ  S  DB R  50 
50000000  -5.069   -18.778    32.889    163.16   -50.148   -58.981   -11.53   -13.494   
72250000  -5.7775   -11.901    32.383    162.77   -36.553    32.669   -11.078   -10.199   
94500000  -5.5269   -25.987    32.236    147.75   -39.256    53.943   -10.966   -30.921   
116750000  -5.0926   -35.708    32.54    140.79   -36.111    43.627   -9.3495   -45.585   
139000000  -5.8651   -40.523    31.533    132.72   -34.835    35.608   -10.316   -54.397   
161250000  -6.427   -41.729    31.505    124.23   -37.206    29.839   -12.625   -60.602   
183500000  -6.9421   -45.63    30.74    117.02   -33.106    32.882   -13.006   -65.539   
205750000  -6.6951   -53.362    30.227    110.05   -33.507    35.943   -11.832   -77.124   
228000000  -6.5037   -57.246    29.917    105.72   -33.385    36.326   -11.779   -83.563   
250250000  -7.8902   -60.824    28.93    97.44   -31.981    39.018   -12.76   -90.548   
272500000  -8.4643   -59.637    28.64    96.607   -33.203    32.191   -13.673   -93.187   
294750000  -8.2612   -66.673    27.989    88.054   -30.842    34.302   -13.307   -101.37   
317000000  -7.7934   -69.05    27.578    85.415   -31.141    34.755   -12.671   -104.34   
339250000  -7.9812   -72.966    27.124    80.317   -29.965    33.766   -13.058   -110.86   
361500000  -8.8984   -75.179    26.631    76.186   -29.861    29.527   -13.629   -115.51   
383750000  -9.0312   -76.689    26.144    73.141   -29.586    23.68   -13.797   -118.06   
406000000  -8.6132   -81.806    25.717    66.099   -29.25    24.872   -13.742   -124.9   
428250000  -8.6623   -85.13    25.181    63.263   -29.42    23.794   -14.013   -128.4   
450500000  -8.9841   -88.421    24.963    58.651   -28.698    21.817   -13.88   -131.62   
472750000  -8.8114   -93.002    24.995    54.779   -28.144    18.413   -13.574   -135.62   
495000000  -8.844   -93.642    24.064    51.302   -28.132    18.246   -13.999   -137.89   
517250000  -7.5161   -92.854    23.765    48.948   -27.807    18.586   -11.789   -135.05   
539500000  -8.1106   -99.378    23.382    45.025   -27.43    18.108   -12.858   -141.06   
561750000  -9.9311   -103.17    23.053    41.534   -26.877    12.664   -14.455   -146.87   
584000000  -9.6202   -105.44    22.722    37.724   -26.97    9.1351   -14.408   -149.28   
606250000  -8.6108   -106.61    22.528    35.556   -26.368    7.4982   -13.807   -150.86   
628500000  -8.3798   -109.77    22.12    32.204   -26.265    5.7596   -13.719   -154.15   
650750000  -8.9686   -114.9    21.707    28.757   -25.984    4.1693   -14.286   -158.4   
673000000  -9.5118   -116.87    21.312    26.761   -25.823    .9956   -14.59   -161.08   
695250000  -8.777   -120.18    21.214    22.669   -25.528   -.1840   -14.408   -161.65   
717500000  -8.7732   -124.41    20.845    18.842   -25.237   -4.9947   -14.384   -165.97   
739750000  -8.8118   -127.42    20.439    16.848   -25.26   -5.0908   -14.435   -167.01   
762000000  -8.6459   -130.06    20.442    14.796   -24.858   -7.1439   -15.23    173.78   
784250000  -8.6282   -133.41    20.318    11.221   -24.448   -8.9154   -15.302    175.46   
806500000  -8.9479   -133.65    20.051    6.8074   -24.454   -12.236   -14.031   -166.79   
828750000  -8.9022   -135.81    19.612    2.7534   -24.461   -14.895   -13.361   -169.41   
851000000  -8.3613   -142.27    19.51    3.5843   -24.233   -13.221   -14.247   -179.9   
873250000  -8.1455   -146.38    19.607    2.5282   -23.857   -16.493   -14.768    175.53   
895500000  -8.4926   -148.7    19.182   -2.6779   -23.627   -19.072   -14.296    177.17   
917750000  -8.6085   -149.05    18.812   -4.72   -23.669   -21.736   -14.159    175.96   
940000000  -8.4418   -154.6    18.676   -7.8442   -23.48   -22.968   -14.277    172.56   
962250000  -8.756   -160.95    18.247   -10.632   -23.107   -26.127   -14.438    169.33   
984500000  -8.7788   -163.18    18.151   -13.571   -23.096   -28.207   -14.504    167.87   
1006750000  -8.5357   -165.14    18.168   -17.029   -22.804   -29.504   -14.07    169.76   
1029000000  -8.458   -168.23    17.894   -19.465   -22.847   -30.965   -13.811    167.42   
1051250000  -8.5558   -172.36    17.705   -21.418   -22.553   -33.162   -14.461    160.13   
1073500000  -8.9176   -175.94    17.262   -23.956   -22.351   -36.939   -14.945    156.21   
1095750000  -8.566   -177.13    17.443   -26.831   -22.243   -38.14   -14.524    156.45   
1118000000  -8.3098    179.65    17.563   -31.321   -21.988   -39.327   -13.971    158.19   
1140250000  -8.6469    175.06    17.104   -33.262   -21.9   -42.212   -14.368    152.53   
1162500000  -8.7374    171.44    16.874   -33.074   -21.719   -44.578   -14.919    146.96   
1184750000  -8.8014    167.88    16.848   -36.881   -21.5   -47.254   -15.002    146.14   
1207000000  -8.7362    164.39    16.725   -40.548   -21.501   -49.14   -14.865    146.9   
1229250000  -8.7344    160.59    16.579   -43.58   -21.449   -50.309   -14.48    144.09   
1251500000  -8.6237    157.3    16.272   -45.049   -21.142   -51.546   -14.836    136.4   
1273750000  -8.5196    153.37    16.311   -46.276   -20.911   -55.942   -15.485    132.17   
1296000000  -9.1864    151.85    16.187   -50.526   -20.69   -58.778   -15.092    134.92   
1318250000  -9.8247    150.08    15.887   -53.107   -20.854   -60.699   -14.959    136   
1340500000  -9.3517    144.74    15.894   -56.236   -20.723   -61.508   -15.093    129.62   
1362750000  -9.1115    139.44    15.764   -59.413   -20.22   -63.002   -15.121    123.79   
1385000000  -9.2919    135.8    15.676   -61.153   -19.964   -66.736   -15.552    122.01   
1407250000  -9.5912    131.14    15.725   -64.762   -20.052   -70.495   -15.497    119.64   
1429500000  -9.907    128.89    15.499   -68.172   -20.118   -72.129   -15.874    116.14   
1451750000  -9.7144    126.99    15.276   -69.92   -20.065   -73.155   -14.859    106.07   
1474000000  -9.7201    123.01    15.177   -71.638   -19.443   -74.92   -14.569    96.06   
1496250000  -10.147    118.59    15.256   -73.831   -19.356   -78.534   -16.557    110.11   
1518500000  -10.092    114.33    15.369   -78.195   -19.487   -81.427   -17.04    114.03   
1540750000  -10.308    110.14    15.024   -81.616   -19.55   -83.816   -16.668    103.38   
1563000000  -9.6189    116.36    14.606   -82.448   -19.401   -86.266   -15.723    88.042   
1585250000  -9.9802    106.44    14.633   -84.446   -19.121   -88.327   -16.992    88.093   
1607500000  -10.888    91.828    14.672   -88.678   -19.068   -91.813   -17.459    91.497   
1629750000  -11.095    91.199    14.81   -91.239   -18.952   -93.102   -17.487    88.602   
1652000000  -11.064    92.396    14.415   -94.525   -18.832   -94.105   -16.482    76.723   
1674250000  -11.176    88.176    14.278   -96.493   -18.628   -96.047   -16.574    67.79   
1696500000  -11.688    79.862    14.338   -99.808   -18.464   -99.816   -18.905    78.257   
1718750000  -12.064    75.719    14.199   -103.22   -18.415   -103.12   -19.147    80.623   
1741000000  -11.729    72.271    14.069   -106.02   -18.496   -105.33   -18.828    67.474   
1763250000  -11.121    68.243    13.994   -109.22   -18.203   -108.17   -18.24    53.269   
1785500000  -11.731    61.824    13.891   -110.93   -18.103   -109.79   -19.709    53.996   
1807750000  -12.548    51.953    13.987   -113.24   -18.456   -111.89   -20.77    60.314   
1830000000  -12.452    48.761    13.844   -116.75   -18.071   -113.73   -20.584    54.741   
1852250000  -12.735    47.366    13.654   -118.91   -17.876   -116.03   -20.751    42.97   
1874500000  -12.794    42.08    13.634   -121.52   -17.693   -119.3   -21.292    36.091   
1896750000  -12.95    34.007    13.542   -124.98   -17.767   -122.91   -21.986    35.248   
1919000000  -12.925    28.722    13.488   -127.6   -17.93   -124.89   -22.009    31.013   
1941250000  -12.778    25.149    13.175   -130.98   -17.833   -126.81   -21.748    18.186   
1963500000  -12.924    19.711    12.991   -133.63   -17.447   -129.48   -21.715    7.5462   
1985750000  -12.887    13.579    13.044   -135.96   -17.331   -133.17   -22.793    3.3261   
2008000000  -13.098    5.9409    12.981   -139.62   -17.545   -134.88   -32.972    13.612   
2030250000  -13.243    .2609    12.883   -142.33   -17.538   -136.84   -29.197   -5.6635   
2052500000  -13.583   -4.2146    12.752   -144.74   -17.246   -138.53   -20.65   -12.257   
2074750000  -13.591   -9.9028    12.626   -147.37   -17.045   -142.72   -20.274   -24.023   
2097000000  -13.147   -17.757    12.741   -150.51   -17.122   -144.9   -24.901   -37.358   
2119250000  -12.879   -23.553    12.596   -154.75   -17.398   -146.95   -25.952   -40.033   
2141500000  -12.827   -26.259    12.326   -156.08   -17.222   -148.75   -22.987   -48.381   
2163750000  -12.804   -31.821    12.183   -158.39   -17.027   -152.01   -21.744   -50.096   
2186000000  -12.878   -37.63    12.236   -160.9   -16.907   -155.1   -23.079   -64.753   
2208250000  -11.338   -43.489    12.29   -164.09   -17.103   -157.62   -23.668   -75.333   
2230500000  -11.957   -48.914    12.156   -167.61   -17.065   -158.61   -23.486   -77.547   
2252750000  -13.507   -56.341    11.89   -168.98   -16.771   -160.45   -22.758   -81.806   
2275000000  -13.406   -60.478    11.883   -171.41   -16.65   -164.38   -22.507   -85.719   
2297250000  -12.191   -61.426    11.823   -175.59   -16.641   -167.2   -22.219   -106.57   
2319500000  -11.49   -64.59    11.665   -178.64   -17.002   -168.87   -21.412   -120.29   
2341750000  -11.839   -72.458    11.596    178.47   -16.953   -170.33   -21.336   -100.06   
2364000000  -12.234   -79.755    11.274    175.49   -16.655   -173.19   -20.872   -103.18   
2386250000  -11.795   -81.168    11.394    173.89   -16.472   -176.55   -20.743   -109.53   
2408500000  -11.592   -86.138    11.53    170.22   -16.614   -178.11   -20.44   -126.33   
2430750000  -11.575   -90.901    11.315    167.35   -16.688   -179.38   -20.975   -123.74   
2453000000  -11.995   -100.56    11.341    166   -16.259    177.82   -20.358   -114.2   
2475250000  -11.945   -101.62    11.034    163.2   -16.313    173.61   -19.857   -119.3   
2497500000  -11.073   -99.836    11.06    159.97   -16.481    170.26   -20.419   -128.44   
2519750000  -10.546   -103.33    11.025    155.99   -16.819    168.93   -20.203   -129.04   
2542000000  -10.68   -107.72    10.64    153.95   -16.624    168.41   -19.598   -124.68   
2564250000  -10.858   -111.86    10.602    152.52   -16.271    164.44   -18.962   -114.91   
2586500000  -10.618   -115.53    10.565    149.38   -16.036    161.91   -19.511   -137.56   
2608750000  -10.632   -119.79    10.533    146.84   -16.454    159.65   -18.835   -152.2   
2631000000  -10.421   -123.27    10.488    143.33   -16.51    158.97   -19.58   -147.33   
2653250000  -10.313   -130.15    10.285    140.9   -16.195    156.21   -19.7   -139.41   
2675500000  -10.238   -131.54    10.226    138.28   -16.068    152.01   -19.35   -141.73   
2697750000  -10.15   -129.89    10.154    133.56   -16.203    148.69   -19.307   -147.26   
2720000000  -9.9192   -132.18    9.9574    130.43   -16.508    147.24   -18.916   -148.04   
2742250000  -9.5509   -136.97    9.9556    129.84   -16.401    146.69   -18.866   -144.89   
2764500000  -9.573   -142.43    9.8465    126.77   -16.106    144.25   -18.917   -137.24   
2786750000  -9.6464   -143.82    9.7706    124.97   -15.967    140.84   -18.756   -153.08   
2809000000  -9.3334   -146.34    9.9823    122.89   -16.241    138.8   -19.239   -152.73   
2831250000  -9.3073   -149.53    9.7992    118.88   -16.274    136.69   -18.879   -153.69   
2853500000  -8.9658   -156.58    9.5709    116.86   -16.03    134.83   -19.073   -149.68   
2875750000  -8.9061   -157.19    9.4129    113.37   -15.933    130.94   -18.543   -151.97   
2898000000  -9.1622   -154.55    9.3021    110.19   -16.138    127.55   -18.253   -162.82   
2920250000  -8.5796   -156.5    9.2156    108.13   -16.572    126.3   -17.476   -165.18   
2942500000  -8.6228   -163.44    9.0222    105.46   -16.393    126.13   -17.637   -156.18   
2964750000  -8.8441   -167.51    8.8791    103.26   -16.054    123.77   -17.45   -155.46   
2987000000  -8.7768   -168.35    8.9942    100.52   -16.054    121.02   -17.624   -162.07   
3009250000  -8.618   -171.03    9.1346    97.395   -16.323    119.43   -17.668   -169.03   
3031500000  -8.6022   -173.17    8.9445    94.64   -16.353    116.74   -17.391   -162.24   
3053750000  -8.3479   -174.3    8.8038    91.913   -16.11    114.86   -16.628   -156.23   
3076000000  -8.1704   -175.71    8.4263    88.812   -16.168    110.85   -15.89   -159.75   
3098250000  -8.1137    179.91    8.3927    86.64   -16.548    108.22   -15.87   -167.62   
3120500000  -8.2004    177.1    8.4475    84.427   -16.72    107.52   -16.115   -169.96   
3142750000  -8.1438    174.14    8.4387    82.998   -16.422    108.15   -16.011   -169.24   
3165000000  -8.1716    170.96    8.448    79.077   -15.891    106   -15.86   -170.19   
3187250000  -8.2431    168.24    8.22    76.685   -15.778    101.92   -15.73   -173.31   
3209500000  -8.16    166.31    8.1184    74.674   -16.199    99.778   -15.402    173.55   
3231750000  -8.025    163.42    8.1441    71.496   -16.579    97.07   -15.337   -174.37   
3254000000  -7.9556    162.07    7.9014    68.016   -16.208    96.096   -15.246   -166.5   
3276250000  -7.8842    159.89    7.8055    64.755   -15.953    93.841   -14.466   -171.31   
3298500000  -7.5924    155.76    7.4757    62.461   -16.091    90.714   -14.065   -179.44   
3320750000  -7.7935    152.57    7.4905    62.242   -16.295    88.289   -14.267    178.02   
3343000000  -7.6559    151.26    7.5418    59.535   -16.323    87.91   -14.516   -176.58   
3365250000  -7.599    148.76    7.4925    56.067   -15.945    87.512   -14.402   -174.32   
3387500000  -7.8541    145.21    7.6899    53.229   -15.665    84.389   -13.755    174.86   
3409750000  -7.713    142.55    7.6368    50.228   -15.845    80.325   -13.393    173.67   
3432000000  -7.7308    139.9    7.3467    48.433   -16.222    78.194   -13.352    172.1   
3454250000  -7.3512    139.15    7.3524    45.496   -16.02    77.489   -13.448    173.98   
3476500000  -7.4821    136.12    7.2275    41.994   -15.762    76.546   -12.927    170.09   
3498750000  -7.4118    132.81    6.9344    39.902   -15.687    72.403   -12.331    163.67   
3521000000  -7.5132    129.26    6.9539    38.82   -15.927    69.734   -12.58    160.4   
3543250000  -7.592    126.33    6.9956    36.541   -15.888    68.695   -12.924    162.53   
3565500000  -7.6554    123.72    7.1103    33.736   -15.743    68.198   -12.825    161.88   
3587750000  -7.6188    121.01    7.0503    29.855   -15.451    67.162   -12.146    155.83   
3610000000  -7.6069    119.21    6.7383    27.231   -15.45    63.861   -12.01    153.37   
3632250000  -7.3821    115.6    6.5669    24.804   -15.543    60.12   -11.768    151.74   
3654500000  -7.2779    112.74    6.525    22.747   -15.566    58.201   -11.667    151.29   
3676750000  -7.2533    109.54    6.5368    20.91   -15.374    56.217   -11.502    147.15   
3699000000  -7.3797    106.2    6.6161    18.408   -15.502    53.085   -11.303    141.29   
3721250000  -7.4124    102.12    6.5865    15.588   -15.824    52.392   -11.43    139.1   
3743500000  -7.4701    99.353    6.624    13.225   -15.665    52.284   -11.531    137.16   
3765750000  -7.5134    96.014    6.6108    8.8605   -15.171    50.926   -11.431    135.15   
3788000000  -7.4976    92.749    6.3889    5.4341   -14.943    47.021   -11.002    129.63   
3810250000  -7.4387    88.234    6.103    3.1668   -15.416    42.223   -10.715    123.74   
3832500000  -7.4406    86.493    6.0634    2.6065   -15.416    39.766   -11.261    128.22   
3854750000  -7.2427    86.428    6.1426    .0906   -15.278    39.662   -11.367    127.35   
3877000000  -7.3881    81.089    6.3461   -2.9608   -15.056    39.452   -11.117    123.12   
3899250000  -7.6991    76.109    6.1821   -6.3281   -15.055    36.87   -10.602    117.84   
3921500000  -7.6961    72.952    5.9673   -8.0859   -15.144    33.03   -10.784    115.44   
3943750000  -7.6239    69.854    5.8401   -10.71   -15.187    31.296   -11.246    114.23   
3966000000  -7.5458    66.092    5.9228   -12.829   -14.892    31.799   -11.176    112.12   
3988250000  -7.5556    61.013    6.0133   -16.519   -14.411    27.225   -10.796    108.03   
4010500000  -7.5283    56.581    5.78   -19.194   -14.609    21.198   -10.745    104.88   
4032750000  -7.5305    54.399    5.5844   -20.963   -15.095    19.325   -11.217    101.62   
4055000000  -7.5407    49.216    5.6759   -23.39   -15.039    18.913   -12.591    99.476   
4077250000  -7.5743    46.897    5.9022   -25.8   -14.774    21.676   -11.277    95.162   
4099500000  -6.7287    41.34    6.1344   -28.692   -14.182    17.13   -9.9545    92.335   
4121750000  -7.183    37.143    5.6357   -34   -14.461    11.72   -10.534    87.961   
4144000000  -8.0493    33.783    5.2142   -36.001   -14.724    10.496   -11.292    84.998   
4166250000  -7.9092    30.081    5.2973   -36.586   -14.763    10.445   -11.28    83.528   
4188500000  -7.3578    26.319    5.4146   -38.198   -14.432    8.616   -11.023    81.068   
4210750000  -7.283    22.386    5.4378   -41.946   -14.395    4.9493   -10.945    77.195   
4233000000  -7.5913    17.273    5.2823   -45.655   -14.556    1.3705   -11.416    71.64   
4255250000  -7.704    13.436    5.2327   -46.913   -14.573    .8665   -11.983    66.866   
4277500000  -7.6325    9.0939    5.3394   -49.136   -14.427    1.3156   -11.395    64.417   
4299750000  -7.786    4.0031    5.3526   -53.343   -14.246   -1.3005   -11.217    61.543   
4322000000  -7.8159   -.3309    5.2869   -57.02   -14.182   -4.959   -11.279    56.827   
4344250000  -7.5892   -5.5014    5.2034   -61.004   -14.153   -7.8401   -11.809    50.816   
4366500000  -7.5811   -10.113    4.9236   -62.629   -14.077   -8.671   -11.861    47.523   
4388750000  -7.5811   -13.465    4.8363   -63.581   -13.983   -10.638   -11.615    46.276   
4411000000  -7.491   -17.29    4.9512   -66.117   -13.908   -13.973   -11.609    41.131   
4433250000  -7.5532   -21.863    5.0225   -69.494   -14.157   -15.798   -11.944    36.66   
4455500000  -7.5725   -27.002    4.9681   -72.986   -14.081   -16.106   -12.048    31.995   
4477750000  -7.58   -31.047    4.8384   -76.043   -13.631   -17.352   -12.167    27.592   
4500000000  -7.3974   -33.497    4.8584   -77.521   -13.428   -20.143   -11.934    25.866   

