CITIFILE A.01.00
#NA VERSION HP8722ES.07.74: Oct 30, 2002
NAME FORMATTED
VAR FREQ MAG 201
DATA S[1,1] RI
DATA S[2,1] RI
DATA S[1,2] RI
DATA S[2,2] RI
SEG_LIST_BEGIN
SEG 50000000 4500000000 201
SEG_LIST_END
BEGIN
-4.91894E0,0E0
-5.14721E0,0E0
-5.51293E0,0E0
-5.92675E0,0E0
-6.29541E0,0E0
-6.35327E0,0E0
-6.70874E0,0E0
-7.17700E0,0E0
-7.53833E0,0E0
-7.69043E0,0E0
-7.84326E0,0E0
-8.15039E0,0E0
-8.52050E0,0E0
-8.61279E0,0E0
-8.63671E0,0E0
-8.72314E0,0E0
-8.86377E0,0E0
-8.95996E0,0E0
-8.75146E0,0E0
-8.60498E0,0E0
-8.79296E0,0E0
-8.92675E0,0E0
-8.87451E0,0E0
-8.81201E0,0E0
-8.82666E0,0E0
-9.13232E0,0E0
-9.25390E0,0E0
-9.10546E0,0E0
-9.00976E0,0E0
-9.04589E0,0E0
-9.10351E0,0E0
-9.12207E0,0E0
-9.03271E0,0E0
-8.99121E0,0E0
-8.93896E0,0E0
-8.91796E0,0E0
-8.92334E0,0E0
-8.92822E0,0E0
-8.93603E0,0E0
-8.96826E0,0E0
-9.02392E0,0E0
-9.09716E0,0E0
-9.14160E0,0E0
-9.24316E0,0E0
-9.30712E0,0E0
-9.29443E0,0E0
-9.31835E0,0E0
-9.39892E0,0E0
-9.49218E0,0E0
-9.57617E0,0E0
-9.59863E0,0E0
-9.65918E0,0E0
-9.73925E0,0E0
-9.89892E0,0E0
-1.01308E1,0E0
-1.02841E1,0E0
-1.04023E1,0E0
-1.05571E1,0E0
-1.07939E1,0E0
-1.10913E1,0E0
-1.12397E1,0E0
-1.13017E1,0E0
-1.15200E1,0E0
-1.17841E1,0E0
-1.20493E1,0E0
-1.20859E1,0E0
-1.21899E1,0E0
-1.25249E1,0E0
-1.29121E1,0E0
-1.31928E1,0E0
-1.34877E1,0E0
-1.38872E1,0E0
-1.45273E1,0E0
-1.49848E1,0E0
-1.51235E1,0E0
-1.53315E1,0E0
-1.57470E1,0E0
-1.61494E1,0E0
-1.64433E1,0E0
-1.66689E1,0E0
-1.69658E1,0E0
-1.73789E1,0E0
-1.75947E1,0E0
-1.75849E1,0E0
-1.75429E1,0E0
-1.74599E1,0E0
-1.73466E1,0E0
-1.725E1,0E0
-1.70996E1,0E0
-1.69062E1,0E0
-1.66884E1,0E0
-1.64414E1,0E0
-1.61396E1,0E0
-1.58271E1,0E0
-1.52451E1,0E0
-1.47763E1,0E0
-1.45341E1,0E0
-1.43193E1,0E0
-1.40527E1,0E0
-1.37470E1,0E0
-1.34614E1,0E0
-1.34321E1,0E0
-1.32856E1,0E0
-1.29751E1,0E0
-1.26835E1,0E0
-1.24614E1,0E0
-1.23403E1,0E0
-1.21767E1,0E0
-1.19633E1,0E0
-1.17714E1,0E0
-1.16030E1,0E0
-1.14521E1,0E0
-1.13105E1,0E0
-1.11479E1,0E0
-1.09892E1,0E0
-1.08662E1,0E0
-1.08403E1,0E0
-1.08139E1,0E0
-1.06997E1,0E0
-1.06186E1,0E0
-1.05537E1,0E0
-1.04887E1,0E0
-1.04404E1,0E0
-1.02553E1,0E0
-1.01103E1,0E0
-1.01181E1,0E0
-1.00478E1,0E0
-9.98779E0,0E0
-9.97070E0,0E0
-9.96289E0,0E0
-1.00136E1,0E0
-1.00566E1,0E0
-9.99414E0,0E0
-1.00034E1,0E0
-1.00058E1,0E0
-1.00249E1,0E0
-1.00258E1,0E0
-1.00537E1,0E0
-1.00878E1,0E0
-1.01425E1,0E0
-1.01967E1,0E0
-1.02553E1,0E0
-1.03066E1,0E0
-1.03252E1,0E0
-1.03681E1,0E0
-1.03911E1,0E0
-1.04487E1,0E0
-1.05332E1,0E0
-1.06113E1,0E0
-1.06713E1,0E0
-1.07553E1,0E0
-1.08295E1,0E0
-1.09047E1,0E0
-1.09760E1,0E0
-1.10449E1,0E0
-1.11357E1,0E0
-1.1229E1,0E0
-1.13437E1,0E0
-1.14003E1,0E0
-1.14389E1,0E0
-1.14770E1,0E0
-1.15166E1,0E0
-1.15297E1,0E0
-1.15556E1,0E0
-1.15795E1,0E0
-1.16259E1,0E0
-1.16772E1,0E0
-1.17099E1,0E0
-1.16977E1,0E0
-1.16811E1,0E0
-1.16909E1,0E0
-1.16792E1,0E0
-1.16562E1,0E0
-1.16171E1,0E0
-1.15717E1,0E0
-1.15102E1,0E0
-1.14516E1,0E0
-1.13452E1,0E0
-1.12353E1,0E0
-1.10073E1,0E0
-1.08593E1,0E0
-1.07988E1,0E0
-1.07348E1,0E0
-1.05893E1,0E0
-1.04243E1,0E0
-1.02885E1,0E0
-1.02685E1,0E0
-1.02016E1,0E0
-1.00502E1,0E0
-9.90820E0,0E0
-9.81201E0,0E0
-9.71728E0,0E0
-9.58007E0,0E0
-9.43017E0,0E0
-9.26367E0,0E0
-9.08593E0,0E0
-8.92041E0,0E0
-8.75341E0,0E0
-8.61523E0,0E0
-8.50293E0,0E0
-8.42138E0,0E0
END
BEGIN
3.30332E1,0E0
3.28222E1,0E0
3.26035E1,0E0
3.22695E1,0E0
3.18613E1,0E0
3.14755E1,0E0
3.09668E1,0E0
3.03828E1,0E0
2.98515E1,0E0
2.92675E1,0E0
2.87324E1,0E0
2.81972E1,0E0
2.76376E1,0E0
2.71728E1,0E0
2.66679E1,0E0
2.62304E1,0E0
2.58525E1,0E0
2.54111E1,0E0
2.49951E1,0E0
2.46054E1,0E0
2.42216E1,0E0
2.38662E1,0E0
2.35136E1,0E0
2.31035E1,0E0
2.27646E1,0E0
2.24140E1,0E0
2.21015E1,0E0
2.17832E1,0E0
2.14580E1,0E0
2.11572E1,0E0
2.08964E1,0E0
2.06582E1,0E0
2.04160E1,0E0
2.01699E1,0E0
1.99892E1,0E0
1.98056E1,0E0
1.95722E1,0E0
1.93369E1,0E0
1.90810E1,0E0
1.88779E1,0E0
1.86884E1,0E0
1.84482E1,0E0
1.82451E1,0E0
1.80293E1,0E0
1.78554E1,0E0
1.77539E1,0E0
1.76025E1,0E0
1.74248E1,0E0
1.72773E1,0E0
1.71328E1,0E0
1.70302E1,0E0
1.68662E1,0E0
1.66914E1,0E0
1.65615E1,0E0
1.64169E1,0E0
1.62812E1,0E0
1.61445E1,0E0
1.60205E1,0E0
1.59394E1,0E0
1.58183E1,0E0
1.56875E1,0E0
1.55878E1,0E0
1.54970E1,0E0
1.54272E1,0E0
1.53227E1,0E0
1.51713E1,0E0
1.50595E1,0E0
1.49672E1,0E0
1.49023E1,0E0
1.47734E1,0E0
1.46308E1,0E0
1.45297E1,0E0
1.44482E1,0E0
1.43422E1,0E0
1.42358E1,0E0
1.40981E1,0E0
1.40141E1,0E0
1.39174E1,0E0
1.38100E1,0E0
1.37207E1,0E0
1.36303E1,0E0
1.35327E1,0E0
1.34106E1,0E0
1.32773E1,0E0
1.31728E1,0E0
1.30561E1,0E0
1.29282E1,0E0
1.27978E1,0E0
1.26733E1,0E0
1.25927E1,0E0
1.24824E1,0E0
1.23437E1,0E0
1.22241E1,0E0
1.21235E1,0E0
1.20346E1,0E0
1.19243E1,0E0
1.17988E1,0E0
1.17075E1,0E0
1.16210E1,0E0
1.15151E1,0E0
1.13916E1,0E0
1.12353E1,0E0
1.11284E1,0E0
1.10390E1,0E0
1.09243E1,0E0
1.08310E1,0E0
1.07163E1,0E0
1.06162E1,0E0
1.05449E1,0E0
1.04145E1,0E0
1.02729E1,0E0
1.01406E1,0E0
1.00083E1,0E0
9.91406E0,0E0
9.78369E0,0E0
9.64502E0,0E0
9.51611E0,0E0
9.36572E0,0E0
9.24414E0,0E0
9.09521E0,0E0
8.94677E0,0E0
8.86914E0,0E0
8.78466E0,0E0
8.68603E0,0E0
8.57519E0,0E0
8.43652E0,0E0
8.31445E0,0E0
8.17236E0,0E0
7.97851E0,0E0
7.81005E0,0E0
7.69335E0,0E0
7.59521E0,0E0
7.48950E0,0E0
7.32226E0,0E0
7.16333E0,0E0
7.04223E0,0E0
6.93115E0,0E0
6.79077E0,0E0
6.63110E0,0E0
6.49121E0,0E0
6.42163E0,0E0
6.33032E0,0E0
6.18286E0,0E0
5.96704E0,0E0
5.78466E0,0E0
5.65747E0,0E0
5.52612E0,0E0
5.40234E0,0E0
5.28051E0,0E0
5.17431E0,0E0
5.12597E0,0E0
5.03125E0,0E0
4.87915E0,0E0
4.73217E0,0E0
4.59936E0,0E0
4.52490E0,0E0
4.44238E0,0E0
4.30517E0,0E0
4.17504E0,0E0
4.0896E0,0E0
4.01318E0,0E0
3.91894E0,0E0
3.80957E0,0E0
3.72998E0,0E0
3.70092E0,0E0
3.66235E0,0E0
3.58142E0,0E0
3.50915E0,0E0
3.45373E0,0E0
3.42700E0,0E0
3.37207E0,0E0
3.29797E0,0E0
3.24804E0,0E0
3.25219E0,0E0
3.26843E0,0E0
3.23486E0,0E0
3.14880E0,0E0
3.11364E0,0E0
3.15124E0,0E0
3.22644E0,0E0
3.22827E0,0E0
3.16967E0,0E0
3.15271E0,0E0
3.18249E0,0E0
3.19421E0,0E0
3.15441E0,0E0
3.08642E0,0E0
3.09716E0,0E0
3.16870E0,0E0
3.23315E0,0E0
3.26953E0,0E0
3.26818E0,0E0
3.27087E0,0E0
3.29882E0,0E0
3.33154E0,0E0
3.35241E0,0E0
3.36254E0,0E0
3.38745E0,0E0
3.44348E0,0E0
3.50476E0,0E0
3.54309E0,0E0
END
BEGIN
-3.55996E1,0E0
-3.57324E1,0E0
-3.62011E1,0E0
-3.66406E1,0E0
-3.68535E1,0E0
-3.55664E1,0E0
-3.36113E1,0E0
-3.31328E1,0E0
-3.29199E1,0E0
-3.23808E1,0E0
-3.18183E1,0E0
-3.13535E1,0E0
-3.10595E1,0E0
-3.06875E1,0E0
-3.03046E1,0E0
-2.99209E1,0E0
-2.94433E1,0E0
-2.90166E1,0E0
-2.86533E1,0E0
-2.83115E1,0E0
-2.8E1,0E0
-2.76591E1,0E0
-2.73437E1,0E0
-2.71025E1,0E0
-2.68359E1,0E0
-2.66093E1,0E0
-2.63701E1,0E0
-2.61650E1,0E0
-2.59228E1,0E0
-2.56875E1,0E0
-2.54101E1,0E0
-2.51914E1,0E0
-2.50048E1,0E0
-2.48037E1,0E0
-2.45302E1,0E0
-2.43066E1,0E0
-2.41669E1,0E0
-2.40283E1,0E0
-2.38007E1,0E0
-2.35605E1,0E0
-2.33398E1,0E0
-2.31904E1,0E0
-2.30029E1,0E0
-2.28027E1,0E0
-2.26220E1,0E0
-2.24814E1,0E0
-2.23271E1,0E0
-2.21611E1,0E0
-2.19755E1,0E0
-2.18398E1,0E0
-2.17021E1,0E0
-2.15664E1,0E0
-2.14082E1,0E0
-2.12402E1,0E0
-2.11318E1,0E0
-2.10253E1,0E0
-2.08505E1,0E0
-2.06543E1,0E0
-2.04912E1,0E0
-2.03701E1,0E0
-2.02617E1,0E0
-2.00771E1,0E0
-1.98964E1,0E0
-1.97939E1,0E0
-1.97265E1,0E0
-1.96562E1,0E0
-1.95068E1,0E0
-1.93759E1,0E0
-1.92812E1,0E0
-1.92089E1,0E0
-1.90849E1,0E0
-1.89345E1,0E0
-1.87753E1,0E0
-1.87050E1,0E0
-1.85937E1,0E0
-1.85166E1,0E0
-1.84482E1,0E0
-1.83652E1,0E0
-1.82978E1,0E0
-1.82226E1,0E0
-1.81494E1,0E0
-1.81113E1,0E0
-1.80371E1,0E0
-1.79335E1,0E0
-1.78730E1,0E0
-1.78378E1,0E0
-1.77880E1,0E0
-1.77128E1,0E0
-1.76328E1,0E0
-1.75830E1,0E0
-1.75595E1,0E0
-1.75410E1,0E0
-1.74951E1,0E0
-1.74746E1,0E0
-1.74902E1,0E0
-1.74873E1,0E0
-1.74482E1,0E0
-1.74101E1,0E0
-1.73681E1,0E0
-1.73603E1,0E0
-1.73388E1,0E0
-1.72675E1,0E0
-1.72207E1,0E0
-1.72168E1,0E0
-1.71914E1,0E0
-1.71259E1,0E0
-1.70722E1,0E0
-1.70712E1,0E0
-1.71230E1,0E0
-1.71337E1,0E0
-1.71220E1,0E0
-1.71084E1,0E0
-1.71884E1,0E0
-1.72128E1,0E0
-1.71679E1,0E0
-1.70966E1,0E0
-1.71044E1,0E0
-1.71474E1,0E0
-1.71992E1,0E0
-1.71640E1,0E0
-1.71503E1,0E0
-1.72207E1,0E0
-1.72851E1,0E0
-1.72724E1,0E0
-1.72597E1,0E0
-1.72617E1,0E0
-1.73544E1,0E0
-1.74199E1,0E0
-1.73886E1,0E0
-1.73994E1,0E0
-1.74746E1,0E0
-1.75400E1,0E0
-1.75576E1,0E0
-1.75419E1,0E0
-1.76064E1,0E0
-1.77568E1,0E0
-1.77929E1,0E0
-1.77607E1,0E0
-1.77265E1,0E0
-1.77851E1,0E0
-1.78457E1,0E0
-1.78105E1,0E0
-1.77148E1,0E0
-1.77382E1,0E0
-1.78418E1,0E0
-1.79150E1,0E0
-1.78916E1,0E0
-1.78427E1,0E0
-1.78759E1,0E0
-1.79550E1,0E0
-1.79755E1,0E0
-1.79326E1,0E0
-1.79248E1,0E0
-1.79794E1,0E0
-1.80351E1,0E0
-1.80136E1,0E0
-1.79638E1,0E0
-1.79316E1,0E0
-1.79316E1,0E0
-1.79052E1,0E0
-1.78837E1,0E0
-1.78564E1,0E0
-1.78935E1,0E0
-1.79140E1,0E0
-1.78837E1,0E0
-1.78427E1,0E0
-1.78554E1,0E0
-1.78369E1,0E0
-1.77900E1,0E0
-1.76855E1,0E0
-1.76025E1,0E0
-1.75712E1,0E0
-1.75468E1,0E0
-1.74326E1,0E0
-1.72734E1,0E0
-1.71709E1,0E0
-1.71269E1,0E0
-1.70732E1,0E0
-1.69560E1,0E0
-1.67753E1,0E0
-1.66552E1,0E0
-1.66064E1,0E0
-1.65293E1,0E0
-1.63847E1,0E0
-1.62314E1,0E0
-1.61445E1,0E0
-1.61152E1,0E0
-1.60410E1,0E0
-1.59233E1,0E0
-1.57919E1,0E0
-1.56772E1,0E0
-1.55610E1,0E0
-1.54121E1,0E0
-1.52534E1,0E0
-1.51264E1,0E0
-1.50014E1,0E0
-1.48442E1,0E0
-1.46430E1,0E0
-1.44653E1,0E0
-1.43129E1,0E0
-1.41792E1,0E0
END
BEGIN
-1.13252E1,0E0
-1.12807E1,0E0
-1.16284E1,0E0
-1.20019E1,0E0
-1.21982E1,0E0
-1.22758E1,0E0
-1.25478E1,0E0
-1.32089E1,0E0
-1.36357E1,0E0
-1.35717E1,0E0
-1.35512E1,0E0
-1.37822E1,0E0
-1.40249E1,0E0
-1.41240E1,0E0
-1.41001E1,0E0
-1.41494E1,0E0
-1.42543E1,0E0
-1.43432E1,0E0
-1.40190E1,0E0
-1.38374E1,0E0
-1.38920E1,0E0
-1.39272E1,0E0
-1.39038E1,0E0
-1.39082E1,0E0
-1.39375E1,0E0
-1.43354E1,0E0
-1.45600E1,0E0
-1.45278E1,0E0
-1.45170E1,0E0
-1.46772E1,0E0
-1.48735E1,0E0
-1.48325E1,0E0
-1.46591E1,0E0
-1.46220E1,0E0
-1.46811E1,0E0
-1.46713E1,0E0
-1.45483E1,0E0
-1.44169E1,0E0
-1.44555E1,0E0
-1.46103E1,0E0
-1.45854E1,0E0
-1.44638E1,0E0
-1.44672E1,0E0
-1.45620E1,0E0
-1.45913E1,0E0
-1.45395E1,0E0
-1.45288E1,0E0
-1.46557E1,0E0
-1.48310E1,0E0
-1.49160E1,0E0
-1.48837E1,0E0
-1.49443E1,0E0
-1.51552E1,0E0
-1.52836E1,0E0
-1.53461E1,0E0
-1.53735E1,0E0
-1.54106E1,0E0
-1.55532E1,0E0
-1.56367E1,0E0
-1.56909E1,0E0
-1.55888E1,0E0
-1.54028E1,0E0
-1.56137E1,0E0
-1.59448E1,0E0
-1.60859E1,0E0
-1.60517E1,0E0
-1.61337E1,0E0
-1.65234E1,0E0
-1.69628E1,0E0
-1.68271E1,0E0
-1.65439E1,0E0
-1.67460E1,0E0
-1.72148E1,0E0
-1.73730E1,0E0
-1.72207E1,0E0
-1.72402E1,0E0
-1.76220E1,0E0
-1.79716E1,0E0
-1.78935E1,0E0
-1.77177E1,0E0
-1.77548E1,0E0
-1.79804E1,0E0
-1.79257E1,0E0
-1.76376E1,0E0
-1.74541E1,0E0
-1.77421E1,0E0
-1.7875E1,0E0
-1.75039E1,0E0
-1.70625E1,0E0
-1.69824E1,0E0
-1.69873E1,0E0
-1.67978E1,0E0
-1.61328E1,0E0
-1.56904E1,0E0
-1.56855E1,0E0
-1.57319E1,0E0
-1.55E1,0E0
-1.52583E1,0E0
-1.51323E1,0E0
-1.50717E1,0E0
-1.49008E1,0E0
-1.47041E1,0E0
-1.45195E1,0E0
-1.4375E1,0E0
-1.42329E1,0E0
-1.40542E1,0E0
-1.38891E1,0E0
-1.38310E1,0E0
-1.37866E1,0E0
-1.36855E1,0E0
-1.35390E1,0E0
-1.34365E1,0E0
-1.33935E1,0E0
-1.3375E1,0E0
-1.32915E1,0E0
-1.32094E1,0E0
-1.31865E1,0E0
-1.31928E1,0E0
-1.31333E1,0E0
-1.30673E1,0E0
-1.29980E1,0E0
-1.29936E1,0E0
-1.29594E1,0E0
-1.29292E1,0E0
-1.28940E1,0E0
-1.2875E1,0E0
-1.28208E1,0E0
-1.27285E1,0E0
-1.25732E1,0E0
-1.24956E1,0E0
-1.24355E1,0E0
-1.23769E1,0E0
-1.22627E1,0E0
-1.21484E1,0E0
-1.20581E1,0E0
-1.20039E1,0E0
-1.1896E1,0E0
-1.17719E1,0E0
-1.16723E1,0E0
-1.16162E1,0E0
-1.15849E1,0E0
-1.15546E1,0E0
-1.14682E1,0E0
-1.13676E1,0E0
-1.12793E1,0E0
-1.12109E1,0E0
-1.11552E1,0E0
-1.10810E1,0E0
-1.09882E1,0E0
-1.09370E1,0E0
-1.09101E1,0E0
-1.08623E1,0E0
-1.07504E1,0E0
-1.06489E1,0E0
-1.06215E1,0E0
-1.06137E1,0E0
-1.05766E1,0E0
-1.05341E1,0E0
-1.04975E1,0E0
-1.05127E1,0E0
-1.05053E1,0E0
-1.04628E1,0E0
-1.04252E1,0E0
-1.04331E1,0E0
-1.04589E1,0E0
-1.04619E1,0E0
-1.04379E1,0E0
-1.04843E1,0E0
-1.05444E1,0E0
-1.05903E1,0E0
-1.05961E1,0E0
-1.05996E1,0E0
-1.06806E1,0E0
-1.07758E1,0E0
-1.07836E1,0E0
-1.07827E1,0E0
-1.08310E1,0E0
-1.10195E1,0E0
-1.10947E1,0E0
-1.10014E1,0E0
-1.09702E1,0E0
-1.10307E1,0E0
-1.10859E1,0E0
-1.10849E1,0E0
-1.09487E1,0E0
-1.09467E1,0E0
-1.10991E1,0E0
-1.11499E1,0E0
-1.11176E1,0E0
-1.10854E1,0E0
-1.10820E1,0E0
-1.11108E1,0E0
-1.10752E1,0E0
-1.09912E1,0E0
-1.0979E1,0E0
-1.09824E1,0E0
-1.09985E1,0E0
-1.09594E1,0E0
-1.09101E1,0E0
-1.0896E1,0E0
-1.08925E1,0E0
END

