CITIFILE A.01.00
#NA VERSION HP8722ES.07.74: Oct 30, 2002
NAME FORMATTED
VAR FREQ MAG 201
DATA S[1,1] RI
DATA S[2,1] RI
DATA S[1,2] RI
DATA S[2,2] RI
SEG_LIST_BEGIN
SEG 50000000 4500000000 201
SEG_LIST_END
BEGIN
-5.23901E0,0E0
-5.35278E0,0E0
-5.54687E0,0E0
-5.81445E0,0E0
-6.04663E0,0E0
-6.15039E0,0E0
-6.48803E0,0E0
-6.96972E0,0E0
-7.31201E0,0E0
-7.50732E0,0E0
-7.65576E0,0E0
-7.97045E0,0E0
-8.33154E0,0E0
-8.43505E0,0E0
-8.46337E0,0E0
-8.56640E0,0E0
-8.71191E0,0E0
-8.83496E0,0E0
-8.63769E0,0E0
-8.50634E0,0E0
-8.69433E0,0E0
-8.83154E0,0E0
-8.77783E0,0E0
-8.71630E0,0E0
-8.73437E0,0E0
-9.01904E0,0E0
-9.11425E0,0E0
-8.94921E0,0E0
-8.83349E0,0E0
-8.83837E0,0E0
-8.87402E0,0E0
-8.87109E0,0E0
-8.78418E0,0E0
-8.72460E0,0E0
-8.63476E0,0E0
-8.58935E0,0E0
-8.58398E0,0E0
-8.55712E0,0E0
-8.52978E0,0E0
-8.51220E0,0E0
-8.53710E0,0E0
-8.58203E0,0E0
-8.59082E0,0E0
-8.63525E0,0E0
-8.65283E0,0E0
-8.58886E0,0E0
-8.57031E0,0E0
-8.59912E0,0E0
-8.64794E0,0E0
-8.67382E0,0E0
-8.64746E0,0E0
-8.65576E0,0E0
-8.68603E0,0E0
-8.76318E0,0E0
-8.91845E0,0E0
-8.99707E0,0E0
-9.05029E0,0E0
-9.13037E0,0E0
-9.26855E0,0E0
-9.46679E0,0E0
-9.54199E0,0E0
-9.52685E0,0E0
-9.64062E0,0E0
-9.78076E0,0E0
-9.92578E0,0E0
-9.93017E0,0E0
-9.94043E0,0E0
-1.01079E1,0E0
-1.03046E1,0E0
-1.04355E1,0E0
-1.05903E1,0E0
-1.07876E1,0E0
-1.11367E1,0E0
-1.13867E1,0E0
-1.14199E1,0E0
-1.15107E1,0E0
-1.17226E1,0E0
-1.19047E1,0E0
-1.20546E1,0E0
-1.21586E1,0E0
-1.23335E1,0E0
-1.25908E1,0E0
-1.27407E1,0E0
-1.27944E1,0E0
-1.28564E1,0E0
-1.29082E1,0E0
-1.29721E1,0E0
-1.30625E1,0E0
-1.31577E1,0E0
-1.32104E1,0E0
-1.32041E1,0E0
-1.31958E1,0E0
-1.31538E1,0E0
-1.31015E1,0E0
-1.27807E1,0E0
-1.25473E1,0E0
-1.25991E1,0E0
-1.26743E1,0E0
-1.25835E1,0E0
-1.23955E1,0E0
-1.22470E1,0E0
-1.2375E1,0E0
-1.23520E1,0E0
-1.20781E1,0E0
-1.18164E1,0E0
-1.17885E1,0E0
-1.18535E1,0E0
-1.17441E1,0E0
-1.15029E1,0E0
-1.13437E1,0E0
-1.12392E1,0E0
-1.11025E1,0E0
-1.09077E1,0E0
-1.06899E1,0E0
-1.05815E1,0E0
-1.05376E1,0E0
-1.04619E1,0E0
-1.03276E1,0E0
-1.01748E1,0E0
-1.00239E1,0E0
-9.91308E0,0E0
-9.77343E0,0E0
-9.64013E0,0E0
-9.47119E0,0E0
-9.32617E0,0E0
-9.27099E0,0E0
-9.12890E0,0E0
-8.98291E0,0E0
-8.91259E0,0E0
-8.83691E0,0E0
-8.78710E0,0E0
-8.74414E0,0E0
-8.62744E0,0E0
-8.56933E0,0E0
-8.49658E0,0E0
-8.40429E0,0E0
-8.31396E0,0E0
-8.25E0,0E0
-8.19873E0,0E0
-8.17187E0,0E0
-8.15136E0,0E0
-8.12890E0,0E0
-8.08349E0,0E0
-8.00488E0,0E0
-7.95068E0,0E0
-7.86669E0,0E0
-7.78662E0,0E0
-7.76220E0,0E0
-7.72753E0,0E0
-7.70556E0,0E0
-7.67114E0,0E0
-7.62670E0,0E0
-7.59179E0,0E0
-7.57959E0,0E0
-7.54223E0,0E0
-7.53393E0,0E0
-7.51782E0,0E0
-7.55444E0,0E0
-7.54003E0,0E0
-7.52099E0,0E0
-7.48388E0,0E0
-7.45361E0,0E0
-7.41894E0,0E0
-7.39746E0,0E0
-7.38427E0,0E0
-7.40063E0,0E0
-7.42382E0,0E0
-7.45043E0,0E0
-7.43090E0,0E0
-7.42749E0,0E0
-7.46020E0,0E0
-7.48632E0,0E0
-7.50439E0,0E0
-7.51953E0,0E0
-7.53613E0,0E0
-7.57690E0,0E0
-7.59716E0,0E0
-7.57446E0,0E0
-7.55712E0,0E0
-7.42919E0,0E0
-7.37744E0,0E0
-7.44799E0,0E0
-7.50244E0,0E0
-7.47778E0,0E0
-7.44091E0,0E0
-7.44335E0,0E0
-7.58276E0,0E0
-7.64697E0,0E0
-7.60913E0,0E0
-7.59594E0,0E0
-7.62890E0,0E0
-7.67163E0,0E0
-7.67016E0,0E0
-7.63964E0,0E0
-7.62841E0,0E0
-7.5979E0,0E0
-7.56420E0,0E0
-7.53686E0,0E0
-7.51049E0,0E0
-7.48437E0,0E0
-7.47094E0,0E0
END
BEGIN
3.26718E1,0E0
3.24785E1,0E0
3.22812E1,0E0
3.19746E1,0E0
3.15947E1,0E0
3.12421E1,0E0
3.07695E1,0E0
3.02128E1,0E0
2.97060E1,0E0
2.91455E1,0E0
2.86289E1,0E0
2.81152E1,0E0
2.75761E1,0E0
2.71171E1,0E0
2.66230E1,0E0
2.61904E1,0E0
2.58222E1,0E0
2.53847E1,0E0
2.49755E1,0E0
2.45810E1,0E0
2.42001E1,0E0
2.38486E1,0E0
2.35009E1,0E0
2.30898E1,0E0
2.27529E1,0E0
2.24033E1,0E0
2.20937E1,0E0
2.17783E1,0E0
2.14521E1,0E0
2.11533E1,0E0
2.08964E1,0E0
2.06601E1,0E0
2.04169E1,0E0
2.01738E1,0E0
1.99970E1,0E0
1.98173E1,0E0
1.95839E1,0E0
1.93496E1,0E0
1.90918E1,0E0
1.88828E1,0E0
1.86914E1,0E0
1.84462E1,0E0
1.82353E1,0E0
1.80146E1,0E0
1.78378E1,0E0
1.77402E1,0E0
1.75908E1,0E0
1.74062E1,0E0
1.72568E1,0E0
1.71162E1,0E0
1.70185E1,0E0
1.68515E1,0E0
1.66728E1,0E0
1.65419E1,0E0
1.64003E1,0E0
1.62646E1,0E0
1.61269E1,0E0
1.59985E1,0E0
1.59204E1,0E0
1.58042E1,0E0
1.56738E1,0E0
1.55727E1,0E0
1.54814E1,0E0
1.54252E1,0E0
1.53320E1,0E0
1.51718E1,0E0
1.50483E1,0E0
1.49624E1,0E0
1.49096E1,0E0
1.47895E1,0E0
1.46337E1,0E0
1.45356E1,0E0
1.44775E1,0E0
1.43969E1,0E0
1.43002E1,0E0
1.41689E1,0E0
1.41079E1,0E0
1.40459E1,0E0
1.39477E1,0E0
1.38671E1,0E0
1.37919E1,0E0
1.37197E1,0E0
1.36171E1,0E0
1.34751E1,0E0
1.33608E1,0E0
1.32646E1,0E0
1.31572E1,0E0
1.30444E1,0E0
1.29213E1,0E0
1.28593E1,0E0
1.28027E1,0E0
1.27002E1,0E0
1.25864E1,0E0
1.24941E1,0E0
1.24282E1,0E0
1.23608E1,0E0
1.22392E1,0E0
1.21372E1,0E0
1.20654E1,0E0
1.19917E1,0E0
1.19003E1,0E0
1.17548E1,0E0
1.1646E1,0E0
1.15947E1,0E0
1.15136E1,0E0
1.14448E1,0E0
1.13544E1,0E0
1.12783E1,0E0
1.12426E1,0E0
1.11347E1,0E0
1.10024E1,0E0
1.08950E1,0E0
1.07797E1,0E0
1.07016E1,0E0
1.05908E1,0E0
1.04770E1,0E0
1.04072E1,0E0
1.03154E1,0E0
1.02285E1,0E0
1.01303E1,0E0
1.00278E1,0E0
9.98437E0,0E0
9.92334E0,0E0
9.84033E0,0E0
9.76220E0,0E0
9.66894E0,0E0
9.57861E0,0E0
9.47216E0,0E0
9.31445E0,0E0
9.19921E0,0E0
9.13720E0,0E0
9.06982E0,0E0
8.99902E0,0E0
8.88623E0,0E0
8.79638E0,0E0
8.73437E0,0E0
8.65527E0,0E0
8.55712E0,0E0
8.45361E0,0E0
8.35546E0,0E0
8.31543E0,0E0
8.24511E0,0E0
8.15332E0,0E0
8.01611E0,0E0
7.87915E0,0E0
7.78247E0,0E0
7.69287E0,0E0
7.62817E0,0E0
7.59033E0,0E0
7.52465E0,0E0
7.50708E0,0E0
7.46948E0,0E0
7.38281E0,0E0
7.30590E0,0E0
7.20654E0,0E0
7.13134E0,0E0
7.08911E0,0E0
7.00146E0,0E0
6.90698E0,0E0
6.84838E0,0E0
6.78881E0,0E0
6.73461E0,0E0
6.65991E0,0E0
6.59887E0,0E0
6.58081E0,0E0
6.55542E0,0E0
6.49511E0,0E0
6.42749E0,0E0
6.35986E0,0E0
6.32543E0,0E0
6.26220E0,0E0
6.17041E0,0E0
6.09204E0,0E0
6.06616E0,0E0
6.05908E0,0E0
6.00732E0,0E0
5.89843E0,0E0
5.82617E0,0E0
5.81689E0,0E0
5.85888E0,0E0
5.81787E0,0E0
5.70361E0,0E0
5.63476E0,0E0
5.61059E0,0E0
5.57641E0,0E0
5.48803E0,0E0
5.35913E0,0E0
5.31689E0,0E0
5.33667E0,0E0
5.33496E0,0E0
5.30493E0,0E0
5.23144E0,0E0
5.16772E0,0E0
5.12744E0,0E0
5.08227E0,0E0
5.02734E0,0E0
4.96313E0,0E0
4.91381E0,0E0
4.90454E0,0E0
4.90771E0,0E0
4.89453E0,0E0
END
BEGIN
-4.46464E1,0E0
-4.24570E1,0E0
-4.06093E1,0E0
-3.81738E1,0E0
-3.57968E1,0E0
-3.53437E1,0E0
-3.43046E1,0E0
-3.38906E1,0E0
-3.33203E1,0E0
-3.24531E1,0E0
-3.20039E1,0E0
-3.14834E1,0E0
-3.09404E1,0E0
-3.05498E1,0E0
-3.00097E1,0E0
-2.97031E1,0E0
-2.92753E1,0E0
-2.90136E1,0E0
-2.87197E1,0E0
-2.84121E1,0E0
-2.80732E1,0E0
-2.77226E1,0E0
-2.73906E1,0E0
-2.71220E1,0E0
-2.68144E1,0E0
-2.65312E1,0E0
-2.62597E1,0E0
-2.60253E1,0E0
-2.57812E1,0E0
-2.55654E1,0E0
-2.53056E1,0E0
-2.50878E1,0E0
-2.48925E1,0E0
-2.4708E1,0E0
-2.45107E1,0E0
-2.42773E1,0E0
-2.41074E1,0E0
-2.39697E1,0E0
-2.37763E1,0E0
-2.35820E1,0E0
-2.33779E1,0E0
-2.32334E1,0E0
-2.30800E1,0E0
-2.28916E1,0E0
-2.27148E1,0E0
-2.25556E1,0E0
-2.23847E1,0E0
-2.22294E1,0E0
-2.20371E1,0E0
-2.18867E1,0E0
-2.17578E1,0E0
-2.16005E1,0E0
-2.14462E1,0E0
-2.12734E1,0E0
-2.11503E1,0E0
-2.10390E1,0E0
-2.08564E1,0E0
-2.06435E1,0E0
-2.04882E1,0E0
-2.0375E1,0E0
-2.02851E1,0E0
-2.00839E1,0E0
-1.98886E1,0E0
-1.97841E1,0E0
-1.97246E1,0E0
-1.96318E1,0E0
-1.94892E1,0E0
-1.93466E1,0E0
-1.92773E1,0E0
-1.92021E1,0E0
-1.90791E1,0E0
-1.89238E1,0E0
-1.87832E1,0E0
-1.86943E1,0E0
-1.85703E1,0E0
-1.84492E1,0E0
-1.83955E1,0E0
-1.83154E1,0E0
-1.82314E1,0E0
-1.81289E1,0E0
-1.80244E1,0E0
-1.79853E1,0E0
-1.79472E1,0E0
-1.78027E1,0E0
-1.76972E1,0E0
-1.76503E1,0E0
-1.76279E1,0E0
-1.75537E1,0E0
-1.74267E1,0E0
-1.73251E1,0E0
-1.73183E1,0E0
-1.73027E1,0E0
-1.72285E1,0E0
-1.71386E1,0E0
-1.71181E1,0E0
-1.71210E1,0E0
-1.70703E1,0E0
-1.69638E1,0E0
-1.68808E1,0E0
-1.68769E1,0E0
-1.68837E1,0E0
-1.68203E1,0E0
-1.67353E1,0E0
-1.67128E1,0E0
-1.67187E1,0E0
-1.66640E1,0E0
-1.65654E1,0E0
-1.64980E1,0E0
-1.65214E1,0E0
-1.65429E1,0E0
-1.64941E1,0E0
-1.64013E1,0E0
-1.64287E1,0E0
-1.64570E1,0E0
-1.64160E1,0E0
-1.63085E1,0E0
-1.62490E1,0E0
-1.62822E1,0E0
-1.63349E1,0E0
-1.62851E1,0E0
-1.62070E1,0E0
-1.62138E1,0E0
-1.62431E1,0E0
-1.62187E1,0E0
-1.61367E1,0E0
-1.60986E1,0E0
-1.61660E1,0E0
-1.62265E1,0E0
-1.62001E1,0E0
-1.61679E1,0E0
-1.62099E1,0E0
-1.62705E1,0E0
-1.62656E1,0E0
-1.62080E1,0E0
-1.62304E1,0E0
-1.63251E1,0E0
-1.63779E1,0E0
-1.63164E1,0E0
-1.62343E1,0E0
-1.62470E1,0E0
-1.63056E1,0E0
-1.62568E1,0E0
-1.61474E1,0E0
-1.61005E1,0E0
-1.61582E1,0E0
-1.62363E1,0E0
-1.61992E1,0E0
-1.60693E1,0E0
-1.60175E1,0E0
-1.60556E1,0E0
-1.60459E1,0E0
-1.59692E1,0E0
-1.58784E1,0E0
-1.58754E1,0E0
-1.59072E1,0E0
-1.58930E1,0E0
-1.57827E1,0E0
-1.57011E1,0E0
-1.56699E1,0E0
-1.56528E1,0E0
-1.55737E1,0E0
-1.55190E1,0E0
-1.55307E1,0E0
-1.55610E1,0E0
-1.5521E1,0E0
-1.54355E1,0E0
-1.54140E1,0E0
-1.54199E1,0E0
-1.53881E1,0E0
-1.52783E1,0E0
-1.51909E1,0E0
-1.51875E1,0E0
-1.52221E1,0E0
-1.51474E1,0E0
-1.50039E1,0E0
-1.49082E1,0E0
-1.49135E1,0E0
-1.49111E1,0E0
-1.48584E1,0E0
-1.47148E1,0E0
-1.46533E1,0E0
-1.46982E1,0E0
-1.47197E1,0E0
-1.46254E1,0E0
-1.45332E1,0E0
-1.45019E1,0E0
-1.45581E1,0E0
-1.45532E1,0E0
-1.44848E1,0E0
-1.44018E1,0E0
-1.43623E1,0E0
-1.43164E1,0E0
-1.42348E1,0E0
-1.41396E1,0E0
-1.41010E1,0E0
-1.40776E1,0E0
-1.39985E1,0E0
-1.38950E1,0E0
-1.38027E1,0E0
-1.37231E1,0E0
-1.36547E1,0E0
END
BEGIN
-1.10732E1,0E0
-1.08999E1,0E0
-1.10566E1,0E0
-1.12670E1,0E0
-1.13105E1,0E0
-1.14106E1,0E0
-1.16669E1,0E0
-1.22846E1,0E0
-1.27119E1,0E0
-1.27187E1,0E0
-1.27260E1,0E0
-1.29829E1,0E0
-1.3271E1,0E0
-1.34111E1,0E0
-1.34599E1,0E0
-1.35415E1,0E0
-1.36709E1,0E0
-1.38051E1,0E0
-1.35424E1,0E0
-1.34082E1,0E0
-1.35102E1,0E0
-1.35664E1,0E0
-1.35561E1,0E0
-1.35766E1,0E0
-1.36176E1,0E0
-1.40180E1,0E0
-1.42392E1,0E0
-1.4229E1,0E0
-1.42329E1,0E0
-1.44360E1,0E0
-1.46626E1,0E0
-1.46259E1,0E0
-1.44502E1,0E0
-1.44272E1,0E0
-1.44824E1,0E0
-1.44624E1,0E0
-1.43095E1,0E0
-1.41630E1,0E0
-1.42211E1,0E0
-1.43842E1,0E0
-1.43588E1,0E0
-1.42226E1,0E0
-1.42460E1,0E0
-1.43584E1,0E0
-1.43935E1,0E0
-1.43266E1,0E0
-1.43071E1,0E0
-1.44287E1,0E0
-1.45986E1,0E0
-1.46562E1,0E0
-1.45903E1,0E0
-1.46347E1,0E0
-1.48510E1,0E0
-1.49541E1,0E0
-1.49599E1,0E0
-1.49731E1,0E0
-1.50097E1,0E0
-1.51626E1,0E0
-1.52568E1,0E0
-1.53125E1,0E0
-1.52793E1,0E0
-1.52236E1,0E0
-1.54326E1,0E0
-1.57070E1,0E0
-1.58667E1,0E0
-1.58989E1,0E0
-1.60585E1,0E0
-1.64296E1,0E0
-1.68466E1,0E0
-1.68359E1,0E0
-1.67695E1,0E0
-1.70888E1,0E0
-1.75781E1,0E0
-1.78408E1,0E0
-1.79521E1,0E0
-1.82695E1,0E0
-1.88828E1,0E0
-1.94550E1,0E0
-1.97187E1,0E0
-2.00253E1,0E0
-2.04765E1,0E0
-2.10146E1,0E0
-2.13066E1,0E0
-2.14414E1,0E0
-2.17568E1,0E0
-2.35029E1,0E0
-2.46318E1,0E0
-2.44414E1,0E0
-2.41933E1,0E0
-2.46435E1,0E0
-2.52490E1,0E0
-2.52763E1,0E0
-2.36728E1,0E0
-2.27988E1,0E0
-2.32304E1,0E0
-2.36884E1,0E0
-2.33828E1,0E0
-2.28906E1,0E0
-2.27812E1,0E0
-2.27334E1,0E0
-2.24843E1,0E0
-2.20849E1,0E0
-2.16933E1,0E0
-2.13623E1,0E0
-2.11425E1,0E0
-2.08769E1,0E0
-2.06552E1,0E0
-2.05244E1,0E0
-2.04287E1,0E0
-2.02646E1,0E0
-2.00537E1,0E0
-1.98447E1,0E0
-1.96269E1,0E0
-1.95869E1,0E0
-1.94843E1,0E0
-1.93623E1,0E0
-1.93212E1,0E0
-1.93144E1,0E0
-1.92226E1,0E0
-1.92343E1,0E0
-1.91162E1,0E0
-1.90507E1,0E0
-1.89834E1,0E0
-1.89502E1,0E0
-1.88964E1,0E0
-1.88095E1,0E0
-1.86035E1,0E0
-1.84433E1,0E0
-1.81875E1,0E0
-1.80087E1,0E0
-1.78076E1,0E0
-1.76425E1,0E0
-1.74111E1,0E0
-1.71845E1,0E0
-1.69316E1,0E0
-1.67412E1,0E0
-1.65107E1,0E0
-1.62529E1,0E0
-1.60156E1,0E0
-1.58403E1,0E0
-1.57612E1,0E0
-1.56718E1,0E0
-1.54365E1,0E0
-1.51582E1,0E0
-1.49306E1,0E0
-1.47573E1,0E0
-1.46142E1,0E0
-1.43881E1,0E0
-1.41235E1,0E0
-1.39643E1,0E0
-1.38759E1,0E0
-1.36845E1,0E0
-1.33725E1,0E0
-1.31123E1,0E0
-1.29936E1,0E0
-1.29126E1,0E0
-1.27402E1,0E0
-1.25346E1,0E0
-1.23691E1,0E0
-1.22744E1,0E0
-1.21201E1,0E0
-1.18886E1,0E0
-1.16894E1,0E0
-1.16015E1,0E0
-1.15190E1,0E0
-1.14096E1,0E0
-1.12734E1,0E0
-1.12392E1,0E0
-1.12485E1,0E0
-1.12036E1,0E0
-1.10708E1,0E0
-1.09785E1,0E0
-1.10131E1,0E0
-1.10791E1,0E0
-1.10127E1,0E0
-1.09238E1,0E0
-1.09379E1,0E0
-1.12221E1,0E0
-1.12924E1,0E0
-1.11084E1,0E0
-1.10166E1,0E0
-1.10874E1,0E0
-1.11640E1,0E0
-1.11362E1,0E0
-1.09008E1,0E0
-1.09209E1,0E0
-1.12104E1,0E0
-1.13335E1,0E0
-1.13227E1,0E0
-1.13227E1,0E0
-1.14350E1,0E0
-1.15659E1,0E0
-1.15942E1,0E0
-1.15410E1,0E0
-1.16196E1,0E0
-1.17382E1,0E0
-1.18652E1,0E0
-1.18828E1,0E0
-1.18930E1,0E0
-1.19389E1,0E0
-1.19853E1,0E0
END

