! Network Analyzer HP8722ES.07.74: Oct 30, 2002 Serial No. US39175660
! Hewlett-Packard
! 30 May 2012  18:03:17
! Frequency       S11                S21                S12                S22
# HZ  S  DB R  50 
50000000  -4.3306   -16.455    33.271    161.93   -31.842    12.376   -11.331   -8.1848   
72250000  -6.1904   -13.543    32.752    161.73   -40.807    88.842   -12.152   -6.2389   
94500000  -5.5821   -24.975    32.582    146.13   -45.588    36.454   -11.749   -29.231   
116750000  -5.3367   -34.614    32.826    139.05   -35.426    58.863   -10.049   -47.435   
139000000  -5.9282   -38.193    31.797    130.98   -32.77    42.562   -11.02   -52.778   
161250000  -6.8919   -39.098    31.73    122.39   -35.125    41.2   -13.762   -58.429   
183500000  -7.2275   -43.095    30.932    115.33   -34.924    26.937   -13.949   -64.049   
205750000  -6.9107   -51.555    30.41    108.2   -33.323    36.87   -12.705   -77.429   
228000000  -6.5956   -54.352    30.054    103.77   -31.806    41.935   -12.697   -83.73   
250250000  -8.0698   -57.611    29.022    95.718   -31.903    39.869   -13.65   -90.612   
272500000  -8.6149   -56.451    28.741    94.723   -32.074    30.819   -14.677   -92.083   
294750000  -8.4562   -63.566    28.074    86.488   -31.283    32.195   -14.008   -100.57   
317000000  -7.9581   -65.878    27.643    83.555   -31.347    38.79   -13.314   -104.69   
339250000  -8.2973   -69.442    27.184    78.6   -30.99    33.493   -13.809   -111.41   
361500000  -9.0579   -71.943    26.667    74.252   -30.066    28.133   -14.319   -116.07   
383750000  -9.1862   -73.363    26.133    71.338   -29.75    27.687   -14.397   -118.35   
406000000  -8.7169   -78.665    25.767    64.141   -29.297    22.975   -14.343   -124.85   
428250000  -8.7821   -81.914    25.213    61.337   -29.395    21.477   -14.512   -127.85   
450500000  -9.0614   -85.246    25.006    56.971   -28.596    20.126   -14.351   -131.93   
472750000  -8.9415   -89.327    25.002    53.248   -28.007    20.834   -14.048   -134.47   
495000000  -8.973   -90.445    24.092    49.488   -27.999    16.54   -14.431   -138.78   
517250000  -7.5988   -90.386    23.753    47.203   -27.529    19.182   -12.051   -135.88   
539500000  -8.1607   -96.568    23.41    43.226   -27.356    14.881   -13.124   -141.69   
561750000  -10.031   -99.912    23.078    39.643   -27.118    12.515   -14.725   -148.69   
584000000  -9.7178   -102.11    22.727    35.888   -27.007    9.5979   -14.759   -150.88   
606250000  -8.6978   -103.43    22.537    33.72   -26.388    7.5558   -14.187   -152.59   
628500000  -8.5017   -106.87    22.131    30.742   -26.319    5.3407   -14.079   -156.62   
650750000  -9.0761   -112.02    21.722    26.864   -26.133    4.2242   -14.635   -160.77   
673000000  -9.7376   -114.01    21.3    24.806   -25.941    1.0794   -14.837   -163.57   
695250000  -9.014   -117.45    21.221    20.818   -25.685   -2.1286   -14.695   -164.77   
717500000  -8.9908   -121.46    20.849    16.839   -25.676   -4.595   -14.502   -168.78   
739750000  -9.0488   -124.57    20.447    15.231   -25.313   -3.1064   -14.682   -171.01   
762000000  -8.9494   -127.42    20.431    12.707   -24.745   -6.7497   -15.309    169.12   
784250000  -8.905   -130.76    20.308    9.223   -24.372   -9.7119   -15.454    170.52   
806500000  -9.2082   -130.71    20.054    4.8903   -24.603   -11.555   -14.347   -171.36   
828750000  -9.11   -132.61    19.607    1.1247   -24.639   -15.905   -13.622   -173.91   
851000000  -8.7242   -139.9    19.497    1.7097   -24.277   -14.823   -14.435    174.55   
873250000  -8.6267   -144.28    19.586    .3694   -23.763   -16.968   -14.915    168.94   
895500000  -8.9001   -146.32    19.163   -4.9603   -23.746   -20.139   -14.614    171.23   
917750000  -8.9884   -146.55    18.794   -7.1027   -23.768   -21.806   -14.448    170.07   
940000000  -8.9376   -152.24    18.662   -10.249   -23.4   -23.626   -14.537    166.04   
962250000  -9.2641   -158.76    18.264   -12.921   -23.007   -26.22   -14.617    162.45   
984500000  -9.3349   -160.89    18.18   -15.8   -22.957   -28.265   -14.705    159.95   
1006750000  -9.1148   -163.22    18.172   -19.276   -22.736   -30.232   -14.26    161.89   
1029000000  -9.1388   -166.16    17.909   -21.909   -22.714   -31.698   -14.063    159.12   
1051250000  -9.2101   -170.45    17.736   -23.718   -22.436   -34.297   -14.639    150.3   
1073500000  -9.6985   -174.21    17.288   -26.554   -22.365   -38.224   -15.113    146.31   
1095750000  -9.3867   -175.22    17.441   -29.335   -22.137   -39.977   -14.74    146.12   
1118000000  -9.1741   -178.01    17.557   -33.544   -22.018   -41.004   -14.255    147.01   
1140250000  -9.5031    176.98    17.119   -35.501   -21.881   -43.592   -14.629    140.83   
1162500000  -9.6794    172.59    16.925   -35.798   -21.575   -45.471   -15.151    134.49   
1184750000  -9.7909    168.93    16.875   -39.931   -21.415   -48.891   -15.287    132.72   
1207000000  -9.7977    165.55    16.729   -43.488   -21.482   -51.433   -15.235    133.14   
1229250000  -9.8564    161.93    16.57   -46.36   -21.405   -52.579   -14.886    130.27   
1251500000  -9.8112    158.37    16.292   -47.976   -21.183   -53.81   -15.165    121.46   
1273750000  -9.7342    153.27    16.33   -49.897   -20.912   -56.838   -15.732    115.98   
1296000000  -10.622    153.14    16.211   -53.664   -20.707   -61.047   -15.529    118.67   
1318250000  -11.301    151.51    15.918   -56.521   -20.818   -62.301   -15.587    119.11   
1340500000  -10.865    145.83    15.92   -59.513   -20.667   -63.957   -15.479    112.24   
1362750000  -10.625    140.01    15.772   -62.508   -20.259   -65.785   -15.498    105.07   
1385000000  -10.939    135.9    15.703   -64.784   -20.03   -69.592   -15.882    102.08   
1407250000  -11.471    131.39    15.723   -68.49   -20.045   -72.316   -15.75    98.332   
1429500000  -11.816    129.05    15.484   -71.867   -20.059   -74.456   -16.11    94.084   
1451750000  -11.66    127.25    15.295   -73.407   -19.952   -75.232   -14.815    85.222   
1474000000  -11.735    122.35    15.221   -75.439   -19.524   -76.946   -14.284    75.096   
1496250000  -12.393    117.48    15.284   -78.304   -19.406   -81.326   -16.955    83.628   
1518500000  -12.475    112.79    15.282   -82.752   -19.538   -84.185   -17.816    85.069   
1540750000  -12.795    108.36    14.97   -86.078   -19.559   -86.163   -16.867    74.767   
1563000000  -11.725    115.62    14.665   -86.738   -19.553   -88.897   -15.515    62.644   
1585250000  -12.544    103.77    14.7   -89.124   -19.011   -91.035   -16.683    58.528   
1607500000  -14.005    86.206    14.65   -93.472   -19.038   -95.257   -17.541    57.673   
1629750000  -14.446    86.409    14.766   -96.177   -18.863   -95.681   -17.363    53.569   
1652000000  -14.36    88.895    14.381   -99.204   -18.896   -97.431   -16    44.986   
1674250000  -14.536    83.944    14.286   -101.3   -18.669   -100.39   -15.836    35.723   
1696500000  -15.591    72.304    14.261   -104.98   -18.506   -103.16   -18.278    37.333   
1718750000  -16.206    67.176    14.094   -108.24   -18.443   -106.5   -18.802    35.767   
1741000000  -15.747    62.869    13.961   -111.28   -18.519   -108.91   -17.791    25.735   
1763250000  -14.977    59.249    13.905   -114.39   -18.256   -112.14   -16.472    15.337   
1785500000  -15.903    49.129    13.802   -116.64   -18.326   -114.37   -17.499    9.8053   
1807750000  -17.269    32.632    13.793   -119.61   -18.417   -116.57   -18.672    9.2313   
1830000000  -17.353    28.827    13.609   -122.71   -18.087   -117.89   -18.281    4.5593   
1852250000  -17.647    27.876    13.511   -124.92   -18.034   -120.72   -17.733   -5.246   
1874500000  -17.785    19.622    13.468   -127.66   -17.918   -123.79   -17.573   -11.717   
1896750000  -17.823    7.1013    13.326   -131.02   -18.006   -126.44   -18.048   -16.366   
1919000000  -17.869   -1.122    13.223   -134.34   -17.986   -128.72   -18.054   -19.465   
1941250000  -17.416   -3.7422    12.947   -137.24   -17.812   -131.68   -17.112   -28.011   
1963500000  -17.198   -11.625    12.862   -139.73   -17.692   -135.5   -16.657   -34.536   
1985750000  -17.063   -20.995    12.874   -142.54   -17.662   -137.75   -16.999   -40.843   
2008000000  -17.063   -31.382    12.695   -146.43   -17.784   -139.86   -19.75   -55.964   
2030250000  -16.994   -38.809    12.571   -149.34   -17.571   -141.07   -18.498   -57.071   
2052500000  -17.143   -46.572    12.415   -151.21   -17.477   -144.4   -15.451   -49.901   
2074750000  -16.815   -52.738    12.353   -153.33   -17.43   -147.63   -14.964   -56.408   
2097000000  -16.066   -60.852    12.382   -157.55   -17.461   -149.35   -16.557   -67.581   
2119250000  -15.673   -65.275    12.089   -161.89   -17.527   -151.6   -16.688   -70.442   
2141500000  -15.333   -67.452    11.903   -163.19   -17.53   -154.06   -15.675   -73.478   
2163750000  -14.946   -73.504    11.86   -164.96   -17.466   -157.84   -15.093   -76.418   
2186000000  -14.813   -80.5    11.868   -167.81   -17.428   -160.52   -15.402   -83.944   
2208250000  -13.069   -82.511    11.792   -171.81   -17.588   -161.92   -15.417   -88.937   
2230500000  -13.533   -89.705    11.579   -175.46   -17.41   -163.34   -15.291   -91.608   
2252750000  -14.372   -102.37    11.504   -176.32   -17.187   -167.15   -14.931   -95.63   
2275000000  -14.169   -106.11    11.447   -178.72   -17.26   -171.43   -14.998   -99.139   
2297250000  -13.466   -102.94    11.3    177.14   -17.236   -173.27   -14.792   -107.8   
2319500000  -12.808   -103.28    11.118    173.71   -17.408   -174.66   -14.67   -114.75   
2341750000  -12.812   -112.03    11.002    170.74   -17.28   -175.95   -14.205   -108.88   
2364000000  -12.867   -119.99    10.698    168.77   -17.087    179.71   -14.04   -112.67   
2386250000  -12.504   -121.1    10.831    166.74   -17.083    177.94   -13.998   -116.29   
2408500000  -12.198   -126.46    10.877    162.32   -17.16    177.23   -13.922   -123.12   
2430750000  -12.128   -130.67    10.646    159   -17.081    175.59   -14.002   -123.81   
2453000000  -11.911   -140.47    10.647    157.77   -16.778    171.92   -13.543   -122.13   
2475250000  -11.962   -140.93    10.317    155.53   -17.035    167.6   -13.514   -125.89   
2497500000  -11.667   -138.74    10.302    152.09   -17.271    164.63   -13.796   -130.61   
2519750000  -11.373   -141.46    10.196    147.31   -17.453    164.34   -13.73   -132.23   
2542000000  -11.159   -144.58    9.9198    145.5   -17.157    162.74   -13.289   -132.58   
2564250000  -11.021   -149.15    9.8866    144.28   -17.077    157.39   -12.899   -130.65   
2586500000  -11.07   -152.54    9.717    141.35   -16.982    154.92   -13.284   -140.02   
2608750000  -10.923   -155.99    9.7214    138.9   -17.338    154.37   -13.241   -147.27   
2631000000  -10.823   -159.45    9.656    134.52   -17.211    152.74   -13.386   -146.58   
2653250000  -10.555   -165.1    9.3917    132.11   -16.95    149.37   -13.209   -145.25   
2675500000  -10.51   -166.52    9.2235    129.82   -16.96    144.91   -13.157   -148.55   
2697750000  -10.981   -166.16    9.0178    125.01   -17.21    142.97   -13.129   -150.53   
2720000000  -10.835   -167.1    8.834    122.39   -17.373    142.05   -12.944   -152.91   
2742250000  -10.271   -171.82    8.8664    120.99   -17.344    141.41   -12.866   -152.52   
2764500000  -10.355   -177.28    8.6786    117.99   -17.098    137.48   -12.777   -151.07   
2786750000  -10.367   -178.77    8.6167    116.57   -17.115    134.34   -12.901   -158.91   
2809000000  -10.099    178.17    8.8505    113.81   -17.441    132.5   -13.178   -159.26   
2831250000  -10.172    176    8.6306    109.64   -17.407    131.34   -12.918   -161.49   
2853500000  -9.6851    171.16    8.3276    107.76   -17.124    128.01   -12.916   -161.83   
2875750000  -9.8225    170.4    8.059    104.67   -17.283    124.33   -12.701   -163.36   
2898000000  -10.323    171.67    7.8932    101.3   -17.36    121.66   -12.731   -168.37   
2920250000  -9.864    170.02    7.8251    99.179   -17.751    121.27   -12.4   -171.23   
2942500000  -9.9472    164.24    7.6214    97.348   -17.569    121.11   -12.253   -169.05   
2964750000  -9.9811    160.19    7.4927    94.903   -17.223    117.36   -12.093   -170.08   
2987000000  -10.117    158.09    7.4518    92.005   -17.483    115.1   -12.374   -173.3   
3009250000  -10.039    155.48    7.5116    88.768   -17.649    114.29   -12.494   -177.18   
3031500000  -10.123    154.15    7.3707    85.722   -17.743    112.02   -12.291   -176.19   
3053750000  -9.8845    153.88    7.154    83.245   -17.485    109.87   -11.932   -174.62   
3076000000  -9.9287    152.36    6.6551    80.267   -17.639    105.96   -11.599   -176.83   
3098250000  -9.9651    148.31    6.5073    78.81   -18.018    104.13   -11.623    178.47   
3120500000  -10.116    145.17    6.6457    76.652   -18.275    104.64   -11.714    176.44   
3142750000  -10.123    142.25    6.674    74.725   -17.737    103.42   -11.618    174.81   
3165000000  -10.232    139.2    6.5303    70.762   -17.426    100.47   -11.625    173.07   
3187250000  -10.365    136.48    6.2527    68.696   -17.504    96.332   -11.596    171.16   
3209500000  -10.266    134.62    6.1743    66.86   -17.897    95.334   -11.538    164.31   
3231750000  -10.309    132.34    6.1679    63.956   -18.057    94.418   -11.381    168.34   
3254000000  -10.376    132.09    5.8677    60.39   -17.778    92.179   -11.411    170.02   
3276250000  -10.477    130.04    5.6136    57.353   -17.599    89.091   -11.106    167.52   
3298500000  -10.252    126.53    5.1643    55.879   -17.905    86.795   -10.916    163.55   
3320750000  -10.531    123.22    5.2535    56.463   -18.147    85.798   -11.004    160.85   
3343000000  -10.526    122.41    5.3622    53.961   -18.02    85.52   -11.119    161.85   
3365250000  -10.67    120.71    5.2542    50.155   -17.733    84.304   -11.148    162.16   
3387500000  -10.901    115.86    5.302    46.545   -17.718    80.457   -10.863    155.81   
3409750000  -10.921    113.57    5.0146    44.1   -18.008    78.07   -10.76    154.76   
3432000000  -10.896    111.64    4.871    43.106   -18.153    76.808   -10.748    152.63   
3454250000  -10.84    112.4    4.8244    40.423   -18.048    75.543   -10.728    151.91   
3476500000  -11.052    109.35    4.5908    37.073   -17.843    73.705   -10.669    149.45   
3498750000  -11.053    107.41    4.2977    35.016   -17.971    70.48   -10.336    146.23   
3521000000  -11.166    103.69    4.2251    35.192   -18.11    69.408   -10.434    142.77   
3543250000  -11.383    101.51    4.3737    33.727   -18.112    68.838   -10.673    142.12   
3565500000  -11.557    98.963    4.4916    30.097   -17.858    67.467   -10.708    140.88   
3587750000  -11.55    97.572    4.2945    26.653   -17.801    66.069   -10.485    137.99   
3610000000  -11.643    96.507    3.8632    24.884   -17.827    63.854   -10.432    136.51   
3632250000  -11.448    93.588    3.6796    23.471   -17.837    61.015   -10.414    134.73   
3654500000  -11.325    92.906    3.7001    22.315   -17.79    60.315   -10.441    133.84   
3676750000  -11.433    90.297    3.6908    21.015   -17.96    57.888   -10.383    130.92   
3699000000  -11.658    86.87    3.7133    18.533   -17.916    55.659   -10.376    127.11   
3721250000  -11.65    83.697    3.726    16.408   -18.117    55.723   -10.446    125.15   
3743500000  -11.732    81.424    3.7373    13.946   -17.948    55.094   -10.537    122.94   
3765750000  -11.809    78.504    3.6602    10.253   -17.614    53.638   -10.614    120.65   
3788000000  -11.775    75.983    3.4092    7.6245   -17.549    50.6   -10.434    118.44   
3810250000  -11.682    73.063    3.1333    6.4819   -17.881    47.818   -10.275    115.25   
3832500000  -11.664    72.247    3.1854    6.6399   -17.829    46.597   -10.705    115.97   
3854750000  -11.574    72.845    3.325    3.8329   -17.59    46.358   -10.797    114.71   
3877000000  -11.531    68.891    3.5386    1.1398   -17.385    45.442   -10.767    112.26   
3899250000  -11.801    64.918    3.3536   -1.5477   -17.366    44.602   -10.579    110.38   
3921500000  -11.725    61.705    3.1412   -3.0927   -17.394    41.822   -10.639    107.99   
3943750000  -11.618    59.215    3.0596   -4.7365   -17.377    40.52   -11.002    106.43   
3966000000  -11.408    56.357    3.1626   -6.6481   -17.085    39.309   -10.941    105.01   
3988250000  -11.344    52.026    3.2987   -9.7504   -16.715    36.12   -10.761    102.92   
4010500000  -11.143    48.008    3.0901   -12.064   -16.874    32.407   -10.788    101.2   
4032750000  -11.123    46.505    2.9361   -13.204   -17.076    31.391   -11.107    98.27   
4055000000  -11.054    42.593    3.1079   -15.039   -16.989    30.391   -11.898    94.756   
4077250000  -10.956    40.798    3.4044   -17.342   -16.577    32.073   -11.165    94.013   
4099500000  -10.023    37.812    3.5854   -20.259   -16.106    28.356   -10.349    92.892   
4121750000  -10.371    33.456    3.1755   -24.438   -16.25    23.987   -10.721    90.03   
4144000000  -10.92    28.643    2.8889   -26.082   -16.371    23.465   -11.187    87.724   
4166250000  -10.696    25.072    2.971   -26.636   -16.333    23.325   -11.173    87.021   
4188500000  -10.104    22.705    3.1444   -27.941   -16.066    21.202   -11.1    86.188   
4210750000  -9.8979    20.005    3.1905   -31.204   -15.916    18.685   -10.945    84.288   
4233000000  -10.007    15.022    3.126   -34.81   -15.965    15.403   -11.152    79.953   
4255250000  -9.8821    10.616    3.1091   -35.995   -15.902    15.223   -11.415    76.61   
4277500000  -9.9018    7.5764    3.2506   -37.314   -15.733    14.404   -11.077    75.138   
4299750000  -9.8609    2.737    3.3897   -40.659   -15.549    12.502   -10.962    73.18   
4322000000  -9.7023   -1.4612    3.422   -44.864   -15.411    9.1255   -10.947    70.223   
4344250000  -9.4316   -6.2842    3.3993   -48.785   -15.266    6.7978   -11.075    65.289   
4366500000  -9.2325   -10.341    3.1808   -50.433   -15.1    5.8585   -11.145    63.522   
4388750000  -9.0478   -13.109    3.1449   -51.078   -14.922    4.7392   -10.901    63.461   
4411000000  -8.8332   -16.776    3.305   -53.221   -14.792    1.0135   -10.828    59.899   
4433250000  -8.7339   -20.967    3.4796   -56.445   -14.845   -1.0767   -10.993    55.949   
4455500000  -8.6198   -25.701    3.5359   -59.81   -14.674   -.9283   -10.985    52.749   
4477750000  -8.5438   -29.126    3.4923   -62.655   -14.31   -2.6724   -11.06    50.022   
4500000000  -8.2626   -31.197    3.5736   -64.508   -13.855   -4.8779   -10.802    48.658   

