CITIFILE A.01.00
#NA VERSION HP8722ES.07.74: Oct 30, 2002
NAME DATA
VAR FREQ MAG 201
DATA S[1,1] RI
DATA S[2,1] RI
DATA S[1,2] RI
DATA S[2,2] RI
SEG_LIST_BEGIN
SEG 50000000 4500000000 201
SEG_LIST_END
BEGIN
5.82519E-1,-1.72058E-1
4.76684E-1,-1.14837E-1
4.76715E-1,-2.22045E-1
4.45205E-1,-3.07296E-1
3.97171E-1,-3.12469E-1
3.50997E-1,-2.85232E-1
3.17749E-1,-2.97287E-1
2.80609E-1,-3.53454E-1
2.72735E-1,-3.80279E-1
2.11547E-1,-3.33480E-1
2.04986E-1,-3.09112E-1
1.68167E-1,-3.38241E-1
1.63497E-1,-3.65097E-1
1.35101E-1,-3.60214E-1
1.09252E-1,-3.35098E-1
0.99441E-1,-3.32748E-1
0.72052E-1,-3.59420E-1
0.51178E-1,-3.60214E-1
0.29205E-1,-3.51104E-1
0.04196E-1,-3.57193E-1
-2.76184E-3,-3.55911E-1
-2.80761E-3,-4.16915E-1
-4.47082E-2,-3.88244E-1
-5.4245E-2,-3.10394E-1
-6.85577E-2,-3.19397E-1
-8.53271E-2,-3.57330E-1
-1.09069E-1,-3.59588E-1
-1.31897E-1,-3.26049E-1
-1.32644E-1,-2.97714E-1
-1.63330E-1,-3.14346E-1
-1.85363E-1,-3.02993E-1
-2.00180E-1,-2.90542E-1
-2.16842E-1,-2.83447E-1
-2.34222E-1,-2.71698E-1
-2.25921E-1,-2.62603E-1
-2.37213E-1,-2.57827E-1
-2.80181E-1,-2.35900E-1
-3.00720E-1,-2.16247E-1
-2.98675E-1,-1.99035E-1
-2.96432E-1,-1.95861E-1
-3.16253E-1,-1.66442E-1
-3.20800E-1,-1.24710E-1
-3.22586E-1,-1.11755E-1
-3.35235E-1,-1.0112E-1
-3.39050E-1,-8.35266E-2
-3.41537E-1,-5.74340E-2
-3.25729E-1,-3.30352E-2
-3.38180E-1,-2.82897E-2
-3.47564E-1,-1.20697E-2
-3.34381E-1,0.17639E-1
-3.25378E-1,0.42327E-1
-3.17901E-1,0.62225E-1
-3.13446E-1,0.80749E-1
-3.05648E-1,0.99700E-1
-3.00415E-1,1.19140E-1
-2.91198E-1,1.46682E-1
-2.62619E-1,1.33026E-1
-2.39265E-1,1.29875E-1
-2.36831E-1,1.60759E-1
-2.25471E-1,1.89125E-1
-2.03819E-1,1.97532E-1
-1.76513E-1,2.00286E-1
-1.61644E-1,1.99264E-1
-1.58096E-1,2.07931E-1
-1.38580E-1,2.18772E-1
-1.10771E-1,2.12997E-1
-9.21325E-2,2.19245E-1
-7.22045E-2,2.17552E-1
-1.12136E-1,2.33779E-1
-5.61676E-2,2.29148E-1
0.13198E-1,1.98967E-1
0.11871E-1,1.89178E-1
0.03692E-1,1.91391E-1
0.19790E-1,1.86531E-1
0.50499E-1,1.58264E-1
0.60035E-1,1.42654E-1
0.74417E-1,1.45225E-1
0.91163E-1,1.53228E-1
1.04873E-1,1.21192E-1
1.15333E-1,7.38525E-2
1.18827E-1,6.53991E-2
1.15905E-1,6.13098E-2
1.21551E-1,4.33349E-2
1.27502E-1,0.15884E-1
1.27784E-1,-2.50244E-3
1.34361E-1,-8.78906E-3
1.35246E-1,-2.78244E-2
1.30928E-1,-5.02471E-2
1.19720E-1,-7.30247E-2
1.10141E-1,-8.85887E-2
9.55162E-2,-1.00906E-1
8.73642E-2,-1.14837E-1
0.76614E-1,-1.37374E-1
0.68832E-1,-1.49475E-1
0.65628E-1,-1.58058E-1
0.50811E-1,-1.71569E-1
0.29991E-1,-1.79206E-1
0.28945E-1,-2.20199E-1
0.01083E-1,-2.10556E-1
-4.09545E-2,-1.86729E-1
-5.42907E-2,-1.88011E-1
-4.75006E-2,-2.06802E-1
-5.25817E-2,-2.22763E-1
-8.58001E-2,-2.12081E-1
-1.13632E-1,-1.96899E-1
-1.22436E-1,-2.02941E-1
-1.45919E-1,-1.97448E-1
-1.61315E-1,-1.87728E-1
-1.95724E-1,-1.61544E-1
-1.95877E-1,-1.59011E-1
-1.96197E-1,-1.72149E-1
-2.11196E-1,-1.68228E-1
-2.25509E-1,-1.60385E-1
-2.41378E-1,-1.44165E-1
-2.48077E-1,-1.28952E-1
-2.59750E-1,-1.15692E-1
-2.69348E-1,-1.00952E-1
-2.86697E-1,-7.62786E-2
-2.89978E-1,-6.95037E-2
-2.74261E-1,-6.75811E-2
-2.79998E-1,-6.41174E-2
-3.03390E-1,-4.36401E-2
-3.03222E-1,-1.44348E-2
-3.03070E-1,-6.53076E-3
-3.12469E-1,0.09979E-1
-3.09265E-1,0.21606E-1
-3.24005E-1,0.50415E-1
-3.18237E-1,0.53833E-1
-3.01483E-1,0.44128E-1
-3.16360E-1,0.55664E-1
-3.06198E-1,0.86410E-1
-2.98156E-1,1.07421E-1
-2.89459E-1,1.16394E-1
-2.86422E-1,1.30645E-1
-2.80578E-1,1.35925E-1
-2.87719E-1,1.41113E-1
-2.82440E-1,1.47934E-1
-2.70172E-1,1.66778E-1
-2.56118E-1,1.78207E-1
-2.46521E-1,1.90895E-1
-2.33070E-1,2.01202E-1
-2.19863E-1,2.08824E-1
-2.15423E-1,2.18307E-1
-2.05528E-1,2.25578E-1
-2.02987E-1,2.24746E-1
-1.92581E-1,2.29171E-1
-1.82846E-1,2.46841E-1
-1.62979E-1,2.48855E-1
-1.59530E-1,2.51266E-1
-1.49520E-1,2.51709E-1
-1.24359E-1,2.56515E-1
-1.13739E-1,2.60681E-1
-1.05209E-1,2.65121E-1
-1.09390E-1,2.65426E-1
-9.28192E-2,2.64328E-1
-8.38012E-2,2.67288E-1
-6.54296E-2,2.68646E-1
-5.38024E-2,2.64267E-1
-4.11834E-2,2.61093E-1
-3.48663E-2,2.62237E-1
-2.96630E-2,2.60055E-1
-1.67541E-2,2.67150E-1
-1.37634E-2,2.71148E-1
-1.38855E-3,2.68127E-1
0.14267E-1,2.60879E-1
0.28717E-1,2.59948E-1
0.38635E-1,2.56179E-1
0.51178E-1,2.51632E-1
0.62439E-1,2.50106E-1
0.75912E-1,2.49267E-1
0.79620E-1,2.48672E-1
0.77819E-1,2.52075E-1
0.95489E-1,2.47329E-1
1.08947E-1,2.32772E-1
1.22909E-1,2.28302E-1
1.34353E-1,2.25509E-1
1.48986E-1,2.23861E-1
1.66687E-1,2.13546E-1
1.85485E-1,2.06054E-1
1.91253E-1,2.01568E-1
2.06207E-1,1.89575E-1
2.14447E-1,1.85089E-1
2.49160E-1,1.93359E-1
2.52807E-1,1.67053E-1
2.49633E-1,1.36352E-1
2.64373E-1,1.23687E-1
2.88238E-1,1.20605E-1
3.00659E-1,1.09466E-1
3.05191E-1,0.81909E-1
3.15063E-1,0.59051E-1
3.17031E-1,0.42175E-1
3.20968E-1,0.15350E-1
3.27148E-1,-8.34655E-3
3.35586E-1,-3.69567E-2
3.39828E-1,-6.20117E-2
3.43673E-1,-8.00323E-2
3.46298E-1,-1.04400E-1
3.41629E-1,-1.30920E-1
3.34014E-1,-1.60766E-1
3.26660E-1,-1.82022E-1
3.30398E-1,-2.00073E-1
END
BEGIN
-4.38085E1,1.42968E1
-4.12226E1,1.36074E1
-3.53476E1,2.37226E1
-3.30683E1,2.86953E1
-2.55058E1,2.93574E1
-2.06757E1,3.25878E1
-1.50625E1,3.18203E1
-1.03525E1,3.14951E1
-7.57421E0,3.09072E1
-2.81543E0,2.81152E1
-2.25195E0,2.72617E1
1.55175E0,2.52871E1
2.70605E0,2.39560E1
4.51953E0,2.24150E1
5.84765E0,2.07373E1
6.48339E0,1.91962E1
8.47265E0,1.74804E1
8.74121E0,1.59902E1
9.70019E0,1.49199E1
1.06435E1,1.42519E1
1.04052E1,1.21777E1
1.04658E1,1.13027E1
1.07900E1,1.01416E1
1.09746E1,9.09277E0
1.10898E1,8.02441E0
1.11386E1,7.43457E0
1.09843E1,6.53320E0
1.08769E1,5.50976E0
1.05429E1,4.87304E0
1.07583E1,4.09082E0
1.05537E1,3.19433E0
1.01586E1,2.76611E0
1.02509E1,2.31152E0
1.02270E1,1.66064E0
1.00258E1,8.57910E-1
9.55566E0,1.875E-1
9.43359E0,2.81738E-1
9.53418E0,0.61523E-1
9.04687E0,-7.85156E-1
8.63671E0,-1.07617E0
8.43554E0,-1.52539E0
7.98120E0,-1.83129E0
7.80346E0,-2.20800E0
7.64819E0,-2.67480E0
7.29248E0,-2.93310E0
7.05468E0,-3.09960E0
6.54638E0,-3.27172E0
6.49340E0,-3.64917E0
6.29101E0,-4.17114E0
5.84277E0,-4.16796E0
5.69287E0,-4.10546E0
5.35131E0,-4.47949E0
4.97851E0,-4.72241E0
4.64990E0,-4.87597E0
4.36816E0,-4.84716E0
4.22192E0,-5.01318E0
3.83056E0,-5.20776E0
3.44799E0,-5.21313E0
3.17187E0,-5.38745E0
2.83740E0,-5.45239E0
2.5979E0,-5.51660E0
2.24096E0,-5.68603E0
1.85034E0,-5.65014E0
1.66137E0,-5.57519E0
1.45043E0,-5.58325E0
1.17797E0,-5.68994E0
7.32910E-1,-5.76293E0
3.83300E-1,-5.59106E0
3.07861E-1,-5.40161E0
0.83007E-1,-5.43164E0
-3.27148E-1,-5.39160E0
-5.89111E-1,-5.44213E0
-8.37646E-1,-5.16943E0
-1.01464E0,-5.07910E0
-1.33471E0,-4.98950E0
-1.58593E0,-4.81152E0
-1.81127E0,-4.64917E0
-2.04736E0,-4.51464E0
-2.19653E0,-4.37890E0
-2.41772E0,-4.25488E0
-2.58935E0,-4.03100E0
-2.71191E0,-3.88427E0
-2.88037E0,-3.73168E0
-3.04418E0,-3.49902E0
-3.20312E0,-3.27758E0
-3.25952E0,-3.01416E0
-3.35449E0,-2.84179E0
-3.49462E0,-2.67797E0
-3.59326E0,-2.38501E0
-3.65722E0,-2.16845E0
-3.65942E0,-2.01123E0
-3.70507E0,-1.86084E0
-3.84448E0,-1.58886E0
-3.82275E0,-1.25024E0
-3.76855E0,-1.13891E0
-3.78320E0,-1.01660E0
-3.83252E0,-8.27636E-1
-3.84716E0,-5.53955E-1
-3.78076E0,-3.00293E-1
-3.75244E0,-2.41455E-1
-3.73474E0,-8.34960E-2
-3.66845E0,1.83471E-1
-3.57507E0,3.94287E-1
-3.50280E0,5.70922E-1
-3.36108E0,6.67480E-1
-3.38696E0,7.98339E-1
-3.33288E0,1.06262E0
-3.18005E0,1.22070E0
-3.15356E0,1.28869E0
-2.98522E0,1.35864E0
-2.89331E0,1.53259E0
-2.72229E0,1.74670E0
-2.58203E0,1.77490E0
-2.53393E0,1.82251E0
-2.39038E0,1.91186E0
-2.30773E0,2.01318E0
-2.13134E0,2.16699E0
-1.97729E0,2.18713E0
-1.85180E0,2.22119E0
-1.62048E0,2.31298E0
-1.48120E0,2.33483E0
-1.42907E0,2.37915E0
-1.27465E0,2.39831E0
-1.20629E0,2.41186E0
-1.11828E0,2.53454E0
-9.07714E-1,2.54394E0
-7.95654E-1,2.48413E0
-6.40625E-1,2.44653E0
-4.86206E-1,2.43310E0
-3.92700E-1,2.43029E0
-3.07617E-1,2.38501E0
-2.02514E-1,2.36071E0
-8.25195E-2,2.35681E0
0.51025E-1,2.37402E0
1.74316E-1,2.32983E0
2.68066E-1,2.26293E0
3.63769E-1,2.12060E0
4.10522E-1,2.07507E0
4.96215E-1,2.09118E0
5.68115E-1,2.08007E0
6.98852E-1,2.00244E0
7.46337E-1,1.91381E0
8.00048E-1,1.87194E0
8.93188E-1,1.82763E0
9.70947E-1,1.70849E0
1.02954E0,1.60693E0
1.01660E0,1.50024E0
1.01159E0,1.52612E0
1.09082E0,1.49914E0
1.17321E0,1.40588E0
1.26635E0,1.33654E0
1.27917E0,1.23962E0
1.27917E0,1.19726E0
1.32666E0,1.13000E0
1.35351E0,1.02270E0
1.34326E0,9.41162E-1
1.32922E0,9.37377E-1
1.37609E0,9.18701E-1
1.45105E0,8.41064E-1
1.46533E0,7.35473E-1
1.41528E0,6.56494E-1
1.40112E0,6.08398E-1
1.41644E0,5.81359E-1
1.42773E0,5.48522E-1
1.45391E0,4.87426E-1
1.47314E0,4.33837E-1
1.49237E0,3.70605E-1
1.49975E0,2.71301E-1
1.46759E0,1.96472E-1
1.42523E0,1.61926E-1
1.43335E0,1.66870E-1
1.46313E0,0.98022E-1
1.50262E0,0.29907E-1
1.47070E0,-3.97338E-2
1.43359E0,-7.74536E-2
1.41741E0,-1.17431E-1
1.42956E0,-1.66626E-1
1.44085E0,-2.47619E-1
1.39575E0,-2.98339E-1
1.36511E0,-3.20312E-1
1.38122E0,-3.71093E-1
1.41259E0,-4.41101E-1
1.41754E0,-5.23254E-1
1.31225E0,-5.96313E-1
1.25256E0,-6.13159E-1
1.25842E0,-6.31164E-1
1.26879E0,-6.72973E-1
1.23498E0,-7.48046E-1
1.17669E0,-8.18176E-1
1.15728E0,-8.40698E-1
1.15631E0,-8.81347E-1
1.12072E0,-9.62585E-1
1.05102E0,-1.04608E0
9.74487E-1,-1.11254E0
9.18701E-1,-1.11181E0
9.02404E-1,-1.11743E0
8.75976E-1,-1.17181E0
8.25134E-1,-1.24395E0
7.55554E-1,-1.29864E0
6.86706E-1,-1.32788E0
6.49475E-1,-1.36206E0
END
BEGIN
2.49853E-2,0.54826E-2
0.18405E-3,9.11140E-3
4.22716E-3,3.12280E-3
8.75568E-3,1.44929E-2
1.69315E-2,1.55487E-2
1.31893E-2,1.15461E-2
1.59931E-2,0.81272E-2
1.72567E-2,1.29423E-2
1.91078E-2,1.71661E-2
1.94950E-2,1.62830E-2
2.13890E-2,1.27601E-2
2.30865E-2,1.45359E-2
2.11086E-2,1.69658E-2
2.35309E-2,1.55715E-2
2.76756E-2,1.47991E-2
2.88200E-2,1.51233E-2
3.15685E-2,1.33838E-2
3.15494E-2,1.24130E-2
3.49025E-2,1.27906E-2
3.71780E-2,1.41487E-2
3.81679E-2,1.13353E-2
3.96938E-2,1.38092E-2
4.14390E-2,1.10111E-2
4.30202E-2,0.95500E-2
4.40082E-2,0.74424E-2
4.75158E-2,0.63037E-2
4.81033E-2,0.44975E-2
4.92210E-2,0.36354E-2
5.04512E-2,0.09498E-2
5.19332E-2,-1.93023E-3
5.18550E-2,-4.16755E-3
5.41667E-2,-2.94113E-3
5.75103E-2,-6.80732E-3
5.95855E-2,-1.01985E-2
5.76725E-2,-1.17912E-2
5.63736E-2,-1.60636E-2
5.90820E-2,-1.56364E-2
6.20193E-2,-1.89247E-2
6.09951E-2,-2.23693E-2
6.01635E-2,-2.40726E-2
6.19392E-2,-2.70957E-2
6.34574E-2,-3.12538E-2
6.26602E-2,-3.36914E-2
6.30569E-2,-3.67469E-2
6.22520E-2,-3.84445E-2
6.24065E-2,-4.25682E-2
5.98297E-2,-4.71248E-2
5.99155E-2,-5.02338E-2
5.98201E-2,-5.20076E-2
5.83229E-2,-5.55267E-2
5.84945E-2,-5.94635E-2
5.58662E-2,-6.40182E-2
5.25665E-2,-6.59256E-2
5.16891E-2,-6.75544E-2
5.15289E-2,-7.04269E-2
4.92477E-2,-7.53669E-2
4.46281E-2,-8.06655E-2
4.23049E-2,-8.05778E-2
4.06608E-2,-8.32023E-2
3.9814E-2,-8.85238E-2
3.47557E-2,-9.34028E-2
3.02200E-2,-9.47837E-2
2.66151E-2,-9.56878E-2
2.56347E-2,-9.72328E-2
2.38609E-2,-1.02901E-1
1.61476E-2,-1.05850E-1
1.06849E-2,-1.04919E-1
0.70419E-2,-1.04972E-1
0.20256E-2,-1.05266E-1
-2.02560E-3,-1.12037E-1
-1.02348E-2,-1.11236E-1
-1.12838E-2,-1.13426E-1
-1.46865E-2,-1.12602E-1
-2.10266E-2,-1.14646E-1
-2.70309E-2,-1.15646E-1
-3.39813E-2,-1.14700E-1
-3.84445E-2,-1.12190E-1
-4.60662E-2,-1.13220E-1
-5.00335E-2,-1.10450E-1
-5.36651E-2,-1.07315E-1
-5.82962E-2,-1.10168E-1
-6.40716E-2,-1.07803E-1
-7.06863E-2,-1.05621E-1
-7.47299E-2,-1.01211E-1
-7.88726E-2,-9.83810E-2
-8.55560E-2,-9.60769E-2
-9.30328E-2,-9.14230E-2
-9.68856E-2,-8.80050E-2
-9.86709E-2,-8.31985E-2
-1.0289E-1,-8.31146E-2
-1.08718E-1,-7.78274E-2
-1.13540E-1,-7.19604E-2
-1.15234E-1,-6.82830E-2
-1.16935E-1,-6.32324E-2
-1.19499E-1,-5.81283E-2
-1.23977E-1,-5.05065E-2
-1.2677E-1,-4.48455E-2
-1.25495E-1,-4.09698E-2
-1.29089E-1,-3.86352E-2
-1.34788E-1,-3.07388E-2
-1.35559E-1,-2.04391E-2
-1.36512E-1,-1.61209E-2
-1.34193E-1,-1.25503E-2
-1.36436E-1,-9.65881E-3
-1.39846E-1,0.00717E-1
-1.39823E-1,0.05035E-1
-1.38519E-1,0.06698E-1
-1.39526E-1,0.10757E-1
-1.43463E-1,0.20378E-1
-1.37405E-1,0.30212E-1
-1.32026E-1,0.36285E-1
-1.29097E-1,0.36178E-1
-1.32469E-1,0.41160E-1
-1.29249E-1,0.53825E-1
-1.28204E-1,0.59997E-1
-1.22486E-1,5.87768E-2
-1.22543E-1,6.31485E-2
-1.22238E-1,7.23838E-2
-1.16119E-1,8.15734E-2
-1.10073E-1,8.30307E-2
-1.06697E-1,8.32138E-2
-1.06117E-1,8.46862E-2
-1.02935E-1,9.43908E-2
-9.7435E-2,9.96856E-2
-9.07058E-2,9.89990E-2
-8.90274E-2,1.01196E-1
-8.57620E-2,1.09718E-1
-7.71102E-2,1.12907E-1
-7.11250E-2,1.15348E-1
-6.72569E-2,1.10736E-1
-6.83555E-2,1.13266E-1
-6.32858E-2,1.22272E-1
-5.66787E-2,1.20990E-1
-5.39169E-2,1.19487E-1
-4.86221E-2,1.20216E-1
-4.54101E-2,1.25625E-1
-3.60870E-2,1.26182E-1
-3.06663E-2,1.21826E-1
-3.08227E-2,1.18015E-1
-3.01208E-2,1.26213E-1
-2.44522E-2,1.32255E-1
-1.47018E-2,1.32484E-1
-1.18408E-2,1.26846E-1
-9.63211E-3,1.24691E-1
-4.91333E-3,1.29058E-1
0.02090E-1,1.31820E-1
0.07118E-1,1.27082E-1
0.90713E-2,1.23451E-1
0.09811E-1,1.25221E-1
0.12886E-1,1.29188E-1
0.21560E-1,1.28250E-1
2.60009E-2,1.23062E-1
2.82287E-2,1.2043E-1
3.12576E-2,1.21238E-1
3.59726E-2,1.23046E-1
4.22058E-2,1.19049E-1
4.37240E-2,1.16371E-1
4.48684E-2,1.15898E-1
4.90417E-2,1.18202E-1
5.22537E-2,1.17736E-1
5.65948E-2,1.15280E-1
6.21643E-2,1.12213E-1
6.38732E-2,1.12045E-1
6.72302E-2,1.07124E-1
7.17086E-2,1.04957E-1
6.99615E-2,1.02638E-1
7.24792E-2,1.03866E-1
7.80334E-2,1.05987E-1
8.41674E-2,1.02462E-1
8.57009E-2,9.45739E-2
8.82263E-2,9.32846E-2
9.10797E-2,9.55047E-2
9.48181E-2,9.62905E-2
9.64202E-2,9.50927E-2
1.00593E-1,9.00116E-2
1.02821E-1,8.7883E-2
1.08230E-1,8.86154E-2
1.17912E-1,8.60519E-2
1.21002E-1,7.68127E-2
1.19537E-1,7.29370E-2
1.21994E-1,7.15484E-2
1.25671E-1,0.78750E-1
1.37779E-1,0.74363E-1
1.40686E-1,0.62606E-1
1.39297E-1,0.60470E-1
1.40068E-1,0.60401E-1
1.46637E-1,0.56884E-1
1.51596E-1,0.51269E-1
1.53419E-1,0.42266E-1
1.54670E-1,0.42091E-1
1.58294E-1,0.40657E-1
1.62986E-1,0.36140E-1
1.67472E-1,0.26901E-1
1.71257E-1,0.20416E-1
1.74881E-1,0.17944E-1
1.78810E-1,0.14823E-1
1.82113E-1,0.03219E-1
1.80999E-1,-3.40271E-3
1.84600E-1,-2.99072E-3
1.92321E-1,-8.97979E-3
2.02140E-1,-1.72500E-2
END
BEGIN
2.68524E-1,-3.862E-2
2.45361E-1,-2.68249E-2
2.25639E-1,-1.26266E-1
2.12699E-1,-2.31590E-1
1.70089E-1,-2.23899E-1
1.07360E-1,-1.74713E-1
0.87829E-1,-1.80458E-1
0.50415E-1,-2.26066E-1
0.25322E-1,-2.30445E-1
-2.22015E-3,-2.07725E-1
-6.71386E-3,-1.84448E-1
-3.65753E-2,-1.95953E-1
-5.47485E-2,-2.08877E-1
-7.44628E-2,-1.89895E-1
-8.45184E-2,-1.72775E-1
-9.05304E-2,-1.67755E-1
-1.09603E-1,-1.57409E-1
-1.15432E-1,-1.48529E-1
-1.28051E-1,-1.42562E-1
-1.38992E-1,-1.41601E-1
-1.42807E-1,-1.25122E-1
-1.79260E-1,-1.73843E-1
-1.73187E-1,-1.36810E-1
-1.56829E-1,-9.53826E-2
-1.59721E-1,-8.89892E-2
-1.73355E-1,-8.98895E-2
-1.81488E-1,-7.84606E-2
-1.75109E-1,-6.10961E-2
-1.7379E-1,-5.12619E-2
-1.77703E-1,-4.83932E-2
-1.84722E-1,-3.66516E-2
-1.82205E-1,-2.88085E-2
-1.68518E-1,0.32402E-1
-1.66473E-1,0.27809E-1
-1.89529E-1,-2.87857E-2
-2.07222E-1,-2.21252E-2
-1.88919E-1,0.18035E-1
-1.76239E-1,0.34439E-1
-1.83731E-1,0.28335E-1
-1.86660E-1,0.32684E-1
-1.82037E-1,0.45242E-1
-1.77192E-1,0.56030E-1
-1.72821E-1,0.63079E-1
-1.84043E-1,0.60195E-1
-1.85073E-1,0.70602E-1
-1.61018E-1,0.91850E-1
-1.46049E-1,0.97381E-1
-1.52130E-1,1.0215E-1
-1.62506E-1,1.05491E-1
-1.43890E-1,1.17218E-1
-1.22467E-1,1.24664E-1
-1.16722E-1,1.26388E-1
-1.18339E-1,1.26297E-1
-1.16485E-1,1.37474E-1
-9.10797E-2,1.48834E-1
-7.16095E-2,1.46934E-1
-8.02688E-2,1.46812E-1
-8.08639E-2,1.45217E-1
-6.36901E-2,1.55777E-1
-4.36630E-2,1.62147E-1
-3.36227E-2,1.57096E-1
-2.36358E-2,1.61392E-1
-1.11465E-2,1.56089E-1
0.15129E-1,1.81030E-1
0.49667E-1,1.86607E-1
0.15762E-1,1.41113E-1
0.11055E-1,1.28120E-1
0.37689E-1,1.38397E-1
0.77011E-1,1.48841E-1
7.64846E-2,1.24946E-1
7.09762E-2,1.12152E-1
8.04519E-2,1.08993E-1
1.12098E-1,1.12045E-1
1.31126E-1,0.94306E-1
9.69467E-2,7.39440E-2
9.31396E-2,6.70929E-2
1.16172E-1,5.59997E-2
1.44767E-1,0.39703E-1
1.31416E-1,0.22712E-1
1.15005E-1,1.86920E-2
1.21498E-1,0.96893E-2
1.29272E-1,-1.18713E-2
1.29486E-1,-2.68554E-2
1.20124E-1,-3.52783E-2
1.17961E-1,-4.16946E-2
1.23104E-1,-6.54869E-2
1.21044E-1,-8.33053E-2
1.06872E-1,-9.23919E-2
5.76057E-2,-8.52851E-2
6.46247E-2,-9.97810E-2
1.08741E-1,-1.29142E-1
0.98800E-1,-1.48742E-1
0.56694E-1,-1.37413E-1
0.49018E-1,-1.37977E-1
0.46791E-1,-1.57730E-1
0.41320E-1,-1.71020E-1
0.17913E-1,-1.68838E-1
0.03143E-1,-1.69456E-1
-4.82940E-3,-1.71905E-1
-1.75857E-2,-1.78375E-1
-2.82516E-2,-1.75621E-1
-5.56945E-2,-1.73416E-1
-7.73391E-2,-1.67747E-1
-6.30569E-2,-1.84394E-1
-7.65533E-2,-1.83273E-1
-8.83941E-2,-1.78924E-1
-1.10000E-1,-1.68624E-1
-1.10992E-1,-1.65741E-1
-1.11862E-1,-1.78100E-1
-1.23703E-1,-1.70944E-1
-1.32949E-1,-1.55075E-1
-1.38351E-1,-1.52404E-1
-1.46514E-1,-1.59439E-1
-1.47552E-1,-1.71844E-1
-1.66030E-1,-1.39221E-1
-1.83181E-1,-1.17721E-1
-1.78741E-1,-1.17950E-1
-1.79565E-1,-1.24572E-1
-1.87561E-1,-1.14730E-1
-1.92031E-1,-1.08505E-1
-2.00592E-1,-1.02600E-1
-2.01705E-1,-1.04904E-1
-2.01019E-1,-1.11114E-1
-2.11257E-1,-8.14971E-2
-2.05108E-1,-7.76672E-2
-2.14294E-1,-7.17468E-2
-2.14782E-1,-7.04956E-2
-2.22015E-1,-6.63757E-2
-2.26181E-1,-4.65545E-2
-2.37075E-1,-3.65600E-2
-2.39532E-1,-4.63256E-2
-2.44796E-1,-4.28009E-2
-2.38952E-1,-2.80914E-2
-2.37014E-1,-1.16653E-2
-2.42370E-1,-1.61438E-2
-2.52044E-1,-2.37426E-2
-2.62664E-1,-1.45568E-2
-2.62252E-1,0.07019E-1
-2.59109E-1,0.16128E-1
-2.61413E-1,0.23742E-1
-2.60360E-1,0.31631E-1
-2.60009E-1,0.40451E-1
-2.55035E-1,0.7164E-1
-2.64190E-1,0.54534E-1
-2.6474E-1,0.46600E-1
-2.71850E-1,0.60150E-1
-2.72918E-1,0.80566E-1
-2.66128E-1,0.92392E-1
-2.64175E-1,0.86624E-1
-2.63748E-1,0.84899E-1
-2.61169E-1,1.17324E-1
-2.62069E-1,1.23519E-1
-2.57659E-1,1.33377E-1
-2.56546E-1,1.36947E-1
-2.52151E-1,1.48803E-1
-2.52883E-1,1.69128E-1
-2.39509E-1,1.81983E-1
-2.30987E-1,1.79687E-1
-2.26127E-1,1.83929E-1
-2.22213E-1,2.00134E-1
-2.18299E-1,2.07077E-1
-2.12204E-1,2.14172E-1
-2.08206E-1,2.16789E-1
-1.98211E-1,2.28630E-1
-1.82716E-1,2.41508E-1
-1.72943E-1,2.45636E-1
-1.61651E-1,2.49481E-1
-1.50222E-1,2.53463E-1
-1.43264E-1,2.64511E-1
-1.30691E-1,2.77084E-1
-1.27700E-1,2.62115E-1
-1.20590E-1,2.62100E-1
-1.09680E-1,2.67929E-1
-1.03012E-1,2.77313E-1
-9.07592E-2,2.79418E-1
-7.97271E-2,2.70278E-1
-7.34863E-2,2.74078E-1
-6.47735E-2,2.82379E-1
-5.61218E-2,2.83294E-1
-4.00390E-2,2.75482E-1
-2.10723E-2,2.53280E-1
-1.93481E-2,2.75848E-1
-1.53350E-2,3.03405E-1
-1.52587E-4,2.91046E-1
0.10955E-1,2.75634E-1
0.14358E-1,2.75924E-1
0.18524E-1,2.77984E-1
0.28228E-1,2.82226E-1
0.48324E-1,2.72705E-1
0.62225E-1,2.61398E-1
0.71655E-1,2.70004E-1
0.81909E-1,2.70950E-1
0.95947E-1,2.66845E-1
1.16806E-1,2.53814E-1
1.23580E-1,2.48092E-1
1.27365E-1,2.55020E-1
1.44180E-1,2.48718E-1
1.57943E-1,2.33703E-1
1.70898E-1,2.24731E-1
1.79840E-1,2.14492E-1
1.90460E-1,2.16476E-1
END

