CITIFILE A.01.00
#NA VERSION HP8722ES.07.74: Oct 30, 2002
NAME FORMATTED
VAR FREQ MAG 201
DATA S[1,1] RI
DATA S[2,1] RI
DATA S[1,2] RI
DATA S[2,2] RI
SEG_LIST_BEGIN
SEG 50000000 4500000000 201
SEG_LIST_END
BEGIN
-1.33784E1,0E0
-1.33940E1,0E0
-1.34384E1,0E0
-1.34531E1,0E0
-1.33984E1,0E0
-1.32563E1,0E0
-1.32099E1,0E0
-1.32470E1,0E0
-1.31875E1,0E0
-1.30034E1,0E0
-1.28837E1,0E0
-1.28671E1,0E0
-1.28525E1,0E0
-1.26689E1,0E0
-1.24575E1,0E0
-1.23408E1,0E0
-1.23007E1,0E0
-1.21704E1,0E0
-1.18237E1,0E0
-1.15825E1,0E0
-1.15966E1,0E0
-1.15649E1,0E0
-1.13647E1,0E0
-1.11611E1,0E0
-1.10893E1,0E0
-1.12695E1,0E0
-1.12749E1,0E0
-1.10629E1,0E0
-1.09228E1,0E0
-1.09101E1,0E0
-1.08925E1,0E0
-1.07456E1,0E0
-1.04926E1,0E0
-1.04272E1,0E0
-1.04252E1,0E0
-1.03432E1,0E0
-1.02612E1,0E0
-1.02119E1,0E0
-1.02763E1,0E0
-1.03686E1,0E0
-1.03295E1,0E0
-1.02548E1,0E0
-1.02509E1,0E0
-1.02929E1,0E0
-1.02729E1,0E0
-1.01435E1,0E0
-1.00791E1,0E0
-1.01352E1,0E0
-1.01694E1,0E0
-1.01718E1,0E0
-1.01269E1,0E0
-1.01596E1,0E0
-1.02885E1,0E0
-1.02973E1,0E0
-1.02304E1,0E0
-1.02168E1,0E0
-1.02202E1,0E0
-1.02539E1,0E0
-1.02480E1,0E0
-1.01865E1,0E0
-1.01918E1,0E0
-1.02070E1,0E0
-1.02246E1,0E0
-1.02617E1,0E0
-1.02753E1,0E0
-1.02988E1,0E0
-1.03144E1,0E0
-1.03999E1,0E0
-1.04174E1,0E0
-1.03945E1,0E0
-1.03759E1,0E0
-1.0375E1,0E0
-1.03754E1,0E0
-1.0396E1,0E0
-1.03383E1,0E0
-1.03618E1,0E0
-1.04585E1,0E0
-1.04697E1,0E0
-1.04643E1,0E0
-1.04692E1,0E0
-1.04814E1,0E0
-1.05302E1,0E0
-1.05434E1,0E0
-1.05029E1,0E0
-1.05332E1,0E0
-1.05605E1,0E0
-1.05918E1,0E0
-1.05747E1,0E0
-1.05410E1,0E0
-1.05947E1,0E0
-1.06591E1,0E0
-1.07031E1,0E0
-1.07251E1,0E0
-1.07524E1,0E0
-1.09213E1,0E0
-1.1021E1,0E0
-1.09565E1,0E0
-1.09047E1,0E0
-1.09482E1,0E0
-1.10595E1,0E0
-1.11108E1,0E0
-1.10234E1,0E0
-1.10322E1,0E0
-1.11616E1,0E0
-1.12666E1,0E0
-1.11977E1,0E0
-1.11626E1,0E0
-1.12841E1,0E0
-1.14697E1,0E0
-1.15961E1,0E0
-1.16728E1,0E0
-1.17666E1,0E0
-1.19736E1,0E0
-1.21425E1,0E0
-1.21914E1,0E0
-1.22695E1,0E0
-1.24311E1,0E0
-1.26464E1,0E0
-1.28344E1,0E0
-1.29882E1,0E0
-1.31674E1,0E0
-1.34223E1,0E0
-1.36435E1,0E0
-1.38051E1,0E0
-1.40034E1,0E0
-1.42539E1,0E0
-1.45581E1,0E0
-1.47675E1,0E0
-1.49345E1,0E0
-1.50859E1,0E0
-1.52719E1,0E0
-1.54111E1,0E0
-1.55639E1,0E0
-1.56723E1,0E0
-1.58461E1,0E0
-1.59931E1,0E0
-1.61582E1,0E0
-1.62431E1,0E0
-1.63115E1,0E0
-1.63418E1,0E0
-1.63681E1,0E0
-1.63642E1,0E0
-1.63144E1,0E0
-1.62724E1,0E0
-1.62626E1,0E0
-1.61787E1,0E0
-1.60488E1,0E0
-1.60156E1,0E0
-1.67285E1,0E0
-1.69697E1,0E0
-1.70634E1,0E0
-1.67705E1,0E0
-1.64775E1,0E0
-1.61611E1,0E0
-1.57685E1,0E0
-1.46254E1,0E0
-1.40263E1,0E0
-1.34770E1,0E0
-1.33066E1,0E0
-1.31801E1,0E0
-1.30849E1,0E0
-1.29389E1,0E0
-1.28232E1,0E0
-1.27104E1,0E0
-1.26694E1,0E0
-1.26552E1,0E0
-1.26499E1,0E0
-1.2646E1,0E0
-1.26303E1,0E0
-1.26030E1,0E0
-1.25561E1,0E0
-1.24873E1,0E0
-1.24126E1,0E0
-1.23706E1,0E0
-1.23403E1,0E0
-1.23798E1,0E0
-1.23955E1,0E0
-1.24028E1,0E0
-1.23940E1,0E0
-1.23989E1,0E0
-1.24189E1,0E0
-1.24213E1,0E0
-1.24326E1,0E0
-1.24770E1,0E0
-1.25322E1,0E0
-1.26655E1,0E0
-1.28110E1,0E0
-1.29101E1,0E0
-1.30737E1,0E0
-1.32246E1,0E0
-1.34043E1,0E0
-1.36132E1,0E0
-1.38066E1,0E0
-1.39907E1,0E0
-1.42251E1,0E0
-1.44370E1,0E0
-1.46752E1,0E0
-1.48320E1,0E0
-1.49531E1,0E0
-1.50380E1,0E0
-1.51001E1,0E0
END
BEGIN
1.16469E1,0E0
1.16870E1,0E0
1.17827E1,0E0
1.18544E1,0E0
1.19091E1,0E0
1.19858E1,0E0
1.20029E1,0E0
1.19218E1,0E0
1.18955E1,0E0
1.18222E1,0E0
1.17729E1,0E0
1.17265E1,0E0
1.16303E1,0E0
1.16025E1,0E0
1.15410E1,0E0
1.15034E1,0E0
1.14956E1,0E0
1.14189E1,0E0
1.13398E1,0E0
1.12807E1,0E0
1.12177E1,0E0
1.11645E1,0E0
1.11098E1,0E0
1.09887E1,0E0
1.09257E1,0E0
1.0854E1,0E0
1.08129E1,0E0
1.07495E1,0E0
1.06591E1,0E0
1.05781E1,0E0
1.05366E1,0E0
1.05122E1,0E0
1.04863E1,0E0
1.04106E1,0E0
1.03623E1,0E0
1.03461E1,0E0
1.02890E1,0E0
1.02251E1,0E0
1.01298E1,0E0
1.00595E1,0E0
1.00405E1,0E0
9.99658E0,0E0
9.95947E0,0E0
9.91162E0,0E0
9.88183E0,0E0
9.90673E0,0E0
9.88818E0,0E0
9.81347E0,0E0
9.77636E0,0E0
9.73877E0,0E0
9.73730E0,0E0
9.68066E0,0E0
9.59521E0,0E0
9.56933E0,0E0
9.55224E0,0E0
9.51513E0,0E0
9.48095E0,0E0
9.44043E0,0E0
9.45019E0,0E0
9.45068E0,0E0
9.40673E0,0E0
9.37695E0,0E0
9.35253E0,0E0
9.35498E0,0E0
9.35839E0,0E0
9.26171E0,0E0
9.18798E0,0E0
9.17382E0,0E0
9.20556E0,0E0
9.20068E0,0E0
9.14257E0,0E0
9.10400E0,0E0
9.14990E0,0E0
9.16699E0,0E0
9.15039E0,0E0
9.08007E0,0E0
9.01074E0,0E0
8.97949E0,0E0
8.93457E0,0E0
8.88427E0,0E0
8.83349E0,0E0
8.75537E0,0E0
8.72168E0,0E0
8.71386E0,0E0
8.67480E0,0E0
8.63818E0,0E0
8.60693E0,0E0
8.60107E0,0E0
8.61962E0,0E0
8.57421E0,0E0
8.52050E0,0E0
8.49414E0,0E0
8.47558E0,0E0
8.44287E0,0E0
8.37353E0,0E0
8.32519E0,0E0
8.33252E0,0E0
8.33349E0,0E0
8.31201E0,0E0
8.28076E0,0E0
8.26562E0,0E0
8.29199E0,0E0
8.28271E0,0E0
8.22705E0,0E0
8.19873E0,0E0
8.21533E0,0E0
8.19482E0,0E0
8.13330E0,0E0
8.04394E0,0E0
8.01025E0,0E0
8.02197E0,0E0
8.00439E0,0E0
7.94897E0,0E0
7.93115E0,0E0
7.94189E0,0E0
7.94506E0,0E0
7.90136E0,0E0
7.84545E0,0E0
7.80908E0,0E0
7.76611E0,0E0
7.71215E0,0E0
7.66308E0,0E0
7.64648E0,0E0
7.64526E0,0E0
7.60961E0,0E0
7.54907E0,0E0
7.49389E0,0E0
7.47143E0,0E0
7.44628E0,0E0
7.39599E0,0E0
7.34814E0,0E0
7.33984E0,0E0
7.34619E0,0E0
7.30810E0,0E0
7.22070E0,0E0
7.15258E0,0E0
7.10229E0,0E0
7.04858E0,0E0
6.96899E0,0E0
6.90234E0,0E0
6.88940E0,0E0
6.88427E0,0E0
6.84228E0,0E0
6.74389E0,0E0
6.65722E0,0E0
6.61987E0,0E0
6.55908E0,0E0
6.53125E0,0E0
6.34960E0,0E0
6.04980E0,0E0
6.23144E0,0E0
6.28149E0,0E0
6.26171E0,0E0
6.26977E0,0E0
6.26123E0,0E0
6.42749E0,0E0
6.70629E0,0E0
6.53344E0,0E0
6.45385E0,0E0
6.4104E0,0E0
6.35742E0,0E0
6.27539E0,0E0
6.19262E0,0E0
6.13574E0,0E0
6.10205E0,0E0
6.08032E0,0E0
6.04296E0,0E0
6.00634E0,0E0
5.98584E0,0E0
5.9729E0,0E0
5.95019E0,0E0
5.90283E0,0E0
5.85351E0,0E0
5.82641E0,0E0
5.79907E0,0E0
5.73486E0,0E0
5.65454E0,0E0
5.59594E0,0E0
5.58300E0,0E0
5.56884E0,0E0
5.50756E0,0E0
5.44506E0,0E0
5.40747E0,0E0
5.38061E0,0E0
5.35327E0,0E0
5.29394E0,0E0
5.26293E0,0E0
5.28710E0,0E0
5.32519E0,0E0
5.3479E0,0E0
5.33056E0,0E0
5.29907E0,0E0
5.28637E0,0E0
5.26709E0,0E0
5.24047E0,0E0
5.19506E0,0E0
5.15576E0,0E0
5.14526E0,0E0
5.13916E0,0E0
5.12475E0,0E0
5.10595E0,0E0
END
BEGIN
-1.85312E1,0E0
-1.84306E1,0E0
-1.82822E1,0E0
-1.81367E1,0E0
-1.80097E1,0E0
-1.79443E1,0E0
-1.79130E1,0E0
-1.79189E1,0E0
-1.79199E1,0E0
-1.79628E1,0E0
-1.80097E1,0E0
-1.80156E1,0E0
-1.80410E1,0E0
-1.80615E1,0E0
-1.81044E1,0E0
-1.81279E1,0E0
-1.81201E1,0E0
-1.81337E1,0E0
-1.81953E1,0E0
-1.82324E1,0E0
-1.82548E1,0E0
-1.82578E1,0E0
-1.82421E1,0E0
-1.82988E1,0E0
-1.83339E1,0E0
-1.83603E1,0E0
-1.83671E1,0E0
-1.83603E1,0E0
-1.84228E1,0E0
-1.84824E1,0E0
-1.84843E1,0E0
-1.84990E1,0E0
-1.85205E1,0E0
-1.85849E1,0E0
-1.86562E1,0E0
-1.87099E1,0E0
-1.87597E1,0E0
-1.88320E1,0E0
-1.88808E1,0E0
-1.89033E1,0E0
-1.89121E1,0E0
-1.89541E1,0E0
-1.89287E1,0E0
-1.89423E1,0E0
-1.89531E1,0E0
-1.89716E1,0E0
-1.90087E1,0E0
-1.90419E1,0E0
-1.90322E1,0E0
-1.90634E1,0E0
-1.91064E1,0E0
-1.91582E1,0E0
-1.91933E1,0E0
-1.91835E1,0E0
-1.92031E1,0E0
-1.92705E1,0E0
-1.93105E1,0E0
-1.92998E1,0E0
-1.92597E1,0E0
-1.92627E1,0E0
-1.93378E1,0E0
-1.93710E1,0E0
-1.93701E1,0E0
-1.93710E1,0E0
-1.94130E1,0E0
-1.87412E1,0E0
-1.87919E1,0E0
-1.87753E1,0E0
-1.87568E1,0E0
-1.87939E1,0E0
-1.88457E1,0E0
-1.88759E1,0E0
-1.96308E1,0E0
-1.96445E1,0E0
-1.96982E1,0E0
-1.97695E1,0E0
-1.98486E1,0E0
-1.98896E1,0E0
-1.99462E1,0E0
-2.00136E1,0E0
-2.00634E1,0E0
-2.01142E1,0E0
-2.01835E1,0E0
-2.02080E1,0E0
-2.02675E1,0E0
-2.03125E1,0E0
-2.03554E1,0E0
-2.04218E1,0E0
-2.04863E1,0E0
-2.05390E1,0E0
-2.05751E1,0E0
-2.06191E1,0E0
-2.07099E1,0E0
-2.07998E1,0E0
-2.08515E1,0E0
-2.08837E1,0E0
-2.09414E1,0E0
-2.10507E1,0E0
-2.11416E1,0E0
-2.11709E1,0E0
-2.12001E1,0E0
-2.12910E1,0E0
-2.14130E1,0E0
-2.14902E1,0E0
-2.15175E1,0E0
-2.15625E1,0E0
-2.17041E1,0E0
-2.18535E1,0E0
-2.19326E1,0E0
-2.19902E1,0E0
-2.21113E1,0E0
-2.22617E1,0E0
-2.23916E1,0E0
-2.24345E1,0E0
-2.25E1,0E0
-2.26455E1,0E0
-2.28144E1,0E0
-2.28994E1,0E0
-2.29785E1,0E0
-2.31025E1,0E0
-2.32695E1,0E0
-2.34414E1,0E0
-2.35556E1,0E0
-2.36738E1,0E0
-2.38457E1,0E0
-2.40244E1,0E0
-2.41777E1,0E0
-2.42929E1,0E0
-2.44043E1,0E0
-2.45615E1,0E0
-2.47011E1,0E0
-2.48281E1,0E0
-2.49443E1,0E0
-2.50918E1,0E0
-2.52832E1,0E0
-2.54638E1,0E0
-2.56054E1,0E0
-2.57714E1,0E0
-2.59287E1,0E0
-2.60703E1,0E0
-2.61464E1,0E0
-2.62285E1,0E0
-2.63398E1,0E0
-2.64716E1,0E0
-2.65595E1,0E0
-2.66123E1,0E0
-2.66757E1,0E0
-2.67910E1,0E0
-2.68271E1,0E0
-2.68505E1,0E0
-2.67910E1,0E0
-2.67871E1,0E0
-2.68154E1,0E0
-2.67587E1,0E0
-2.66787E1,0E0
-2.66396E1,0E0
-2.65849E1,0E0
-2.65644E1,0E0
-2.64599E1,0E0
-2.63466E1,0E0
-2.63017E1,0E0
-2.62558E1,0E0
-2.62167E1,0E0
-2.61796E1,0E0
-2.61709E1,0E0
-2.61533E1,0E0
-2.60859E1,0E0
-2.59316E1,0E0
-2.57392E1,0E0
-2.55498E1,0E0
-2.53261E1,0E0
-2.50126E1,0E0
-2.47460E1,0E0
-2.45146E1,0E0
-2.43095E1,0E0
-2.40722E1,0E0
-2.37685E1,0E0
-2.35048E1,0E0
-2.33417E1,0E0
-2.31054E1,0E0
-2.28554E1,0E0
-2.26210E1,0E0
-2.24511E1,0E0
-2.23378E1,0E0
-2.21689E1,0E0
-2.19736E1,0E0
-2.18574E1,0E0
-2.17861E1,0E0
-2.17490E1,0E0
-2.16650E1,0E0
-2.15400E1,0E0
-2.14472E1,0E0
-2.13330E1,0E0
-2.11816E1,0E0
-2.10048E1,0E0
-2.08281E1,0E0
-2.07050E1,0E0
-2.05585E1,0E0
-2.04169E1,0E0
-2.03056E1,0E0
-2.02246E1,0E0
END
BEGIN
-2.20722E1,0E0
-2.17773E1,0E0
-2.15517E1,0E0
-2.11162E1,0E0
-2.05722E1,0E0
-2.02597E1,0E0
-1.99531E1,0E0
-1.97695E1,0E0
-1.94443E1,0E0
-1.88916E1,0E0
-1.85908E1,0E0
-1.83281E1,0E0
-1.79716E1,0E0
-1.76406E1,0E0
-1.72470E1,0E0
-1.69169E1,0E0
-1.66445E1,0E0
-1.63300E1,0E0
-1.58066E1,0E0
-1.54306E1,0E0
-1.52153E1,0E0
-1.50136E1,0E0
-1.47192E1,0E0
-1.45200E1,0E0
-1.43305E1,0E0
-1.44340E1,0E0
-1.44316E1,0E0
-1.42119E1,0E0
-1.40488E1,0E0
-1.42197E1,0E0
-1.43315E1,0E0
-1.41357E1,0E0
-1.38491E1,0E0
-1.37631E1,0E0
-1.38149E1,0E0
-1.38188E1,0E0
-1.35205E1,0E0
-1.32758E1,0E0
-1.33315E1,0E0
-1.34834E1,0E0
-1.33813E1,0E0
-1.32099E1,0E0
-1.31098E1,0E0
-1.31215E1,0E0
-1.31191E1,0E0
-1.30449E1,0E0
-1.30004E1,0E0
-1.31259E1,0E0
-1.32368E1,0E0
-1.32788E1,0E0
-1.32622E1,0E0
-1.33320E1,0E0
-1.35390E1,0E0
-1.36411E1,0E0
-1.36396E1,0E0
-1.36948E1,0E0
-1.38007E1,0E0
-1.39765E1,0E0
-1.40991E1,0E0
-1.41816E1,0E0
-1.43501E1,0E0
-1.45888E1,0E0
-1.47753E1,0E0
-1.49174E1,0E0
-1.50395E1,0E0
-1.38369E1,0E0
-1.40737E1,0E0
-1.42768E1,0E0
-1.44306E1,0E0
-1.46474E1,0E0
-1.49638E1,0E0
-1.52421E1,0E0
-1.68222E1,0E0
-1.69921E1,0E0
-1.72685E1,0E0
-1.76416E1,0E0
-1.79892E1,0E0
-1.82626E1,0E0
-1.86757E1,0E0
-1.91914E1,0E0
-1.96816E1,0E0
-2.01015E1,0E0
-2.05419E1,0E0
-2.10712E1,0E0
-2.17724E1,0E0
-2.23701E1,0E0
-2.30322E1,0E0
-2.36494E1,0E0
-2.42939E1,0E0
-2.51503E1,0E0
-2.60195E1,0E0
-2.67753E1,0E0
-2.76025E1,0E0
-2.84472E1,0E0
-2.95781E1,0E0
-3.05761E1,0E0
-3.09668E1,0E0
-3.11406E1,0E0
-3.12304E1,0E0
-3.12636E1,0E0
-3.07431E1,0E0
-2.97998E1,0E0
-2.88603E1,0E0
-2.82294E1,0E0
-2.75683E1,0E0
-2.66884E1,0E0
-2.56787E1,0E0
-2.50087E1,0E0
-2.44658E1,0E0
-2.38496E1,0E0
-2.30517E1,0E0
-2.24628E1,0E0
-2.20419E1,0E0
-2.16865E1,0E0
-2.12724E1,0E0
-2.07988E1,0E0
-2.04023E1,0E0
-2.01298E1,0E0
-1.97382E1,0E0
-1.93652E1,0E0
-1.89755E1,0E0
-1.87158E1,0E0
-1.84775E1,0E0
-1.82617E1,0E0
-1.80380E1,0E0
-1.77949E1,0E0
-1.74912E1,0E0
-1.72265E1,0E0
-1.68847E1,0E0
-1.66337E1,0E0
-1.64277E1,0E0
-1.62099E1,0E0
-1.59892E1,0E0
-1.58027E1,0E0
-1.55610E1,0E0
-1.53579E1,0E0
-1.51167E1,0E0
-1.48681E1,0E0
-1.46669E1,0E0
-1.45200E1,0E0
-1.44243E1,0E0
-1.4354E1,0E0
-1.42705E1,0E0
-1.41254E1,0E0
-1.39897E1,0E0
-1.38872E1,0E0
-1.37705E1,0E0
-1.36362E1,0E0
-1.35180E1,0E0
-1.3396E1,0E0
-1.34189E1,0E0
-1.34106E1,0E0
-1.32836E1,0E0
-1.32065E1,0E0
-1.31953E1,0E0
-1.31948E1,0E0
-1.31997E1,0E0
-1.31020E1,0E0
-1.30439E1,0E0
-1.30615E1,0E0
-1.30200E1,0E0
-1.29467E1,0E0
-1.28437E1,0E0
-1.27294E1,0E0
-1.26630E1,0E0
-1.25795E1,0E0
-1.25376E1,0E0
-1.25810E1,0E0
-1.26420E1,0E0
-1.27695E1,0E0
-1.29008E1,0E0
-1.30356E1,0E0
-1.32109E1,0E0
-1.33427E1,0E0
-1.34296E1,0E0
-1.35293E1,0E0
-1.36269E1,0E0
-1.38339E1,0E0
-1.39580E1,0E0
-1.40278E1,0E0
-1.41333E1,0E0
-1.42221E1,0E0
-1.43134E1,0E0
-1.43784E1,0E0
-1.43544E1,0E0
-1.44086E1,0E0
-1.44707E1,0E0
-1.45288E1,0E0
-1.46020E1,0E0
-1.46264E1,0E0
-1.46377E1,0E0
-1.46762E1,0E0
-1.47451E1,0E0
-1.48461E1,0E0
-1.48906E1,0E0
-1.49111E1,0E0
-1.49482E1,0E0
-1.49907E1,0E0
-1.50122E1,0E0
-1.49877E1,0E0
-1.49389E1,0E0
END

