! Network Analyzer HP8722ES.07.74: Oct 30, 2002 Serial No. US39175660
! Hewlett-Packard
! 30 May 2012  17:36:17
! Frequency       S11                S21                S12                S22
# HZ  S  DB R  50 
50000000  -13.31   -4.6829    11.534    173.04   -18.789   -2.9539   -22.9    41.692   
72250000  -13.609    6.806    11.538   -177.83   -18.36    5.9862   -21.41    36.681   
94500000  -13.611   -9.0335    11.53    171.52   -18.254   -2.6065   -21.112    4.5937   
116750000  -13.187   -18.342    12.326    169.47   -17.944   -2.9993   -20.38   -23.75   
139000000  -13.419   -20.293    11.812    165.17   -18.084   -7.4666   -20.838   -20.804   
161250000  -13.624   -9.3919    12.206    160.82   -17.75   -11.724   -21.32    4.3341   
183500000  -13.411   -10.383    12.037    156.8   -17.77   -14.911   -19.85    .6866   
205750000  -12.927   -23.987    11.915    151.58   -17.901   -18.272   -19.092   -29.795   
228000000  -12.615   -27.312    12.078    149.63   -17.905   -18.634   -19.223   -35.85   
250250000  -13.288   -26.303    11.647    142.72   -18.034   -23.736   -18.965   -39.368   
272500000  -13.445   -21.246    11.759    142.5   -17.984   -24.27   -19.097   -35.719   
294750000  -13   -29.733    11.628    136.32   -18.09   -28.508   -18.558   -48.349   
317000000  -12.337   -37.083    11.694    134.57   -18.053   -29.32   -17.452   -58.729   
339250000  -12.573   -37.926    11.689    130.43   -18.1   -31.509   -17.742   -62.799   
361500000  -12.811   -36.377    11.592    126.27   -17.938   -34.763   -17.259   -62.766   
383750000  -12.513   -37.995    11.403    123.69   -18.081   -37.9   -16.727   -68.839   
406000000  -12.003   -44.394    11.452    118.47   -18.18   -41.421   -16.648   -76.479   
428250000  -11.964   -49.003    11.33    115.79   -18.286   -43.792   -16.342   -81.753   
450500000  -12.182   -49.57    11.366    112.03   -18.255   -44.918   -16.246   -85.406   
472750000  -12.056   -52.023    11.638    109.27   -17.997   -46.829   -15.545   -88.853   
495000000  -11.663   -56.04    11.154    104.94   -18.195   -49.791   -15.542   -93.587   
517250000  -10.382   -61.821    11.037    102.2   -18.37   -50.948   -13.595   -104.47   
539500000  -10.826   -64.488    10.988    98.475   -18.342   -53.462   -14.097   -105.46   
561750000  -12.102   -59.779    11.013    94.986   -18.333   -55.254   -15.139   -105.29   
584000000  -11.74   -63.895    10.956    91.406   -18.31   -57.903   -14.931   -107.89   
606250000  -10.782   -69.472    10.984    89.05   -18.144   -60.905   -14.182   -112.67   
628500000  -10.63   -74.107    10.791    86.048   -18.393   -63.321   -14.153   -117.84   
650750000  -11.162   -76.312    10.713    81.878   -18.441   -65.235   -14.217   -120.49   
673000000  -11.642   -77.816    10.535    78.788   -18.554   -68.513   -14.318   -124.41   
695250000  -10.863   -81.329    10.699    75.837   -18.392   -70.053   -14.08   -126.87   
717500000  -10.621   -85.498    10.571    71.807   -18.283   -74.145   -13.599   -131.29   
739750000  -10.757   -88.651    10.322    69.384   -18.751   -75.046   -13.79   -134.9   
762000000  -10.695   -90.464    10.418    67.128   -18.56   -76.152   -15.38   -140.66   
784250000  -10.507   -93.646    10.501    63.711   -18.405   -78.611   -14.933   -142.74   
806500000  -10.133   -93.978    10.543    59.26   -18.546   -82.414   -12.846   -142.17   
828750000  -9.8694   -97.489    10.352    54.634   -18.701   -85.799   -12.311   -147.54   
851000000  -10.406   -101.78    10.171    54.934   -18.848   -85.134   -13.478   -151.11   
873250000  -10.608   -104.13    10.23    53.753   -18.782   -85.879   -13.965   -152.4   
895500000  -10.183   -107.32    10.212    48.498   -19.123   -94.432   -13.818   -162.73   
917750000  -10.122   -109.03    10.015    45.85   -18.911   -91.897   -13.288   -158.75   
940000000  -10.162   -111.99    10.054    42.724   -18.912   -93.492   -13.223   -161.42   
962250000  -10.582   -116.8    9.8766    38.801   -18.887   -96.091   -13.236   -165.96   
984500000  -10.517   -118.15    9.8594    36.181   -18.855   -98.135   -13.374   -167.56   
1006750000  -10.13   -119.97    10.037    33.132   -18.909   -100.56   -12.764   -169.54   
1029000000  -10.086   -122.85    9.924    30.149   -19.08   -102.45   -12.765   -173.47   
1051250000  -10.156   -125.8    9.953    27.721   -18.945   -104.48   -13.119   -176.35   
1073500000  -10.415   -128.33    9.6792    23.906   -19.002   -107.49   -13.369    179.62   
1095750000  -10.023   -128.95    9.8439    21.833   -18.992   -108.76   -13.205    177.8   
1118000000  -9.6733   -129.78    10.053    18.939   -19.016   -110.34   -12.718    176.74   
1140250000  -10.069   -134.2    9.7307    15.18   -19.116   -112.9   -13.065    171.96   
1162500000  -10.522   -137.74    9.5117    13.589   -19.141   -114.72   -13.639    169.57   
1184750000  -10.326   -139.24    9.6655    10.416   -19.01   -117.12   -13.541    167.54   
1207000000  -10.174   -141.68    9.6888    6.9722   -19.165   -120.23   -13.414    165.12   
1229250000  -10.101   -143.23    9.6682    3.5774   -19.303   -121.76   -13.252    162.06   
1251500000  -10.25   -147.52    9.4489    .8981   -19.351   -123.22   -13.693    156.95   
1273750000  -10.579   -149.7    9.4557   -.7800   -19.261   -124.99   -14.167    154.78   
1296000000  -10.129   -148.46    9.5486   -4.3726   -19.05   -127.77   -13.781    153.81   
1318250000  -10.052   -149.47    9.3908   -8.3015   -19.282   -131.52   -13.626    151.95   
1340500000  -10.232   -152.88    9.4072   -10.988   -19.481   -133.04   -13.927    148.28   
1362750000  -10.198   -157.08    9.4499   -13.906   -19.444   -133.53   -14.157    144.04   
1385000000  -10.337   -159.09    9.3837   -16.183   -19.228   -135.07   -14.482    142.08   
1407250000  -10.209   -159.65    9.5165   -18.95   -19.068   -138.04   -14.551    139.94   
1429500000  -10.148   -162.07    9.4606   -23.181   -19.282   -141.73   -14.745    137.21   
1451750000  -10.168   -163.96    9.2388   -25.7   -19.579   -142.96   -14.962    129.46   
1474000000  -10.157   -165.98    9.184   -27.657   -19.513   -142.58   -15.298    123.36   
1496250000  -10.354   -166.74    9.236   -29.596   -19.473   -145.76   -15.231    130.87   
1518500000  -10.458   -167.8    9.4672   -32.044   -19.449   -149.13   -15.152    131.59   
1540750000  -10.433   -170.56    9.4063   -37.873   -19.527   -152.66   -15.335    124.31   
1563000000  -10.373   -179.23    8.8424   -40.176   -14.36    155.35   -6.1325    154.56   
1585250000  -10.256   -178    8.9424   -42.373   -19.642   -155.39   -16.404    115.44   
1607500000  -10.767   -176.42    9.1408   -45.574   -19.462   -158.55   -16.384    115.87   
1629750000  -10.278   -177.51    9.4065   -48.079   -19.379   -161.41   -16.373    114.68   
1652000000  -10.194    178.55    9.2014   -52.024   -19.735   -162.64   -16.751    105.83   
1674250000  -10.329    175.52    9.0591   -54.947   -19.814   -163.08   -17.365    100.56   
1696500000  -10.426    177.31    9.1384   -57.43   -19.736   -165.37   -17.285    106.97   
1718750000  -10.376    176.09    9.1638   -61.096   -19.641   -168.89   -17.192    105.27   
1741000000  -10.4    172.42    9.0601   -64.611   -19.743   -172.53   -17.59    97.416   
1763250000  -10.363    167.49    9.0236   -67.716   -19.838   -174.29   -18.32    86.944   
1785500000  -10.444    166.47    8.9146   -69.988   -19.875   -175.55   -18.984    87.845   
1807750000  -10.871    169.69    8.7163   -71.297   -20.291   -178.59   -19.19    90.22   
1830000000  -10.405    166.54    8.8404   -74.629   -20.097    179.55   -19.279    85.54   
1852250000  -10.391    162.05    8.8253   -78.754   -20.136    177.77   -20.172    80.361   
1874500000  -10.408    160.97    8.8096   -81.219   -20.112    176.57   -20.805    77.673   
1896750000  -10.487    158.86    8.7057   -84.596   -20.088    173.39   -21.017    75.057   
1919000000  -10.705    156.99    8.4763   -87.171   -20.197    169.93   -21.262    70.314   
1941250000  -10.536    153.4    8.6794   -91.015   -20.359    167.12   -22.069    62.056   
1963500000  -10.586    150.21    8.6607   -94.922   -20.464    165.7   -22.892    53.425   
1985750000  -10.618    148.71    8.5676   -96.519   -20.516    165.72   -24.187    55.052   
2008000000  -10.581    146.77    8.5682   -99.099   -20.45    161.9   -24.356    72.407   
2030250000  -10.628    145.17    8.5929   -102.16   -20.414    158.17   -25.441    61.245   
2052500000  -10.366    143.8    8.6643   -104.95   -20.547    157.92   -25.336    32.223   
2074750000  -10.472    140.55    8.6073   -108.43   -20.652    156.94   -25.773    19.755   
2097000000  -10.912    139.07    8.3616   -110.66   -20.725    154.57   -28.062    28.776   
2119250000  -11.035    137.61    8.2839   -112.74   -20.72    151.28   -28.977    26.013   
2141500000  -10.925    133.91    8.3812   -116.86   -20.82    148.18   -29.476    3.94   
2163750000  -10.735    130.46    8.4382   -121.13   -21.086    146.31   -30.149   -10.72   
2186000000  -10.818    128.82    8.3663   -122.34   -21.042    145.91   -31.355   -15.86   
2208250000  -11.55    129.28    8.1792   -124.38   -20.912    143.25   -33.254   -25.932   
2230500000  -11.168    126.46    8.2671   -127.24   -20.882    139.78   -32.759   -31.885   
2252750000  -10.463    121.43    8.4136   -131.59   -21.124    136.39   -30.798   -46.794   
2275000000  -10.671    118.69    8.2919   -134.73   -21.487    135.67   -30.188   -54.308   
2297250000  -11.231    116.53    8.2293   -136.83   -21.453    134.56   -30.105   -73.331   
2319500000  -11.515    113.99    8.2201   -139.71   -21.294    131.99   -30.386   -96.818   
2341750000  -11.177    111.48    8.261   -142.75   -21.25    129.26   -27.71   -84.501   
2364000000  -10.936    107.29    8.363   -147.21   -21.547    125.65   -26.647   -89.809   
2386250000  -11.231    105.57    8.2016   -148.14   -21.735    125.82   -26.187   -98.911   
2408500000  -11.369    105.15    8.0231   -150.17   -21.662    124.16   -26.38   -110.01   
2430750000  -11.405    101.57    8.0963   -153.66   -21.682    120.92   -25.564   -106.53   
2453000000  -10.749    99.995    8.3424   -156.48   -21.763    118.44   -23.94   -104.75   
2475250000  -11.27    95.184    8.0774   -159.73   -22.285    116.83   -23.317   -108.42   
2497500000  -12.028    90.808    7.8323   -162.68   -22.293    116.51   -23.02   -115.98   
2519750000  -12.234    88.406    7.737   -164.94   -22.103    114.47   -22.851   -121.2   
2542000000  -12.116    84.256    7.9657   -169.45   -22.138    109.94   -21.871   -119.55   
2564250000  -11.905    81.325    8.104   -173.23   -22.511    108.41   -20.798   -119.39   
2586500000  -12.062    78.904    7.9736   -174.06   -22.736    107.85   -21.44   -128.58   
2608750000  -12.201    77.634    7.9529   -176.46   -22.671    106.07   -20.992   -135.64   
2631000000  -12.45    74.185    7.9541   -179.87   -22.589    103.17   -20.832   -134.68   
2653250000  -12.371    72.059    7.9064    177.46   -22.753    99.498   -20.117   -131.6   
2675500000  -12.782    67.25    7.7594    174.35   -23.121    97.806   -19.538   -134.92   
2697750000  -13.246    61.223    7.6603    172.07   -23.319    97.71   -19.096   -140.67   
2720000000  -13.412    56.338    7.7127    169.39   -23.104    95.326   -18.891   -144.12   
2742250000  -13.378    53.102    7.7183    165.86   -23.291    93.089   -18.694   -144.61   
2764500000  -13.279    48.738    7.6514    163.02   -23.539    90.979   -18.387   -143.52   
2786750000  -13.705    44.724    7.5767    160.59   -23.759    90.047   -18.101   -150.28   
2809000000  -14.154    43.911    7.5633    158.03   -23.952    89.294   -18.302   -150.34   
2831250000  -14.33    37.447    7.6431    154.46   -23.924    86.561   -17.868   -151.75   
2853500000  -14.376    37.981    7.6515    151.66   -24.142    84.593   -17.586   -153.72   
2875750000  -14.801    29.833    7.4638    148.13   -24.309    83.124   -17.327   -155.85   
2898000000  -15.129    20.495    7.2953    144.38   -24.541    81.049   -16.987   -159.66   
2920250000  -15.411    16.515    7.2639    142.24   -24.612    80.077   -16.263   -164.46   
2942500000  -15.169    11.276    7.42    140.04   -24.567    78.4   -16.248   -163.73   
2964750000  -15.323    5.7239    7.3877    136.53   -24.73    76.875   -15.914   -166.01   
2987000000  -15.391    2.6642    7.2908    134.45   -25.029    76.348   -16.109   -169.12   
3009250000  -15.678    .6330    7.3165    132.4   -25.118    75.265   -16.14   -171.13   
3031500000  -15.778   -6.2924    7.4063    128.36   -25.195    72.411   -15.803   -172   
3053750000  -16.197   -13.471    7.3389    125.02   -25.36    71.594   -15.446   -171.78   
3076000000  -16.171   -23.586    6.9975    121.16   -25.642    70.271   -14.957   -173.18   
3098250000  -16.385   -28.315    6.8082    119.18   -25.904    70.214   -14.557   -178.15   
3120500000  -16.351   -34.893    6.911    117.8   -25.998    67.516   -14.491    178.19   
3142750000  -16.546   -39.265    6.9378    115   -26.017    66.429   -14.42    175.44   
3165000000  -16.27   -43.356    6.9412    111.27   -26.279    66.963   -14.401    172.73   
3187250000  -16.258   -47.645    6.849    108.54   -26.3    67.53   -14.393    170.67   
3209500000  -16.407   -51.873    6.8729    106.29   -26.35    65.481   -14.418    165.38   
3231750000  -16.36   -59.192    6.9066    102.85   -26.174    63.449   -14.287    167.41   
3254000000  -16.357   -70.199    6.7725    97.759   -26.478    62.52   -14.068    166.78   
3276250000  -15.999   -72.834    6.6161    94.694   -26.774    62.483   -13.906    164.49   
3298500000  -16.25   -78.353    6.2494    93.834   -26.942    63.388   -13.404    161.61   
3320750000  -16.206   -82.246    6.3348    93.448   -26.892    63.008   -13.45    157.25   
3343000000  -15.671   -86.461    6.5879    90.591   -26.675    62.839   -13.675    156.18   
3365250000  -15.495   -95.197    6.4471    86.055   -26.794    62.082   -13.602    154.93   
3387500000  -16.13   -86.852    6.7122    84.771   -26.976    62.503   -13.347    149.44   
3409750000  -21.347   -117.67    5.5004    91.737   -26.73    62.533   -13.238    148.52   
3432000000  -17.684   -138.86    4.5175    84.758   -26.94    61.175   -13.054    144.92   
3454250000  -16.909   -81.999    7.5205    82.392   -26.526    58.505   -13.562    143.96   
3476500000  -14.155   -107.88    6.6848    70.679   -26.868    57.978   -13.395    143.33   
3498750000  -13.618   -110.78    6.4505    66.587   -26.868    58.626   -12.787    138.83   
3521000000  -13.283   -114.96    6.5027    65.233   -26.403    57.633   -13.061    135.02   
3543250000  -13.383   -119.29    6.6531    63.603   -26.414    56.343   -13.268    133.53   
3565500000  -13.345   -123.92    6.6638    59.654   -26.456    55.898   -13.235    130.83   
3587750000  -13.489   -127.51    6.4702    56.68   -26.556    56.055   -13.089    129.16   
3610000000  -13.066   -130.54    6.3098    53.744   -26.385    56.348   -12.878    126.76   
3632250000  -12.961   -136.83    6.1283    51.437   -26.137    54.421   -12.988    124.73   
3654500000  -12.734   -142.42    6.1451    49.732   -26.071    53.262   -12.908    123.45   
3676750000  -12.614   -145.79    6.1326    46.717   -26.091    52.372   -12.769    119.95   
3699000000  -12.364   -147.95    6.0784    44.394   -26.09    50.508   -12.756    116.76   
3721250000  -12.533   -152.62    6.0844    41.799   -26.185    48.826   -12.514    114.39   
3743500000  -12.699   -156.58    6.0717    38.822   -26.292    49.739   -12.29    109.58   
3765750000  -12.779   -158.44    6.0752    35.468   -26.328    50.32   -12.415    103.96   
3788000000  -12.863   -160.5    5.9762    32.823   -26.011    52.674   -12.403    101.38   
3810250000  -12.697   -162.97    5.8839    30.935   -25.598    50.621   -12.614    98.4   
3832500000  -12.585   -169.35    5.8755    28.515   -25.016    48.921   -13.074    95.587   
3854750000  -12.255   -172.43    5.9346    24.12   -24.741    47.48   -13.184    91.747   
3877000000  -12.343   -175.25    5.9946    21.437   -24.862    47.184   -13.404    89.603   
3899250000  -12.372   -176.14    5.9122    18.594   -24.723    46.456   -13.211    88.373   
3921500000  -12.295   -179.42    5.7432    16.133   -24.135    44.924   -13.357    84.749   
3943750000  -12.342    176.93    5.6311    13.944   -24.149    42.841   -13.632    81.612   
3966000000  -12.404    173.61    5.695    11.269   -23.976    43.244   -13.535    77.804   
3988250000  -12.371    170.31    5.684    8.075   -23.576    42.025   -13.684    74.803   
4010500000  -12.533    166.28    5.4854    6.0548   -23.081    39.854   -13.882    72.889   
4032750000  -12.448    159.3    5.4318    4.9123   -22.737    35.787   -14.086    67.058   
4055000000  -12.423    157.45    5.5012    .6962   -22.878    33.239   -14.66    59.921   
4077250000  -12.236    154.81    5.6526   -2.4527   -22.993    31.969   -14.226    60.765   
4099500000  -12.376    149.46    5.5329   -5.2103   -22.496    29.902   -14.118    59.083   
4121750000  -12.542    148.84    5.2659   -7.7742   -22.224    28.559   -14.275    55.635   
4144000000  -12.39    147.6    5.2473   -10.87   -21.939    27.264   -14.304    50.738   
4166250000  -12.61    142.68    5.2221   -12.452   -21.89    23.324   -14.523    47.847   
4188500000  -12.762    137.89    5.2434   -13.873   -21.945    21.569   -14.54    46.734   
4210750000  -12.809    133.61    5.31   -16.187   -21.696    19.045   -14.494    41.504   
4233000000  -13.167    130.65    5.2372   -19.904   -21.624    16.139   -14.605    34.091   
4255250000  -13.395    127.35    5.315   -22.214   -21.681    14.442   -14.552    27.591   
4277500000  -13.237    125.04    5.435   -24.776   -21.728    12.703   -14.683    24.23   
4299750000  -13.534    122.43    5.5147   -28.33   -21.68    12.561   -14.816    21.853   
4322000000  -13.668    121.49    5.3802   -31.994   -21.298    10.985   -14.693    16.982   
4344250000  -14.019    117.97    5.1226   -33.677   -21.074    8.4348   -14.618    9.5512   
4366500000  -14.27    112.46    5.0903   -35.692   -21.045    6.6206   -14.766    5.9299   
4388750000  -14.522    106.35    5.148   -38.371   -20.826    4.6349   -15.088    2.3511   
4411000000  -14.683    101.96    5.1798   -41.196   -20.621    2.3195   -15.259   -2.6958   
4433250000  -14.88    100.53    5.2478   -44.191   -20.486    .298   -14.992   -8.5913   
4455500000  -15.016    97.25    5.198   -47.151   -20.447   -2.8633   -14.959   -14.594   
4477750000  -15.335    94.245    5.1053   -49.93   -20.432   -4.032   -14.952   -18.787   
4500000000  -15.117    92.282    5.048   -51.47   -20.051   -4.3176   -14.917   -22.085   

