CITIFILE A.01.00
#NA VERSION HP8722ES.07.74: Oct 30, 2002
NAME DATA
VAR FREQ MAG 201
DATA S[1,1] RI
DATA S[2,1] RI
DATA S[1,2] RI
DATA S[2,2] RI
SEG_LIST_BEGIN
SEG 50000000 4500000000 201
SEG_LIST_END
BEGIN
2.15301E-1,-1.76391E-2
2.07244E-1,0.24734E-1
2.06085E-1,-3.27682E-2
2.07984E-1,-6.89544E-2
2.00096E-1,-7.39975E-2
2.05566E-1,-3.40042E-2
2.10029E-1,-3.84903E-2
2.06268E-1,-9.17892E-2
2.07931E-1,-1.07376E-1
1.94145E-1,-9.59701E-2
1.98234E-1,-7.70797E-2
1.94389E-1,-1.11030E-1
1.92764E-1,-1.45698E-1
1.85485E-1,-1.44531E-1
1.84219E-1,-1.35711E-1
1.86592E-1,-1.45752E-1
1.79428E-1,-1.75682E-1
1.65466E-1,-1.90361E-1
1.59515E-1,-1.87233E-1
1.53572E-1,-1.96723E-1
1.45874E-1,-2.16583E-1
1.42913E-1,-2.66754E-1
1.23840E-1,-2.59491E-1
1.24954E-1,-2.14508E-1
1.13891E-1,-2.32414E-1
1.01348E-1,-2.70660E-1
0.80535E-1,-2.82852E-1
0.65460E-1,-2.68768E-1
0.55252E-1,-2.55874E-1
0.43167E-1,-2.83035E-1
0.23101E-1,-2.93487E-1
0.06820E-1,-2.89764E-1
-2.36511E-3,-2.91900E-1
-1.89666E-2,-2.97683E-1
-2.16064E-2,-3.10684E-1
-4.18396E-2,-3.18283E-1
-6.16149E-2,-2.95440E-1
-7.19757E-2,-2.85919E-1
-9.21936E-2,-2.95593E-1
-1.01684E-1,-2.94784E-1
-1.16226E-1,-2.87811E-1
-1.33361E-1,-2.63961E-1
-1.40579E-1,-2.62695E-1
-1.55609E-1,-2.69866E-1
-1.69845E-1,-2.63031E-1
-1.81701E-1,-2.51892E-1
-1.86965E-1,-2.36496E-1
-1.98257E-1,-2.45285E-1
-2.10113E-1,-2.52319E-1
-2.18719E-1,-2.24929E-1
-2.20367E-1,-2.00271E-1
-2.30712E-1,-1.98837E-1
-2.43194E-1,-1.92184E-1
-2.50381E-1,-1.87133E-1
-2.59185E-1,-1.65023E-1
-2.55432E-1,-1.49276E-1
-2.65533E-1,-1.62963E-1
-2.70782E-1,-1.59668E-1
-2.74047E-1,-1.40365E-1
-2.84698E-1,-1.20407E-1
-2.84149E-1,-1.08581E-1
-2.89444E-1,-1.07391E-1
-2.95806E-1,-9.57031E-2
-2.98095E-1,-8.56933E-2
-3.01315E-1,-7.52563E-2
-2.95517E-1,-6.96563E-2
-2.93197E-1,-6.33850E-2
-2.96768E-1,-4.93469E-2
-3.02902E-1,-4.05883E-3
-3.06854E-1,-1.07116E-2
-2.88925E-1,-1.80816E-2
-3.05969E-1,-1.33209E-2
-3.09158E-1,0.07843E-1
-3.03558E-1,0.23788E-1
-3.00750E-1,0.14144E-1
-3.02124E-1,0.20645E-1
-2.99362E-1,0.39825E-1
-2.96081E-1,0.65704E-1
-2.92144E-1,0.70312E-1
-2.81433E-1,0.51178E-1
-2.93548E-1,0.70251E-1
-2.87582E-1,0.93170E-1
-2.85232E-1,0.98403E-1
-2.78854E-1,1.07849E-1
-2.68371E-1,1.13952E-1
-2.65838E-1,1.33132E-1
-2.56546E-1,1.46865E-1
-2.51663E-1,1.52954E-1
-2.47413E-1,1.62086E-1
-2.41462E-1,1.68029E-1
-2.44628E-1,1.79077E-1
-2.31262E-1,1.90338E-1
-2.15118E-1,1.86508E-1
-2.07328E-1,1.89224E-1
-1.97158E-1,2.04788E-1
-1.88568E-1,2.21061E-1
-1.80397E-1,2.24235E-1
-1.67503E-1,2.04780E-1
-1.64268E-1,2.22335E-1
-1.56356E-1,2.55813E-1
-1.40518E-1,2.56774E-1
-1.22596E-1,2.45552E-1
-1.07986E-1,2.42675E-1
-1.01104E-1,2.56988E-1
-8.43811E-2,2.71087E-1
-7.36694E-2,2.64373E-1
-7.06176E-2,2.60711E-1
-5.39703E-2,2.63534E-1
-5.0354E-2,2.85690E-1
-2.46887E-2,2.72094E-1
-3.52478E-3,2.50366E-1
0.06805E-1,2.44430E-1
0.24810E-1,2.46612E-1
0.38299E-1,2.51037E-1
0.48004E-1,2.44751E-1
0.52566E-1,2.39746E-1
0.65002E-1,2.29492E-1
0.74142E-1,2.28988E-1
0.88775E-1,2.11700E-1
1.04766E-1,1.90750E-1
1.18347E-1,1.77703E-1
1.28692E-1,1.71417E-1
1.42974E-1,1.62963E-1
1.46667E-1,1.45263E-1
1.41220E-1,1.35955E-1
1.52496E-1,1.16790E-1
1.50604E-1,1.17584E-1
1.57829E-1,0.90515E-1
1.64115E-1,0.61348E-1
1.62620E-1,0.48217E-1
1.71043E-1,0.34103E-1
1.70486E-1,0.17089E-1
1.69815E-1,0.07904E-1
1.64459E-1,0.01815E-1
1.61621E-1,-1.78222E-2
1.50680E-1,-3.60946E-2
1.42410E-1,-6.21795E-2
1.33476E-1,-7.19146E-2
1.24847E-1,-8.70742E-2
1.15226E-1,-9.41963E-2
1.11713E-1,-1.05484E-1
1.03656E-1,-1.13697E-1
9.33799E-2,-1.18972E-1
0.77873E-1,-1.30592E-1
0.51528E-1,-1.43112E-1
0.46783E-1,-1.51443E-1
0.31089E-1,-1.50825E-1
0.20881E-1,-1.53358E-1
0.10162E-1,-1.64299E-1
-1.52130E-2,-1.67282E-1
0.08575E-1,-1.55891E-1
-3.97682E-2,-7.58361E-2
-9.83276E-2,-8.58917E-2
0.19866E-1,-1.41357E-1
-6.01654E-2,-1.86538E-1
-7.39898E-2,-1.94915E-1
-9.14306E-2,-1.96456E-1
-1.04812E-1,-1.86828E-1
-1.20056E-1,-1.78543E-1
-1.28845E-1,-1.67877E-1
-1.44409E-1,-1.68838E-1
-1.64016E-1,-1.53854E-1
-1.82952E-1,-1.40777E-1
-1.93557E-1,-1.31576E-1
-2.04177E-1,-1.27822E-1
-2.09777E-1,-1.08642E-1
-2.12677E-1,-9.21325E-2
-2.13577E-1,-8.43811E-2
-2.14386E-1,-7.59124E-2
-2.21664E-1,-6.78863E-2
-2.30789E-1,-4.3396E-2
-2.41806E-1,-3.21350E-2
-2.40646E-1,-2.00042E-2
-2.40127E-1,-1.61895E-2
-2.42790E-1,-2.44903E-3
-2.41149E-1,0.12947E-1
-2.38288E-1,0.26672E-1
-2.37243E-1,0.40519E-1
-2.29492E-1,0.56022E-1
-2.23144E-1,0.84335E-1
-2.20954E-1,0.91743E-1
-2.21206E-1,1.04026E-1
-2.07183E-1,1.22230E-1
-2.01934E-1,1.22116E-1
-2.02781E-1,1.28677E-1
-1.86225E-1,1.41952E-1
-1.70700E-1,1.54296E-1
-1.57836E-1,1.65710E-1
-1.43074E-1,1.66610E-1
-1.29798E-1,1.70043E-1
-1.25076E-1,1.78352E-1
-1.12907E-1,1.77673E-1
-1.08299E-1,1.76773E-1
-9.33685E-2,1.75842E-1
-7.38983E-2,1.78756E-1
-5.28945E-2,1.80297E-1
-3.82309E-2,1.80442E-1
-3.29513E-2,1.77269E-1
-2.23999E-2,1.76086E-1
-1.26647E-2,1.70623E-1
-6.98852E-3,1.75308E-1
END
BEGIN
-3.74548E0,4.57397E-1
-3.77221E0,-1.43066E-1
-3.73022E0,5.56274E-1
-4.06372E0,7.55127E-1
-3.76611E0,9.97070E-1
-3.85046E0,1.33923E0
-3.67492E0,1.57495E0
-3.46716E0,1.87634E0
-3.46557E0,2.03100E0
-3.04150E0,2.31567E0
-3.07202E0,2.35717E0
-2.75854E0,2.63403E0
-2.69714E0,2.73815E0
-2.49121E0,2.92382E0
-2.24731E0,3.06225E0
-2.06189E0,3.09228E0
-1.78198E0,3.28564E0
-1.60376E0,3.31848E0
-1.38830E0,3.43042E0
-1.26037E0,3.60461E0
-9.31396E-1,3.48950E0
-7.53173E-1,3.48291E0
-5.22216E-1,3.50463E0
-3.08837E-1,3.53991E0
-8.66699E-2,3.52917E0
0.58715E-1,3.54126E0
2.38769E-1,3.45568E0
4.84985E-1,3.39856E0
6.53930E-1,3.29882E0
8.38623E-1,3.32299E0
1.05444E0,3.20825E0
1.15551E0,3.07153E0
1.28979E0,3.05737E0
1.48388E0,3.00366E0
1.72070E0,2.89331E0
1.90600E0,2.68530E0
1.85278E0,2.63964E0
1.91992E0,2.61865E0
2.14721E0,2.42675E0
2.20654E0,2.27294E0
2.33764E0,2.15893E0
2.42968E0,1.95361E0
2.51147E0,1.83691E0
2.65942E0,1.73584E0
2.71069E0,1.57446E0
2.78418E0,1.46313E0
2.78613E0,1.23510E0
2.88317E0,1.15515E0
3.00939E0,1.03259E0
2.95874E0,8.02856E-1
2.90576E0,7.02392E-1
2.99267E0,5.50170E-1
3.02844E0,3.70361E-1
3.03784E0,1.89941E-1
2.96752E0,0.46508E-1
2.96997E0,-4.04052E-2
2.99340E0,-2.28881E-1
2.91723E0,-4.25659E-1
2.89953E0,-5.62988E-1
2.88122E0,-7.13378E-1
2.82897E0,-8.21044E-1
2.82897E0,-9.71313E-1
2.73193E0,-1.16992E0
2.61035E0,-1.25634E0
2.54980E0,-1.33630E0
2.51818E0,-1.43029E0
2.52099E0,-1.57800E0
2.33129E0,-1.81311E0
2.11474E0,-1.78552E0
2.06835E0,-1.88696E0
2.00512E0,-2.04565E0
1.97326E0,-2.19751E0
1.77490E0,-2.27380E0
1.62976E0,-2.32299E0
1.54162E0,-2.41333E0
1.38818E0,-2.51428E0
1.21691E0,-2.56384E0
1.07165E0,-2.61499E0
9.55078E-1,-2.62231E0
8.74755E-1,-2.58374E0
7.33520E-1,-2.66809E0
5.38696E-1,-2.70922E0
4.20898E-1,-2.72497E0
2.56591E-1,-2.71240E0
1.30981E-1,-2.65026E0
-4.80957E-2,-2.71582E0
-2.32543E-1,-2.70043E0
-3.04443E-1,-2.66418E0
-4.24072E-1,-2.64794E0
-5.66406E-1,-2.62902E0
-6.99585E-1,-2.61975E0
-8.51562E-1,-2.55566E0
-9.24072E-1,-2.45019E0
-1.00341E0,-2.39355E0
-1.18579E0,-2.34143E0
-1.36572E0,-2.26147E0
-1.40148E0,-2.21374E0
-1.44812E0,-2.11621E0
-1.56762E0,-2.06213E0
-1.74865E0,-1.97033E0
-1.82812E0,-1.84558E0
-1.88098E0,-1.76452E0
-1.96508E0,-1.66613E0
-2.06030E0,-1.56701E0
-2.20166E0,-1.41857E0
-2.18359E0,-1.35693E0
-2.18481E0,-1.25293E0
-2.27612E0,-1.12707E0
-2.39587E0,-1.04260E0
-2.37744E0,-8.77929E-1
-2.35217E0,-7.33398E-1
-2.35327E0,-6.33178E-1
-2.45971E0,-4.57885E-1
-2.52441E0,-2.99804E-1
-2.49084E0,-2.59033E-1
-2.49353E0,-1.54296E-1
-2.49865E0,-5.49316E-3
-2.48254E0,1.09985E-1
-2.43139E0,2.40722E-1
-2.39245E0,3.33374E-1
-2.38867E0,4.47265E-1
-2.35803E0,5.94238E-1
-2.30786E0,7.04834E-1
-2.25647E0,7.95043E-1
-2.21521E0,8.93798E-1
-2.17517E0,1.03942E0
-2.12390E0,1.14550E0
-2.00561E0,1.24670E0
-1.88287E0,1.34881E0
-1.82440E0,1.41333E0
-1.80102E0,1.50903E0
-1.69879E0,1.61059E0
-1.62109E0,1.65258E0
-1.56555E0,1.7146E0
-1.45587E0,1.83953E0
-1.33575E0,1.90643E0
-1.15808E0,1.91516E0
-1.06768E0,1.91192E0
-1.03350E0,1.96014E0
-9.39575E-1,2.01440E0
-8.06640E-1,2.07214E0
-6.99707E-1,2.08593E0
-6.18774E-1,2.11767E0
-4.92675E-1,2.15930E0
-2.94433E-1,2.16088E0
-1.75293E-1,2.13476E0
-1.37329E-1,2.04882E0
-1.24755E-1,2.06994E0
-2.19726E-2,2.13488E0
1.44531E-1,2.09570E0
1.97387E-1,2.15673E0
-5.71289E-2,1.88287E0
1.53686E-1,1.67517E0
3.14697E-1,2.35607E0
7.14355E-1,2.03735E0
8.35083E-1,1.92846E0
8.85742E-1,1.91967E0
9.56420E-1,1.92675E0
1.08813E0,1.85864E0
1.15698E0,1.76001E0
1.2229E0,1.66735E0
1.26232E0,1.58337E0
1.31140E0,1.54809E0
1.38903E0,1.47485E0
1.43859E0,1.40856E0
1.50195E0,1.34289E0
1.56738E0,1.26123E0
1.63916E0,1.16784E0
1.67211E0,1.07861E0
1.68872E0,1.01208E0
1.72827E0,9.38964E-1
1.80737E0,8.09326E-1
1.85607E0,7.28759E-1
1.87207E0,6.29882E-1
1.86084E0,5.38330E-1
1.85595E0,4.60815E-1
1.88928E0,3.76464E-1
1.90490E0,2.70263E-1
1.86999E0,1.98364E-1
1.86206E0,1.60034E-1
1.88378E0,0.22888E-1
1.91528E0,-8.20312E-2
1.88299E0,-1.71691E-1
1.81671E0,-2.48046E-1
1.79681E0,-3.45031E-1
1.78143E0,-3.93371E-1
1.77545E0,-4.38537E-1
1.76983E0,-5.13793E-1
1.71832E0,-6.22192E-1
1.70709E0,-6.97143E-1
1.69751E0,-7.83508E-1
1.66082E0,-8.95446E-1
1.57568E0,-9.84314E-1
1.50085E0,-1.00012E0
1.45935E0,-1.04834E0
1.41815E0,-1.12286E0
1.36608E0,-1.19574E0
1.31195E0,-1.27545E0
1.23724E0,-1.33380E0
1.15869E0,-1.37744E0
1.11389E0,-1.39880E0
END
BEGIN
1.14807E-1,-5.92422E-3
1.20117E-1,1.25961E-2
1.22139E-1,-5.56182E-3
1.26533E-1,-6.62994E-3
1.23622E-1,-1.62010E-2
1.26869E-1,-2.63290E-2
1.24916E-1,-3.32641E-2
1.20910E-1,-3.99208E-2
1.20613E-1,-4.06723E-2
1.14788E-1,-5.04760E-2
1.14978E-1,-5.18455E-2
1.09493E-1,-5.94711E-2
1.09104E-1,-6.12754E-2
1.06102E-1,-6.50405E-2
1.04156E-1,-7.22961E-2
9.84115E-2,-7.66143E-2
9.24644E-2,-8.15811E-2
8.79364E-2,-8.43048E-2
8.65669E-2,-8.63189E-2
8.61587E-2,-9.18464E-2
7.94677E-2,-9.40094E-2
7.60116E-2,-9.36889E-2
7.20596E-2,-9.72442E-2
6.90536E-2,-9.95521E-2
6.45484E-2,-1.02912E-1
6.02111E-2,-1.08196E-1
5.40275E-2,-1.07517E-1
5.01251E-2,-1.08654E-1
4.32624E-2,-1.09901E-1
4.10537E-2,-1.13113E-1
3.32908E-2,-1.17221E-1
2.97966E-2,-1.11557E-1
2.82516E-2,-1.14597E-1
2.37274E-2,-1.17790E-1
1.56097E-2,-1.17191E-1
0.85067E-2,-1.15818E-1
0.96855E-2,-1.13777E-1
0.82702E-2,-1.14761E-1
-8.54873E-3,-1.10298E-1
-3.75366E-3,-1.13300E-1
-6.90460E-3,-1.13128E-1
-1.20620E-2,-1.13029E-1
-1.61438E-2,-1.12937E-1
-2.07824E-2,-1.11465E-1
-2.39715E-2,-1.08558E-1
-2.82363E-2,-1.09321E-1
-3.37142E-2,-1.06987E-1
-3.61175E-2,-1.06338E-1
-3.89328E-2,-1.05011E-1
-4.30831E-2,-1.01982E-1
-4.61731E-2,-1.00273E-1
-5.10864E-2,-9.97543E-2
-5.54275E-2,-9.51156E-2
-5.70297E-2,-9.21325E-2
-5.90286E-2,-9.01489E-2
-6.24389E-2,-8.92028E-2
-6.83288E-2,-8.81881E-2
-7.20062E-2,-8.13217E-2
-7.24487E-2,-7.75909E-2
-7.34252E-2,-7.72934E-2
-7.73773E-2,-7.71942E-2
-8.27865E-2,-7.44247E-2
-8.52813E-2,-6.7276E-2
-8.37860E-2,-6.32324E-2
-8.39996E-2,-6.42776E-2
-8.78295E-2,-5.97915E-2
-9.14535E-2,-5.46798E-2
-9.38034E-2,-4.84924E-2
-1.73973E-1,0.79841E-1
-9.47341E-2,-4.34036E-2
-9.90219E-2,-3.89022E-2
-1.01814E-1,-3.42407E-2
-9.83963E-2,-3.07617E-2
-9.77401E-2,-2.97393E-2
-9.97467E-2,-2.60391E-2
-1.02264E-1,-2.00767E-2
-1.02134E-1,-1.33857E-2
-1.01371E-1,-1.01394E-2
-1.01142E-1,-7.86590E-3
-9.66720E-2,-2.38037E-3
-9.88884E-2,0.07820E-2
-9.83734E-2,0.38299E-2
-9.85412E-2,0.59127E-2
-9.83352E-2,1.13945E-2
-9.62486E-2,1.71012E-2
-9.35363E-2,2.13966E-2
-9.18655E-2,2.34146E-2
-9.13200E-2,2.32429E-2
-9.02557E-2,2.95066E-2
-8.85047E-2,3.54614E-2
-8.70132E-2,3.52897E-2
-8.53576E-2,3.63388E-2
-8.30764E-2,3.94973E-2
-8.07228E-2,4.42314E-2
-7.73162E-2,4.79812E-2
-7.34291E-2,4.89540E-2
-7.34558E-2,4.97093E-2
-7.21397E-2,5.38711E-2
-6.89888E-2,5.83381E-2
-6.36138E-2,6.06002E-2
-6.02760E-2,5.88836E-2
-5.93547E-2,6.02798E-2
-5.76400E-2,6.40449E-2
-5.48019E-2,6.70547E-2
-4.87709E-2,6.80007E-2
-4.79278E-2,6.64062E-2
-4.63790E-2,6.83288E-2
-4.23355E-2,7.06825E-2
-3.88793E-2,7.17811E-2
-3.46984E-2,6.85882E-2
-3.42826E-2,6.87179E-2
-3.25164E-2,7.14492E-2
-2.66685E-2,7.34901E-2
-2.36549E-2,7.10601E-2
-2.23693E-2,6.94694E-2
-2.03514E-2,7.06558E-2
-1.69181E-2,7.22732E-2
-1.20201E-2,7.18421E-2
-9.48333E-3,6.91680E-2
-9.15527E-3,6.76269E-2
-6.49261E-3,6.96487E-2
-3.68881E-3,6.83631E-2
-1.13678E-3,6.65283E-2
-5.34057E-5,6.48727E-2
0.07820E-2,6.34384E-2
0.38185E-2,6.35337E-2
0.58479E-2,6.17942E-2
0.72898E-2,6.04553E-2
0.92239E-2,5.85632E-2
1.01356E-2,5.79261E-2
1.18866E-2,5.79032E-2
1.31721E-2,5.64918E-2
1.32293E-2,5.44662E-2
1.41105E-2,5.36499E-2
1.66168E-2,5.24139E-2
1.70364E-2,5.11932E-2
1.76315E-2,4.91638E-2
1.71546E-2,4.76837E-2
1.91726E-2,4.63218E-2
2.00042E-2,4.58488E-2
1.89933E-2,4.46624E-2
1.85051E-2,4.47387E-2
1.99775E-2,4.37965E-2
2.19574E-2,4.39415E-2
2.18887E-2,4.20837E-2
2.11830E-2,4.06608E-2
2.01435E-2,4.0205E-2
2.05268E-2,4.02984E-2
2.11677E-2,4.12559E-2
2.14157E-2,4.04167E-2
2.06813E-2,3.97319E-2
2.12535E-2,4.08840E-2
2.16865E-2,3.94058E-2
2.46467E-2,4.02259E-2
2.40478E-2,3.84521E-2
2.36129E-2,3.87229E-2
2.56156E-2,4.04129E-2
2.64854E-2,3.97758E-2
2.66647E-2,3.93791E-2
2.62527E-2,3.90014E-2
2.65693E-2,3.99093E-2
2.87056E-2,4.01268E-2
2.97355E-2,3.98368E-2
3.02810E-2,3.92799E-2
3.15475E-2,3.82804E-2
3.22990E-2,3.69300E-2
3.13186E-2,3.69796E-2
3.08151E-2,3.71437E-2
3.03497E-2,3.98025E-2
3.33061E-2,4.05769E-2
3.68843E-2,4.23126E-2
3.91578E-2,4.27017E-2
3.88336E-2,4.19120E-2
3.99971E-2,4.20837E-2
4.39834E-2,4.38690E-2
4.54788E-2,4.21752E-2
4.60891E-2,4.33464E-2
4.92134E-2,4.43534E-2
5.38444E-2,4.49485E-2
5.91926E-2,4.26712E-2
6.00509E-2,3.93562E-2
6.01081E-2,3.75137E-2
6.50405E-2,3.74031E-2
6.79893E-2,3.70063E-2
7.11059E-2,3.66439E-2
7.38716E-2,3.18527E-2
7.43408E-2,2.93884E-2
7.77626E-2,2.68440E-2
7.96737E-2,2.30560E-2
7.98034E-2,2.05535E-2
7.99560E-2,1.80244E-2
8.04443E-2,1.79252E-2
8.45375E-2,1.64108E-2
8.74176E-2,1.29623E-2
8.80737E-2,1.02233E-2
9.06333E-2,0.73471E-2
9.30252E-2,0.37689E-2
9.45625E-2,0.04921E-2
9.48638E-2,-4.74548E-3
9.49096E-2,-6.69097E-3
9.91363E-2,-7.48443E-3
END
BEGIN
5.34782E-2,4.76341E-2
6.81800E-2,5.07850E-2
8.76998E-2,0.70457E-2
8.76121E-2,-3.85513E-2
8.48846E-2,-3.22532E-2
8.56590E-2,0.64926E-2
1.01738E-1,0.12207E-2
9.63401E-2,-5.51643E-2
8.86383E-2,-6.40487E-2
8.70933E-2,-7.14607E-2
9.00878E-2,-6.47811E-2
7.84606E-2,-8.82148E-2
6.96029E-2,-1.14604E-1
5.92804E-2,-1.15341E-1
6.27441E-2,-1.21910E-1
0.52619E-1,-1.35932E-1
0.34393E-1,-1.43013E-1
0.21858E-1,-1.50802E-1
0.12336E-1,-1.53572E-1
0.03341E-1,-1.66976E-1
-1.04522E-2,-1.66748E-1
-5.22460E-2,-2.02423E-1
-5.26123E-2,-1.90170E-1
-4.61578E-2,-1.68800E-1
-5.50689E-2,-1.70570E-1
-7.53021E-2,-1.80297E-1
-9.15679E-2,-1.73355E-1
-9.87548E-2,-1.67694E-1
-1.08688E-1,-1.58691E-1
-1.18606E-1,-1.58157E-1
-1.37878E-1,-1.56997E-1
-1.44287E-1,-1.44790E-1
-1.31637E-1,-1.07902E-1
-1.42623E-1,-1.08505E-1
-1.79977E-1,-1.39755E-1
-2.04483E-1,-1.30081E-1
-1.85501E-1,-1.02371E-1
-1.77536E-1,-9.28344E-2
-1.94564E-1,-6.04858E-2
-2.01828E-1,-7.85064E-2
-2.06817E-1,-6.95343E-2
-2.11364E-1,-5.28411E-2
-2.09396E-1,-4.61731E-2
-2.26226E-1,-4.17785E-2
-2.28530E-1,-2.61688E-2
-2.20390E-1,-1.40533E-2
-2.14561E-1,0.01442E-1
-2.18490E-1,0.08377E-1
-2.30873E-1,0.13160E-1
-2.20031E-1,0.31082E-1
-2.04551E-1,0.37658E-1
-2.05413E-1,0.45379E-1
-2.06291E-1,0.54809E-1
-2.06901E-1,0.66978E-1
-1.90193E-1,0.80932E-1
-1.77063E-1,0.83396E-1
-1.83616E-1,0.90301E-1
-1.83837E-1,0.97961E-1
-1.71142E-1,1.05789E-1
-1.58607E-1,1.15081E-1
-1.48918E-1,1.15997E-1
-1.43310E-1,1.20529E-1
-1.34399E-1,1.24404E-1
-1.13510E-1,1.37908E-1
-9.44976E-2,1.43501E-1
-1.13311E-1,1.30928E-1
-1.15997E-1,1.30683E-1
-9.64584E-2,1.41319E-1
-4.45739E-1,2.12036E-1
-6.49948E-2,1.36619E-1
-6.61621E-2,1.36436E-1
-6.34002E-2,1.37954E-1
-3.96499E-2,1.39854E-1
-2.48260E-2,1.33148E-1
-3.99017E-2,1.30744E-1
-3.63845E-2,1.33293E-1
-1.70364E-2,1.30882E-1
0.64697E-2,1.2117E-1
0.42266E-2,1.12327E-1
-4.19616E-4,1.09779E-1
0.84495E-2,1.08326E-1
1.64184E-2,9.66568E-2
1.94587E-2,8.90464E-2
2.29377E-2,8.59451E-2
2.91328E-2,8.14247E-2
3.69262E-2,6.96144E-2
4.27131E-2,5.75637E-2
3.53736E-2,5.06172E-2
1.83067E-2,5.77316E-2
2.57148E-2,4.68597E-2
4.57649E-2,2.88467E-2
4.84161E-2,1.73873E-2
3.46450E-2,1.90277E-2
3.19728E-2,1.56040E-2
3.35102E-2,0.23078E-2
3.05414E-2,-5.78212E-3
2.60257E-2,-7.39383E-3
1.95531E-2,-9.50813E-3
1.95446E-2,-1.21583E-2
1.97496E-2,-2.10266E-2
1.80540E-2,-2.51321E-2
0.89626E-2,-2.99310E-2
-3.59153E-3,-3.00331E-2
0.39444E-2,-4.09717E-2
0.01545E-2,-4.65202E-2
-7.59887E-3,-4.84619E-2
-1.64184E-2,-4.50782E-2
-1.49917E-2,-5.05218E-2
-1.61819E-2,-6.14395E-2
-2.15683E-2,-6.47583E-2
-3.09410E-2,-6.34918E-2
-3.73077E-2,-6.16073E-2
-3.97605E-2,-7.01332E-2
-4.47616E-2,-7.94830E-2
-5.28373E-2,-6.62307E-2
-6.37779E-2,-6.23664E-2
-6.38961E-2,-6.46057E-2
-6.54983E-2,-7.37838E-2
-7.44628E-2,-7.46765E-2
-8.58383E-2,-7.03277E-2
-9.20562E-2,-6.65893E-2
-9.47494E-2,-6.73141E-2
-9.68093E-2,-7.15866E-2
-1.08062E-1,-6.16989E-2
-1.05651E-1,-6.01730E-2
-1.12594E-1,-6.05087E-2
-1.18392E-1,-5.84716E-2
-1.24130E-1,-5.56564E-2
-1.32637E-1,-4.91714E-2
-1.4814E-1,-4.11987E-2
-1.47865E-1,-4.31594E-2
-1.55319E-1,-3.86886E-2
-1.53701E-1,-2.95562E-2
-1.54090E-1,-2.40402E-2
-1.60545E-1,-2.25677E-2
-1.67182E-1,-2.41546E-2
-1.77444E-1,-2.12097E-2
-1.87034E-1,-6.04248E-3
-1.88461E-1,0.05950E-1
-1.89498E-1,0.15129E-1
-1.88995E-1,0.24116E-1
-1.88179E-1,0.30914E-1
-1.83990E-1,0.48011E-1
-1.88407E-1,0.42083E-1
-1.92733E-1,0.45272E-1
-1.94351E-1,0.53924E-1
-2.02781E-1,0.67436E-1
-1.96029E-1,0.82191E-1
-1.89491E-1,0.83648E-1
-1.89209E-1,0.88501E-1
-1.85211E-1,1.09375E-1
-1.85745E-1,1.13754E-1
-1.82067E-1,1.27868E-1
-1.69685E-1,1.23466E-1
-1.71585E-1,1.27761E-1
-1.72714E-1,1.51023E-1
-1.57241E-1,1.57157E-1
-1.49505E-1,1.57363E-1
-1.42463E-1,1.64863E-1
-1.39938E-1,1.71798E-1
-1.35887E-1,1.81877E-1
-1.27723E-1,1.84227E-1
-1.24710E-1,1.88781E-1
-1.14769E-1,1.99203E-1
-1.03675E-1,2.05581E-1
-9.77706E-2,2.15614E-1
-8.14056E-2,2.28897E-1
-5.77697E-2,2.32406E-1
-4.73098E-2,2.35084E-1
-3.41949E-2,2.31544E-1
-2.16064E-2,2.20916E-1
-6.68335E-3,2.19070E-1
0.01480E-1,2.13684E-1
0.06210E-1,2.18421E-1
0.19668E-1,2.13966E-1
0.30365E-1,2.05932E-1
0.44471E-1,2.05741E-1
0.54245E-1,1.99691E-1
0.59509E-1,1.93298E-1
0.77011E-1,1.81930E-1
0.92681E-1,1.60018E-1
0.94940E-1,1.69632E-1
1.01135E-1,1.68869E-1
1.09115E-1,1.59561E-1
1.21933E-1,1.49169E-1
1.26083E-1,1.39282E-1
1.28509E-1,1.36535E-1
1.41159E-1,1.24908E-1
1.54113E-1,1.04309E-1
1.65954E-1,0.86731E-1
1.6819E-1,0.75698E-1
1.68586E-1,0.67611E-1
1.76185E-1,0.53810E-1
1.83258E-1,0.30838E-1
1.81716E-1,0.18875E-1
1.75880E-1,0.07225E-1
1.72409E-1,-8.11767E-3
1.75994E-1,-2.65884E-2
1.72897E-1,-4.50210E-2
1.69281E-1,-5.75866E-2
1.66366E-1,-6.75048E-2
END

