! ListType=Lin
! Comment=55-131MHz Chebychev LC Filter
# Hz S RI R 50
1000.0000000   1.0146459  -0.0192129 
2513557.7889447  -0.9434700  -0.2451708 
5026115.5778894  -0.9778914  -0.0835188 
7538673.3668342  -0.9819057  -0.0112227 
10051231.1557789  -0.9797843   0.0391522 
12563788.9447236  -0.9756075   0.0804531 
15076346.7336683  -0.9696619   0.1177911 
17588904.5226131  -0.9629913   0.1533187 
20101462.3115578  -0.9539115   0.1882739 
22614020.1005025  -0.9437570   0.2235957 
25126577.8894472  -0.9319271   0.2594301 
27639135.6783920  -0.9172164   0.2959407 
30151693.4673367  -0.8998253   0.3341243 
32664251.2562814  -0.8792160   0.3744001 
35176809.0452261  -0.8524546   0.4166972 
37689366.8341709  -0.8189601   0.4618873 
40201924.6231156  -0.7761796   0.5098040 
42714482.4120603  -0.7194458   0.5587558 
45227040.2010050  -0.6427565   0.6063265 
47739597.9899497  -0.5367644   0.6425421 
50252155.7788945  -0.3942686   0.6464243 
52764713.5678392  -0.2305813   0.5750153 
55277271.3567839  -0.1165067   0.4017121 
57789829.1457286  -0.1428173   0.2010150 
60302386.9346734  -0.2677564   0.0980018 
62814944.7236181  -0.3819797   0.0991315 
65327502.5125628  -0.4440531   0.1485361 
67840060.3015075  -0.4598423   0.2078580 
70352618.0904523  -0.4428295   0.2595881 
72865175.8793970  -0.4022700   0.2982268 
75377733.6683417  -0.3461220   0.3203059 
77890291.4572864  -0.2811728   0.3233898 
80402849.2462312  -0.2136887   0.3052410 
82915407.0351759  -0.1504546   0.2661229 
85427964.8241206  -0.0984537   0.2078834 
87940522.6130653  -0.0641798   0.1360058 
90453080.4020101  -0.0513673   0.0576684 
92965638.1909548  -0.0605770  -0.0178715 
95478195.9798995  -0.0884295  -0.0834060 
97990753.7688442  -0.1295000  -0.1332924 
100503311.5577889  -0.1772112  -0.1659028 
103015869.3467337  -0.2250630  -0.1809518 
105528427.1356784  -0.2678874  -0.1800881 
108040984.9246231  -0.3015402  -0.1688553 
110553542.7135678  -0.3234816  -0.1463644 
113066100.5025126  -0.3314106  -0.1187402 
115578658.2914573  -0.3236558  -0.0892752 
118091216.0804020  -0.2990917  -0.0629653 
120603773.8693467  -0.2578475  -0.0456961 
123116331.6582915  -0.2007214  -0.0446760 
125628889.4472362  -0.1345501  -0.0670299 
128141447.2361809  -0.0687279  -0.1183760 
130654005.0251256  -0.0168372  -0.1996259 
133166562.8140704   0.0074528  -0.3030080 
135679120.6030151  -0.0035018  -0.4133797 
138191678.3919598  -0.0479570  -0.5155830 
140704236.1809045  -0.1170300  -0.5971918 
143216793.9698493  -0.1987733  -0.6542894 
145729351.7587940  -0.2823969  -0.6888659 
148241909.5477387  -0.3624835  -0.7046536 
150754467.3366834  -0.4360967  -0.7054539 
153267025.1256281  -0.5004571  -0.6985273 
155779582.9145729  -0.5566519  -0.6832836 
158292140.7035176  -0.6063800  -0.6653838 
160804698.4924623  -0.6479584  -0.6450440 
163317256.2814070  -0.6847480  -0.6232201 
165829814.0703518  -0.7164575  -0.6007541 
168342371.8592965  -0.7446224  -0.5788763 
170854929.6482412  -0.7689929  -0.5579737 
173367487.4371859  -0.7898519  -0.5368507 
175880045.2261307  -0.8091068  -0.5158529 
178392603.0150754  -0.8258093  -0.4963459 
180905160.8040201  -0.8410217  -0.4781699 
183417718.5929648  -0.8540498  -0.4596049 
185930276.3819095  -0.8664300  -0.4420936 
188442834.1708543  -0.8769304  -0.4256947 
190955391.9597990  -0.8869015  -0.4095675 
193467949.7487437  -0.8957133  -0.3939985 
195980507.5376884  -0.9040050  -0.3794285 
198493065.3266332  -0.9114334  -0.3650561 
201005623.1155779  -0.9182186  -0.3513084 
203518180.9045226  -0.9244367  -0.3380238 
206030738.6934673  -0.9300902  -0.3255501 
208543296.4824121  -0.9351209  -0.3131056 
211055854.2713568  -0.9396421  -0.3009882 
213568412.0603015  -0.9441295  -0.2890313 
216080969.8492462  -0.9495784  -0.2785031 
218593527.6381910  -0.9527634  -0.2681160 
221106085.4271357  -0.9563909  -0.2570768 
223618643.2160804  -0.9596354  -0.2466393 
226131201.0050251  -0.9626936  -0.2373088 
228643758.7939698  -0.9646807  -0.2273912 
231156316.5829146  -0.9670006  -0.2171277 
233668874.3718593  -0.9707950  -0.2076889 
236181432.1608040  -0.9722758  -0.1993579 
238693989.9497488  -0.9748727  -0.1906029 
241206547.7386935  -0.9758002  -0.1822468 
243719105.5276382  -0.9785842  -0.1739965 
246231663.3165829  -0.9803775  -0.1663973 
248744221.1055276  -0.9820639  -0.1579308 
251256778.8944724  -0.9848139  -0.1486908 
253769336.6834171  -0.9833786  -0.1408731 
256281894.4723618  -0.9853266  -0.1345782 
258794452.2613065  -0.9863715  -0.1268264 
261307010.0502512  -0.9884469  -0.1214850 
263819567.8391960  -0.9892552  -0.1124293 
266332125.6281407  -0.9890956  -0.1058278 
268844683.4170854  -0.9886520  -0.0999660 
271357241.2060301  -0.9910783  -0.0930230 
273869798.9949749  -0.9918466  -0.0857668 
276382356.7839196  -0.9928252  -0.0799561 
278894914.5728643  -0.9934905  -0.0742072 
281407472.3618091  -0.9953902  -0.0675300 
283920030.1507538  -0.9944071  -0.0616421 
286432587.9396985  -0.9948422  -0.0550289 
288945145.7286432  -0.9952984  -0.0480952 
291457703.5175880  -0.9961091  -0.0438869 
293970261.3065327  -0.9956970  -0.0374418 
296482819.0954774  -0.9966017  -0.0313440 
298995376.8844221  -0.9957954  -0.0257029 
301507934.6733668  -0.9953950  -0.0188341 
304020492.4623116  -0.9966966  -0.0150827 
306533050.2512563  -0.9965856  -0.0084201 
309045608.0402010  -0.9990613  -0.0013099 
311558165.8291457  -0.9973757   0.0029547 
314070723.6180905  -0.9969864   0.0083858 
316583281.4070352  -0.9958530   0.0128068 
319095839.1959799  -0.9970558   0.0193187 
321608396.9849246  -0.9979457   0.0235551 
324120954.7738693  -0.9951979   0.0260980 
326633512.5628141  -0.9965847   0.0345585 
329146070.3517588  -0.9960077   0.0368444 
331658628.1407035  -0.9959729   0.0427353 
334171185.9296482  -0.9954879   0.0472914 
336683743.7185929  -0.9964457   0.0529016 
339196301.5075377  -0.9941962   0.0575063 
341708859.2964824  -0.9887713   0.0623430 
344221417.0854272  -0.9943230   0.0669271 
346733974.8743719  -0.9942992   0.0706710 
349246532.6633166  -0.9945364   0.0759062 
351759090.4522613  -0.9939146   0.0806355 
354271648.2412061  -0.9931238   0.0850063 
356784206.0301508  -0.9932073   0.0890548 
359296763.8190955  -0.9920000   0.0950824 
361809321.6080402  -0.9934391   0.0984221 
364321879.3969849  -0.9924149   0.1018488 
366834437.1859297  -0.9916880   0.1066026 
369346994.9748744  -0.9917224   0.1103779 
371859552.7638191  -0.9908355   0.1155607 
374372110.5527638  -0.9907702   0.1194435 
376884668.3417085  -0.9865724   0.1257111 
379397226.1306533  -0.9899854   0.1273773 
381909783.9195980  -0.9886951   0.1317107 
384422341.7085427  -0.9875553   0.1362803 
386934899.4974874  -0.9881761   0.1396555 
389447457.2864321  -0.9859283   0.1449003 
391960015.0753769  -0.9862470   0.1492170 
394472572.8643216  -0.9841477   0.1515706 
396985130.6532663  -0.9852201   0.1563312 
399497688.4422110  -0.9834471   0.1601011 
402010246.2311558  -0.9840643   0.1624982 
404522804.0201005  -0.9850459   0.1678314 
407035361.8090453  -0.9807730   0.1704147 
409547919.5979900  -0.9817747   0.1738351 
412060477.3869347  -0.9804643   0.1782743 
414573035.1758794  -0.9820278   0.1808934 
417085592.9648241  -0.9797073   0.1858448 
419598150.7537689  -0.9810303   0.1885428 
422110708.5427136  -0.9777491   0.1901793 
424623266.3316583  -0.9792104   0.1984837 
427135824.1206030  -0.9756395   0.1994883 
429648381.9095477  -0.9752581   0.2019758 
432160939.6984925  -0.9756371   0.2078277 
434673497.4874372  -0.9755264   0.2080031 
437186055.2763819  -0.9717467   0.2132313 
439698613.0653266  -0.9704683   0.2190510 
442211170.8542714  -0.9695470   0.2195493 
444723728.6432161  -0.9705130   0.2264829 
447236286.4321608  -0.9704568   0.2298749 
449748844.2211055  -0.9676906   0.2291502 
452261402.0100502  -0.9687423   0.2364464 
454773959.7989950  -0.9677206   0.2376458 
457286517.5879397  -0.9699683   0.2414793 
459799075.3768844  -0.9642218   0.2473956 
462311633.1658291  -0.9655509   0.2539311 
464824190.9547738  -0.9639557   0.2515945 
467336748.7437186  -0.9615660   0.2580085 
469849306.5326633  -0.9598167   0.2590814 
472361864.3216081  -0.9581511   0.2639835 
474874422.1105528  -0.9569654   0.2692090 
477386979.8994975  -0.9599645   0.2726433 
479899537.6884422  -0.9585355   0.2741666 
482412095.4773870  -0.9586848   0.2782240 
484924653.2663317  -0.9550338   0.2817166 
487437211.0552764  -0.9563692   0.2810565 
489949768.8442211  -0.9541092   0.2867613 
492462326.6331658  -0.9528701   0.2920634 
494974884.4221106  -0.9492901   0.2910496 
497487442.2110553  -0.9484856   0.2962072 
500000000.0000000  -0.9468975   0.2975104 
