! ListType=Lin
! Comment=55-131MHz Chebychev LC Filter
# Hz S RI R 50
1000.0000000  -0.0002333  -0.0002355 
2513557.7889447   0.0000057   0.0000300 
5026115.5778894  -0.0000312   0.0000492 
7538673.3668342  -0.0000883  -0.0001306 
10051231.1557789  -0.0002103  -0.0003860 
12563788.9447236  -0.0004683  -0.0009429 
15076346.7336683  -0.0008534  -0.0017673 
17588904.5226131  -0.0015020  -0.0030331 
20101462.3115578  -0.0025120  -0.0047575 
22614020.1005025  -0.0040128  -0.0071188 
25126577.8894472  -0.0062422  -0.0102487 
27639135.6783920  -0.0094968  -0.0142532 
30151693.4673367  -0.0142665  -0.0194019 
32664251.2562814  -0.0211964  -0.0259153 
35176809.0452261  -0.0313740  -0.0339665 
37689366.8341709  -0.0463298  -0.0436709 
40201924.6231156  -0.0686118  -0.0547462 
42714482.4120603  -0.1020897  -0.0659838 
45227040.2010050  -0.1527384  -0.0735919 
47739597.9899497  -0.2283932  -0.0677656 
50252155.7788945  -0.3341226  -0.0248928 
52764713.5678392  -0.4515033   0.0964501 
55277271.3567839  -0.5024405   0.3210531 
57789829.1457286  -0.3974166   0.5639994 
60302386.9346734  -0.1867704   0.6973260 
62814944.7236181   0.0162818   0.7172359 
65327502.5125628   0.1734485   0.6834884 
67840060.3015075   0.2947422   0.6327231 
70352618.0904523   0.3944514   0.5770894 
72865175.8793970   0.4824260   0.5172437 
75377733.6683417   0.5643287   0.4512116 
77890291.4572864   0.6400086   0.3755246 
80402849.2462312   0.7081768   0.2864686 
82915407.0351759   0.7642339   0.1829146 
85427964.8241206   0.8025556   0.0664781 
87940522.6130653   0.8188792  -0.0584595 
90453080.4020101   0.8100584  -0.1859382 
92965638.1909548   0.7761969  -0.3081603 
95478195.9798995   0.7208434  -0.4191061 
97990753.7688442   0.6490935  -0.5141556 
100503311.5577889   0.5663045  -0.5921884 
103015869.3467337   0.4778634  -0.6537581 
105528427.1356784   0.3870441  -0.7023620 
108040984.9246231   0.2935284  -0.7366812 
110553542.7135678   0.1994288  -0.7608320 
113066100.5025126   0.1036814  -0.7766360 
115578658.2914573   0.0050615  -0.7822898 
118091216.0804020  -0.0981012  -0.7761630 
120603773.8693467  -0.2047825  -0.7557888 
123116331.6582915  -0.3138475  -0.7156514 
125628889.4472362  -0.4202864  -0.6519148 
128141447.2361809  -0.5138731  -0.5604968 
130654005.0251256  -0.5848308  -0.4459368 
133166562.8140704  -0.6202558  -0.3165034 
135679120.6030151  -0.6197879  -0.1874551 
138191678.3919598  -0.5859249  -0.0740658 
140704236.1809045  -0.5298690   0.0152869 
143216793.9698493  -0.4649007   0.0791650 
145729351.7587940  -0.3995661   0.1201549 
148241909.5477387  -0.3388304   0.1438078 
150754467.3366834  -0.2857516   0.1547528 
153267025.1256281  -0.2402710   0.1575125 
155779582.9145729  -0.2022136   0.1550471 
158292140.7035176  -0.1706463   0.1496870 
160804698.4924623  -0.1443463   0.1422790 
163317256.2814070  -0.1227346   0.1343865 
165829814.0703518  -0.1045870   0.1260147 
168342371.8592965  -0.0895909   0.1178440 
170854929.6482412  -0.0769257   0.1100969 
173367487.4371859  -0.0665344   0.1027414 
175880045.2261307  -0.0575529   0.0957608 
178392603.0150754  -0.0498903   0.0892978 
180905160.8040201  -0.0434610   0.0833507 
183417718.5929648  -0.0378970   0.0778619 
185930276.3819095  -0.0332547   0.0727673 
188442834.1708543  -0.0291674   0.0682556 
190955391.9597990  -0.0256543   0.0639046 
193467949.7487437  -0.0225207   0.0600323 
195980507.5376884  -0.0198698   0.0563510 
198493065.3266332  -0.0176045   0.0529634 
201005623.1155779  -0.0154586   0.0499671 
203518180.9045226  -0.0136486   0.0470640 
206030738.6934673  -0.0121160   0.0444252 
208543296.4824121  -0.0106794   0.0420287 
211055854.2713568  -0.0094049   0.0397828 
213568412.0603015  -0.0083349   0.0377009 
216080969.8492462  -0.0072970   0.0357441 
218593527.6381910  -0.0064310   0.0340548 
221106085.4271357  -0.0055285   0.0323104 
223618643.2160804  -0.0048426   0.0308142 
226131201.0050251  -0.0042184   0.0293585 
228643758.7939698  -0.0036064   0.0279762 
231156316.5829146  -0.0030746   0.0267460 
233668874.3718593  -0.0026418   0.0256115 
236181432.1608040  -0.0021799   0.0245327 
238693989.9497488  -0.0017893   0.0235002 
241206547.7386935  -0.0013659   0.0224955 
243719105.5276382  -0.0010747   0.0216414 
246231663.3165829  -0.0007913   0.0208057 
248744221.1055276  -0.0004936   0.0200109 
251256778.8944724  -0.0002255   0.0192783 
253769336.6834171  -0.0000110   0.0185399 
256281894.4723618   0.0002315   0.0179441 
258794452.2613065   0.0004327   0.0173001 
261307010.0502512   0.0006043   0.0167071 
263819567.8391960   0.0008038   0.0161880 
266332125.6281407   0.0009806   0.0156921 
268844683.4170854   0.0010945   0.0151535 
271357241.2060301   0.0012605   0.0146507 
273869798.9949749   0.0014029   0.0142385 
276382356.7839196   0.0015468   0.0138558 
278894914.5728643   0.0016385   0.0133965 
281407472.3618091   0.0017556   0.0130820 
283920030.1507538   0.0018775   0.0126954 
286432587.9396985   0.0019373   0.0123730 
288945145.7286432   0.0020696   0.0120861 
291457703.5175880   0.0021297   0.0117492 
293970261.3065327   0.0022157   0.0114282 
296482819.0954774   0.0023330   0.0111770 
298995376.8844221   0.0024320   0.0109290 
301507934.6733668   0.0024978   0.0106620 
304020492.4623116   0.0025622   0.0104489 
306533050.2512563   0.0026477   0.0102765 
309045608.0402010   0.0027547   0.0100256 
311558165.8291457   0.0027939   0.0097966 
314070723.6180905   0.0028735   0.0096280 
316583281.4070352   0.0030060   0.0094371 
319095839.1959799   0.0030633   0.0092548 
321608396.9849246   0.0030727   0.0090794 
324120954.7738693   0.0030836   0.0088950 
326633512.5628141   0.0032211   0.0088287 
329146070.3517588   0.0032563   0.0086620 
331658628.1407035   0.0032816   0.0084948 
334171185.9296482   0.0033526   0.0083801 
336683743.7185929   0.0034525   0.0082912 
339196301.5075377   0.0034535   0.0081432 
341708859.2964824   0.0036122   0.0080247 
344221417.0854272   0.0035368   0.0078972 
346733974.8743719   0.0035010   0.0077565 
349246532.6633166   0.0035630   0.0076423 
351759090.4522613   0.0036648   0.0075048 
354271648.2412061   0.0036982   0.0074058 
356784206.0301508   0.0037438   0.0073629 
359296763.8190955   0.0038161   0.0072820 
361809321.6080402   0.0039560   0.0071901 
364321879.3969849   0.0040022   0.0070446 
366834437.1859297   0.0040327   0.0070365 
369346994.9748744   0.0041012   0.0069780 
371859552.7638191   0.0041856   0.0069338 
374372110.5527638   0.0042061   0.0068518 
376884668.3417085   0.0042844   0.0068119 
379397226.1306533   0.0043148   0.0067142 
381909783.9195980   0.0042982   0.0066254 
384422341.7085427   0.0043076   0.0065696 
386934899.4974874   0.0043005   0.0064819 
389447457.2864321   0.0043420   0.0065102 
391960015.0753769   0.0044445   0.0063065 
394472572.8643216   0.0044174   0.0061814 
396985130.6532663   0.0044041   0.0061781 
399497688.4422110   0.0045857   0.0061198 
402010246.2311558   0.0045903   0.0060465 
404522804.0201005   0.0045455   0.0059927 
407035361.8090453   0.0046471   0.0059971 
409547919.5979900   0.0047713   0.0058618 
412060477.3869347   0.0047493   0.0058683 
414573035.1758794   0.0047535   0.0056883 
417085592.9648241   0.0048055   0.0057898 
419598150.7537689   0.0048130   0.0057677 
422110708.5427136   0.0048585   0.0057924 
424623266.3316583   0.0049031   0.0057375 
427135824.1206030   0.0049799   0.0057775 
429648381.9095477   0.0050796   0.0056119 
432160939.6984925   0.0051391   0.0055831 
434673497.4874372   0.0050370   0.0055152 
437186055.2763819   0.0050424   0.0054870 
439698613.0653266   0.0051103   0.0054847 
442211170.8542714   0.0052806   0.0055227 
444723728.6432161   0.0053064   0.0055583 
447236286.4321608   0.0052516   0.0055649 
449748844.2211055   0.0053556   0.0053703 
452261402.0100502   0.0052004   0.0054827 
454773959.7989950   0.0053443   0.0053216 
457286517.5879397   0.0052974   0.0054565 
459799075.3768844   0.0055267   0.0054355 
462311633.1658291   0.0054600   0.0054707 
464824190.9547738   0.0055375   0.0052718 
467336748.7437186   0.0055132   0.0054070 
469849306.5326633   0.0054394   0.0054120 
472361864.3216081   0.0054946   0.0053035 
474874422.1105528   0.0057758   0.0053214 
477386979.8994975   0.0058916   0.0054796 
479899537.6884422   0.0056790   0.0052591 
482412095.4773870   0.0058137   0.0055155 
484924653.2663317   0.0061228   0.0051968 
487437211.0552764   0.0059718   0.0052838 
489949768.8442211   0.0060125   0.0053696 
492462326.6331658   0.0061339   0.0053956 
494974884.4221106   0.0062832   0.0052047 
497487442.2110553   0.0063476   0.0055817 
500000000.0000000   0.0066483   0.0056110 
