# HZ S RI R 50
1.00000000000e+006 -9.98550683504e-001 -5.38194432657e-002 +2.67964658058e-008 -4.97174025264e-007 +2.67964658058e-008 -4.97174025264e-007 -9.98550683504e-001 -5.38194432657e-002
3.50753768844e+006 -9.99867079970e-001 +1.63040462771e-002 -3.52458642360e-007 -2.16149897735e-005 -3.52458642360e-007 -2.16149897735e-005 -9.99867079970e-001 +1.63040462771e-002
6.01507537688e+006 -9.98812150191e-001 +4.87265479759e-002 -5.37176450745e-006 -1.10112123286e-004 -5.37176450745e-006 -1.10112123286e-004 -9.98812150191e-001 +4.87265479759e-002
8.52261306533e+006 -9.97027580344e-001 +7.70448071178e-002 -2.45735634007e-005 -3.18003527744e-004 -2.45735634007e-005 -3.18003527744e-004 -9.97027580344e-001 +7.70448071178e-002
1.10301507538e+007 -9.94529579587e-001 +1.04452930530e-001 -7.39058821267e-005 -7.03681414273e-004 -7.39058821267e-005 -7.03681414273e-004 -9.94529579587e-001 +1.04452930530e-001
1.35376884422e+007 -9.91261099141e-001 +1.31907615046e-001 -1.77680377688e-004 -1.33523486435e-003 -1.77680377688e-004 -1.33523486435e-003 -9.91261099141e-001 +1.31907615046e-001
1.60452261307e+007 -9.87131906681e-001 +1.59891199841e-001 -3.71658675290e-004 -2.29453614170e-003 -3.71658675290e-004 -2.29453614170e-003 -9.87131906681e-001 +1.59891199841e-001
1.85527638191e+007 -9.82017978875e-001 +1.88750172844e-001 -7.07790864429e-004 -3.68245148432e-003 -7.07790864429e-004 -3.68245148432e-003 -9.82017978875e-001 +1.88750172844e-001
2.10603015075e+007 -9.75753199058e-001 +2.18797749607e-001 -1.26146723344e-003 -5.62565515754e-003 -1.26146723344e-003 -5.62565515754e-003 -9.75753199058e-001 +2.18797749607e-001
2.35678391960e+007 -9.68115502449e-001 +2.50358003659e-001 -2.14270892082e-003 -8.28569365932e-003 -2.14270892082e-003 -8.28569365932e-003 -9.68115502449e-001 +2.50358003659e-001
2.60753768844e+007 -9.58805598889e-001 +2.83793151662e-001 -3.51369967301e-003 -1.18711635555e-002 -3.51369967301e-003 -1.18711635555e-002 -9.58805598889e-001 +2.83793151662e-001
2.85829145729e+007 -9.47414106150e-001 +3.19527156773e-001 -5.61680216412e-003 -1.66541011897e-002 -5.61680216412e-003 -1.66541011897e-002 -9.47414106150e-001 +3.19527156773e-001
3.10904522613e+007 -9.33369551365e-001 +3.58071023956e-001 -8.82040474240e-003 -2.29917995774e-002 -8.82040474240e-003 -2.29917995774e-002 -9.33369551365e-001 +3.58071023956e-001
3.35979899497e+007 -9.15853516927e-001 +4.00052035002e-001 -1.36960253798e-002 -3.13548036618e-002 -1.36960253798e-002 -3.13548036618e-002 -9.15853516927e-001 +4.00052035002e-001
3.61055276382e+007 -8.93657191415e-001 +4.46245564586e-001 -2.11520252616e-002 -4.23593218356e-002 -2.11520252616e-002 -4.23593218356e-002 -8.93657191415e-001 +4.46245564586e-001
3.86130653266e+007 -8.64929395895e-001 +4.97598363058e-001 -3.26733807989e-002 -5.67931279809e-002 -3.26733807989e-002 -5.67931279809e-002 -8.64929395895e-001 +4.97598363058e-001
4.11206030151e+007 -8.26716396725e-001 +5.55201198953e-001 -5.07666273205e-002 -7.55935024841e-002 -5.07666273205e-002 -7.55935024841e-002 -8.26716396725e-001 +5.55201198953e-001
4.36281407035e+007 -7.74092557743e-001 +6.20067632743e-001 -7.98102678749e-002 -9.96351545074e-002 -7.98102678749e-002 -9.96351545074e-002 -7.74092557743e-001 +6.20067632743e-001
4.61356783920e+007 -6.98498525261e-001 +6.92237213530e-001 -1.27693279680e-001 -1.28848270216e-001 -1.27693279680e-001 -1.28848270216e-001 -6.98498525261e-001 +6.92237213530e-001
4.86432160804e+007 -5.84776158560e-001 +7.67571717229e-001 -2.08751954280e-001 -1.59038123964e-001 -2.08751954280e-001 -1.59038123964e-001 -5.84776158560e-001 +7.67571717229e-001
5.11507537688e+007 -4.07982679344e-001 +8.26984029495e-001 -3.46922479461e-001 -1.71150055681e-001 -3.46922479461e-001 -1.71150055681e-001 -4.07982679344e-001 +8.26984029495e-001
5.36582914573e+007 -1.45259940138e-001 +8.06648122923e-001 -5.63834302110e-001 -1.01534404711e-001 -5.63834302110e-001 -1.01534404711e-001 -1.45259940138e-001 +8.06648122923e-001
5.61658291457e+007 +1.30879369075e-001 +5.78156891932e-001 -7.85485647572e-001 +1.77813094345e-001 -7.85485647572e-001 +1.77813094345e-001 +1.30879369075e-001 +5.78156891932e-001
5.86733668342e+007 +1.50832371349e-001 +1.77143248704e-001 -7.40492638588e-001 +6.30508142207e-001 -7.40492638588e-001 +6.30508142207e-001 +1.50832371349e-001 +1.77143248704e-001
6.11809045226e+007 -9.54069159418e-002 -4.40377218202e-002 -4.16767516864e-001 +9.02919174862e-001 -4.16767516864e-001 +9.02919174862e-001 -9.54069159418e-002 -4.40377218202e-002
6.36884422111e+007 -3.14480891638e-001 -3.51357411033e-002 -1.05329559050e-001 +9.42747544405e-001 -1.05329559050e-001 +9.42747544405e-001 -3.14480891638e-001 -3.51357411033e-002
6.61959798995e+007 -4.23109149672e-001 +5.32687602739e-002 +1.12984637172e-001 +8.97427188359e-001 +1.12984637172e-001 +8.97427188359e-001 -4.23109149672e-001 +5.32687602739e-002
6.87035175879e+007 -4.52195942963e-001 +1.46577060452e-001 +2.71284181537e-001 +8.36922270802e-001 +2.71284181537e-001 +8.36922270802e-001 -4.52195942963e-001 +1.46577060452e-001
7.12110552764e+007 -4.32032563310e-001 +2.23276408951e-001 +4.01168095337e-001 +7.76247169869e-001 +4.01168095337e-001 +7.76247169869e-001 -4.32032563310e-001 +2.23276408951e-001
7.37185929648e+007 -3.80302043263e-001 +2.77113079300e-001 +5.19635223112e-001 +7.13132478627e-001 +5.19635223112e-001 +7.13132478627e-001 -3.80302043263e-001 +2.77113079300e-001
7.62261306533e+007 -3.08173248900e-001 +3.04696299724e-001 +6.33630111912e-001 +6.40860589267e-001 +6.33630111912e-001 +6.40860589267e-001 -3.08173248900e-001 +3.04696299724e-001
7.87336683417e+007 -2.25186299529e-001 +3.03029094942e-001 +7.43243086240e-001 +5.52317130713e-001 +7.43243086240e-001 +5.52317130713e-001 -2.25186299529e-001 +3.03029094942e-001
8.12412060302e+007 -1.41779937070e-001 +2.70361333421e-001 +8.43335919744e-001 +4.42253010509e-001 +8.43335919744e-001 +4.42253010509e-001 -1.41779937070e-001 +2.70361333421e-001
8.37487437186e+007 -6.96345330982e-002 +2.08210293607e-001 +9.25228893768e-001 +3.09436584091e-001 +9.25228893768e-001 +3.09436584091e-001 -6.96345330982e-002 +2.08210293607e-001
8.62562814070e+007 -1.98729884545e-002 +1.23047168404e-001 +9.79509042706e-001 +1.58197642004e-001 +9.79509042706e-001 +1.58197642004e-001 -1.98729884545e-002 +1.23047168404e-001
8.87638190955e+007 +5.04209443663e-005 +2.61041307906e-002 +9.99657363078e-001 -1.93086943572e-003 +9.99657363078e-001 -1.93086943572e-003 +5.04209443662e-005 +2.61041307906e-002
9.12713567839e+007 -1.11836553182e-002 -6.92705826319e-002 +9.84783235236e-001 -1.58992112490e-001 +9.84783235236e-001 -1.58992112490e-001 -1.11836553182e-002 -6.92705826319e-002
9.37788944724e+007 -4.87300482295e-002 -1.51397195436e-001 +9.39789676708e-001 -3.02489066193e-001 +9.39789676708e-001 -3.02489066193e-001 -4.87300482295e-002 -1.51397195436e-001
9.62864321608e+007 -1.03944274476e-001 -2.12955920199e-001 +8.73066516584e-001 -4.26145774912e-001 +8.73066516584e-001 -4.26145774912e-001 -1.03944274476e-001 -2.12955920199e-001
9.87939698492e+007 -1.67446548719e-001 -2.51434072686e-001 +7.93433301552e-001 -5.28399618095e-001 +7.93433301552e-001 -5.28399618095e-001 -1.67446548719e-001 -2.51434072686e-001
1.01301507538e+008 -2.31263052018e-001 -2.67884375989e-001 +7.07963911625e-001 -6.11181202025e-001 +7.07963911625e-001 -6.11181202025e-001 -2.31263052018e-001 -2.67884375989e-001
1.03809045226e+008 -2.89577453371e-001 -2.65221523099e-001 +6.21161434832e-001 -6.78204183165e-001 +6.21161434832e-001 -6.78204183165e-001 -2.89577453371e-001 -2.65221523099e-001
1.06316582915e+008 -3.38495709736e-001 -2.46896496898e-001 +5.35076451875e-001 -7.33591142912e-001 +5.35076451875e-001 -7.33591142912e-001 -3.38495709736e-001 -2.46896496898e-001
1.08824120603e+008 -3.75395721114e-001 -2.16184625062e-001 +4.49791337506e-001 -7.81044181312e-001 +4.49791337506e-001 -7.81044181312e-001 -3.75395721114e-001 -2.16184625062e-001
1.11331658291e+008 -3.98235423668e-001 -1.75993900881e-001 +3.63895933044e-001 -8.23416324894e-001 +3.63895933044e-001 -8.23416324894e-001 -3.98235423668e-001 -1.75993900881e-001
1.13839195980e+008 -4.04978623235e-001 -1.29044983080e-001 +2.74815846242e-001 -8.62447655060e-001 +2.74815846242e-001 -8.62447655060e-001 -4.04978623235e-001 -1.29044983080e-001
1.16346733668e+008 -3.93198407452e-001 -7.83451514216e-002 +1.79016744721e-001 -8.98448693435e-001 +1.79016744721e-001 -8.98448693435e-001 -3.93198407452e-001 -7.83451514216e-002
1.18854271357e+008 -3.59945291283e-001 -2.79647706391e-002 +7.22340709498e-002 -9.29752439029e-001 +7.22340709498e-002 -9.29752439029e-001 -3.59945291283e-001 -2.79647706391e-002
1.21361809045e+008 -3.02120730016e-001 +1.58560126449e-002 -4.99541829379e-002 -9.51827836830e-001 -4.99541829379e-002 -9.51827836830e-001 -3.02120730016e-001 +1.58560126449e-002
1.23869346734e+008 -2.17862702826e-001 +4.34368416718e-002 -1.90642948207e-001 -9.56192632163e-001 -1.90642948207e-001 -9.56192632163e-001 -2.17862702826e-001 +4.34368416718e-002
1.26376884422e+008 -1.09618262964e-001 +4.10768941518e-002 -3.48486531224e-001 -9.29975087165e-001 -3.48486531224e-001 -9.29975087165e-001 -1.09618262964e-001 +4.10768941518e-002
1.28884422111e+008 +1.11895634475e-002 -6.68839794861e-003 -5.13022152353e-001 -8.58276371688e-001 -5.13022152353e-001 -8.58276371688e-001 +1.11895634475e-002 -6.68839794861e-003
1.31391959799e+008 +1.21051623063e-001 -1.09416025770e-001 -6.61566015520e-001 -7.31918742052e-001 -6.61566015520e-001 -7.31918742052e-001 +1.21051623063e-001 -1.09416025770e-001
1.33899497487e+008 +1.89722146818e-001 -2.59699944308e-001 -7.64576007429e-001 -5.58556151875e-001 -7.64576007429e-001 -5.58556151875e-001 +1.89722146818e-001 -2.59699944308e-001
1.36407035176e+008 +1.96248929686e-001 -4.29971047165e-001 -8.01697279942e-001 -3.65913551990e-001 -8.01697279942e-001 -3.65913551990e-001 +1.96248929686e-001 -4.29971047165e-001
1.38914572864e+008 +1.42397481865e-001 -5.85909511070e-001 -7.75201611268e-001 -1.88402398829e-001 -7.75201611268e-001 -1.88402398829e-001 +1.42397481865e-001 -5.85909511070e-001
1.41422110553e+008 +4.85891165475e-002 -7.04926207958e-001 -7.05939406224e-001 -4.86589542242e-002 -7.05939406224e-001 -4.86589542242e-002 +4.85891165475e-002 -7.04926207958e-001
1.43929648241e+008 -6.11911052536e-002 -7.82093654835e-001 -6.18259850626e-001 +4.83727279462e-002 -6.18259850626e-001 +4.83727279462e-002 -6.11911052536e-002 -7.82093654835e-001
1.46437185930e+008 -1.69774789080e-001 -8.23859496746e-001 -5.29640956036e-001 +1.09144437800e-001 -5.29640956036e-001 +1.09144437800e-001 -1.69774789080e-001 -8.23859496746e-001
1.48944723618e+008 -2.68408535326e-001 -8.40044733039e-001 -4.49100061723e-001 +1.43495084298e-001 -4.49100061723e-001 +1.43495084298e-001 -2.68408535326e-001 -8.40044733039e-001
1.51452261307e+008 -3.54187049729e-001 -8.39435336294e-001 -3.79768114657e-001 +1.60237414719e-001 -3.79768114657e-001 +1.60237414719e-001 -3.54187049729e-001 -8.39435336294e-001
1.53959798995e+008 -4.27261366314e-001 -8.28519577620e-001 -3.21687601527e-001 +1.65891896664e-001 -3.21687601527e-001 +1.65891896664e-001 -4.27261366314e-001 -8.28519577620e-001
1.56467336683e+008 -4.89032309872e-001 -8.11663915721e-001 -2.73624199757e-001 +1.64860198726e-001 -2.73624199757e-001 +1.64860198726e-001 -4.89032309872e-001 -8.11663915721e-001
1.58974874372e+008 -5.41221844701e-001 -7.91663648485e-001 -2.33999673900e-001 +1.59974170103e-001 -2.33999673900e-001 +1.59974170103e-001 -5.41221844701e-001 -7.91663648485e-001
1.61482412060e+008 -5.85469813545e-001 -7.70255057459e-001 -2.01298662569e-001 +1.53006837541e-001 -2.01298662569e-001 +1.53006837541e-001 -5.85469813545e-001 -7.70255057459e-001
1.63989949749e+008 -6.23194146722e-001 -7.48492101770e-001 -1.74211401592e-001 +1.45048325170e-001 -1.74211401592e-001 +1.45048325170e-001 -6.23194146722e-001 -7.48492101770e-001
1.66497487437e+008 -6.55568105998e-001 -7.26998856734e-001 -1.51658923338e-001 +1.36757784706e-001 -1.51658923338e-001 +1.36757784706e-001 -6.55568105998e-001 -7.26998856734e-001
1.69005025126e+008 -6.83542801872e-001 -7.06131675685e-001 -1.32772579845e-001 +1.28525237380e-001 -1.32772579845e-001 +1.28525237380e-001 -6.83542801872e-001 -7.06131675685e-001
1.71512562814e+008 -7.07882790300e-001 -6.86081387421e-001 -1.16860154512e-001 +1.20573584662e-001 -1.16860154512e-001 +1.20573584662e-001 -7.07882790300e-001 -6.86081387421e-001
1.74020100503e+008 -7.29201587077e-001 -6.66937215497e-001 -1.03371782141e-001 +1.13022434263e-001 -1.03371782141e-001 +1.13022434263e-001 -7.29201587077e-001 -6.66937215497e-001
1.76527638191e+008 -7.47992519750e-001 -6.48726677725e-001 -9.18703048886e-002 +1.05927971214e-001 -9.18703048886e-002 +1.05927971214e-001 -7.47992519750e-001 -6.48726677725e-001
1.79035175879e+008 -7.64653962432e-001 -6.31440499084e-001 -8.20070575906e-002 +9.93078866893e-002 -8.20070575906e-002 +9.93078866893e-002 -7.64653962432e-001 -6.31440499084e-001
1.81542713568e+008 -7.79509382373e-001 -6.15048172375e-001 -7.35026853384e-002 +9.31569841590e-002 -7.35026853384e-002 +9.31569841590e-002 -7.79509382373e-001 -6.15048172375e-001
1.84050251256e+008 -7.92823042845e-001 -5.99507664683e-001 -6.61321748420e-002 +8.74569503894e-002 -6.61321748420e-002 +8.74569503894e-002 -7.92823042845e-001 -5.99507664683e-001
1.86557788945e+008 -8.04812232409e-001 -5.84771444069e-001 -5.97132508899e-002 +8.21824581904e-002 -5.97132508899e-002 +8.21824581904e-002 -8.04812232409e-001 -5.84771444069e-001
1.89065326633e+008 -8.15656779391e-001 -5.70790183987e-001 -5.40973967144e-002 +7.73049530552e-002 -5.40973967144e-002 +7.73049530552e-002 -8.15656779391e-001 -5.70790183987e-001
1.91572864322e+008 -8.25506468134e-001 -5.57514997747e-001 -4.91628962146e-002 +7.27949722992e-002 -4.91628962146e-002 +7.27949722992e-002 -8.25506468134e-001 -5.57514997747e-001
1.94080402010e+008 -8.34486840860e-001 -5.44898741531e-001 -4.48094262581e-002 +6.86235326105e-002 -4.48094262581e-002 +6.86235326105e-002 -8.34486840860e-001 -5.44898741531e-001
1.96587939698e+008 -8.42703757992e-001 -5.32896728195e-001 -4.09538361610e-002 +6.47629264942e-002 -4.09538361610e-002 +6.47629264942e-002 -8.42703757992e-001 -5.32896728195e-001
1.99095477387e+008 -8.50247001848e-001 -5.21467070460e-001 -3.75268377566e-002 +6.11871450737e-002 -3.75268377566e-002 +6.11871450737e-002 -8.50247001848e-001 -5.21467070460e-001
2.01603015075e+008 -8.57193140625e-001 -5.10570793677e-001 -3.44703960403e-002 +5.78720667267e-002 -3.44703960403e-002 +5.78720667267e-002 -8.57193140625e-001 -5.10570793677e-001
2.04110552764e+008 -8.63607817869e-001 -5.00171808263e-001 -3.17356609920e-002 +5.47955012362e-002 -3.17356609920e-002 +5.47955012362e-002 -8.63607817869e-001 -5.00171808263e-001
2.06618090452e+008 -8.69547593475e-001 -4.90236799680e-001 -2.92813193901e-002 +5.19371471625e-002 -2.92813193901e-002 +5.19371471625e-002 -8.69547593475e-001 -4.90236799680e-001
2.09125628141e+008 -8.75061432703e-001 -4.80735073043e-001 -2.70722741983e-002 +4.92784994789e-002 -2.70722741983e-002 +4.92784994789e-002 -8.75061432703e-001 -4.80735073043e-001
2.11633165829e+008 -8.80191917427e-001 -4.71638375922e-001 -2.50785807700e-002 +4.68027311203e-002 -2.50785807700e-002 +4.68027311203e-002 -8.80191917427e-001 -4.71638375922e-001
2.14140703518e+008 -8.84976236928e-001 -4.62920714134e-001 -2.32745854574e-002 +4.44945633783e-002 -2.32745854574e-002 +4.44945633783e-002 -8.84976236928e-001 -4.62920714134e-001
2.16648241206e+008 -8.89447002755e-001 -4.54558169596e-001 -2.16382245768e-002 +4.23401344031e-002 -2.16382245768e-002 +4.23401344031e-002 -8.89447002755e-001 -4.54558169596e-001
2.19155778894e+008 -8.93632922394e-001 -4.46528725592e-001 -2.01504510781e-002 +4.03268713801e-002 -2.01504510781e-002 +4.03268713801e-002 -8.93632922394e-001 -4.46528725592e-001
2.21663316583e+008 -8.97559359037e-001 -4.38812102397e-001 -1.87947634315e-002 +3.84433695577e-002 -1.87947634315e-002 +3.84433695577e-002 -8.97559359037e-001 -4.38812102397e-001
2.24170854271e+008 -9.01248798942e-001 -4.31389604682e-001 -1.75568167372e-002 +3.66792797645e-002 -1.75568167372e-002 +3.66792797645e-002 -9.01248798942e-001 -4.31389604682e-001
2.26678391960e+008 -9.04721243493e-001 -4.24243981113e-001 -1.64241002945e-002 +3.50252050783e-002 -1.64241002945e-002 +3.50252050783e-002 -9.04721243493e-001 -4.24243981113e-001
2.29185929648e+008 -9.07994539540e-001 -4.17359295993e-001 -1.53856691412e-002 +3.34726067001e-002 -1.53856691412e-002 +3.34726067001e-002 -9.07994539540e-001 -4.17359295993e-001
2.31693467337e+008 -9.11084658942e-001 -4.10720812414e-001 -1.44319196177e-002 +3.20137187241e-002 -1.44319196177e-002 +3.20137187241e-002 -9.11084658942e-001 -4.10720812414e-001
2.34201005025e+008 -9.14005936107e-001 -4.04314886211e-001 -1.35544010022e-002 +3.06414712861e-002 -1.35544010022e-002 +3.06414712861e-002 -9.14005936107e-001 -4.04314886211e-001
2.36708542714e+008 -9.16771270626e-001 -3.98128869899e-001 -1.27456568246e-002 +2.93494214701e-002 -1.27456568246e-002 +2.93494214701e-002 -9.16771270626e-001 -3.98128869899e-001
2.39216080402e+008 -9.19392300794e-001 -3.92151025764e-001 -1.19990906985e-002 +2.81316913126e-002 -1.19990906985e-002 +2.81316913126e-002 -9.19392300794e-001 -3.92151025764e-001
2.41723618090e+008 -9.21879552744e-001 -3.86370447283e-001 -1.13088524884e-002 +2.69829122473e-002 -1.13088524884e-002 +2.69829122473e-002 -9.21879552744e-001 -3.86370447283e-001
2.44231155779e+008 -9.24242569064e-001 -3.80776988093e-001 -1.06697414074e-002 +2.58981753571e-002 -1.06697414074e-002 +2.58981753571e-002 -9.24242569064e-001 -3.80776988093e-001
2.46738693467e+008 -9.26490020090e-001 -3.75361197764e-001 -1.00771232606e-002 +2.48729868398e-002 -1.00771232606e-002 +2.48729868398e-002 -9.26490020090e-001 -3.75361197764e-001
2.49246231156e+008 -9.28629800525e-001 -3.70114263719e-001 -9.52685955090e-003 +2.39032281422e-002 -9.52685955090e-003 +2.39032281422e-002 -9.28629800525e-001 -3.70114263719e-001
2.51753768844e+008 -9.30669113577e-001 -3.65027958670e-001 -9.01524656497e-003 +2.29851202628e-002 -9.01524656497e-003 +2.29851202628e-002 -9.30669113577e-001 -3.65027958670e-001
2.54261306533e+008 -9.32614544436e-001 -3.60094593007e-001 -8.53896288444e-003 +2.21151917721e-002 -8.53896288444e-003 +2.21151917721e-002 -9.32614544436e-001 -3.60094593007e-001
2.56768844221e+008 -9.34472124639e-001 -3.55306971656e-001 -8.09502403132e-003 +2.12902501470e-002 -8.09502403132e-003 +2.12902501470e-002 -9.34472124639e-001 -3.55306971656e-001
2.59276381910e+008 -9.36247388595e-001 -3.50658354928e-001 -7.68074317339e-003 +2.05073560561e-002 -7.68074317339e-003 +2.05073560561e-002 -9.36247388595e-001 -3.50658354928e-001
2.61783919598e+008 -9.37945423364e-001 -3.46142422961e-001 -7.29369699201e-003 +1.97638002720e-002 -7.29369699201e-003 +1.97638002720e-002 -9.37945423364e-001 -3.46142422961e-001
2.64291457286e+008 -9.39570912601e-001 -3.41753243403e-001 -6.93169596050e-003 +1.90570829252e-002 -6.93169596050e-003 +1.90570829252e-002 -9.39570912601e-001 -3.41753243403e-001
2.66798994975e+008 -9.41128175447e-001 -3.37485241986e-001 -6.59275840082e-003 +1.83848948429e-002 -6.59275840082e-003 +1.83848948429e-002 -9.41128175447e-001 -3.37485241986e-001
2.69306532663e+008 -9.42621201032e-001 -3.33333175724e-001 -6.27508778582e-003 +1.77451007461e-002 -6.27508778582e-003 +1.77451007461e-002 -9.42621201032e-001 -3.33333175724e-001
2.71814070352e+008 -9.44053679145e-001 -3.29292108457e-001 -5.97705283640e-003 +1.71357241055e-002 -5.97705283640e-003 +1.71357241055e-002 -9.44053679145e-001 -3.29292108457e-001
2.74321608040e+008 -9.45429027566e-001 -3.25357388522e-001 -5.69717003158e-003 +1.65549334758e-002 -5.69717003158e-003 +1.65549334758e-002 -9.45429027566e-001 -3.25357388522e-001
2.76829145729e+008 -9.46750416475e-001 -3.21524628332e-001 -5.43408820674e-003 +1.60010301530e-002 -5.43408820674e-003 +1.60010301530e-002 -9.46750416475e-001 -3.21524628332e-001
